<Qucs Dataset 25.1.2>
<indep dc1.i(pr1) 1>
1.332294000000e-03+j0.000000000000e+00
</indep>
<indep dc1.gm 1>
0.000000000000e+00+j0.000000000000e+00
</indep>
<indep sw1.v(v-sweep) 201>
2.000000000000e-01
2.010000000000e-01
2.020000000000e-01
2.030000000000e-01
2.040000000000e-01
2.050000000000e-01
2.060000000000e-01
2.070000000000e-01
2.080000000000e-01
2.090000000000e-01
2.100000000000e-01
2.110000000000e-01
2.120000000000e-01
2.130000000000e-01
2.140000000000e-01
2.150000000000e-01
2.160000000000e-01
2.170000000000e-01
2.180000000000e-01
2.190000000000e-01
2.200000000000e-01
2.210000000000e-01
2.220000000000e-01
2.230000000000e-01
2.240000000000e-01
2.250000000000e-01
2.260000000000e-01
2.270000000000e-01
2.280000000000e-01
2.290000000000e-01
2.300000000000e-01
2.310000000000e-01
2.320000000000e-01
2.330000000000e-01
2.340000000000e-01
2.350000000000e-01
2.360000000000e-01
2.370000000000e-01
2.380000000000e-01
2.390000000000e-01
2.400000000000e-01
2.410000000000e-01
2.420000000000e-01
2.430000000000e-01
2.440000000000e-01
2.450000000000e-01
2.460000000000e-01
2.470000000000e-01
2.480000000000e-01
2.490000000000e-01
2.500000000000e-01
2.510000000000e-01
2.520000000000e-01
2.530000000000e-01
2.540000000000e-01
2.550000000000e-01
2.560000000000e-01
2.570000000000e-01
2.580000000000e-01
2.590000000000e-01
2.600000000000e-01
2.610000000000e-01
2.620000000000e-01
2.630000000000e-01
2.640000000000e-01
2.650000000000e-01
2.660000000000e-01
2.670000000000e-01
2.680000000000e-01
2.690000000000e-01
2.700000000000e-01
2.710000000000e-01
2.720000000000e-01
2.730000000000e-01
2.740000000000e-01
2.750000000000e-01
2.760000000000e-01
2.770000000000e-01
2.780000000000e-01
2.790000000000e-01
2.800000000000e-01
2.810000000000e-01
2.820000000000e-01
2.830000000000e-01
2.840000000000e-01
2.850000000000e-01
2.860000000000e-01
2.870000000000e-01
2.880000000000e-01
2.890000000000e-01
2.900000000000e-01
2.910000000000e-01
2.920000000000e-01
2.930000000000e-01
2.940000000000e-01
2.950000000000e-01
2.960000000000e-01
2.970000000000e-01
2.980000000000e-01
2.990000000000e-01
3.000000000000e-01
3.010000000000e-01
3.020000000000e-01
3.030000000000e-01
3.040000000000e-01
3.050000000000e-01
3.060000000000e-01
3.070000000000e-01
3.080000000000e-01
3.090000000000e-01
3.100000000000e-01
3.110000000000e-01
3.120000000000e-01
3.130000000000e-01
3.140000000000e-01
3.150000000000e-01
3.160000000000e-01
3.170000000000e-01
3.180000000000e-01
3.190000000000e-01
3.200000000000e-01
3.210000000000e-01
3.220000000000e-01
3.230000000000e-01
3.240000000000e-01
3.250000000000e-01
3.260000000000e-01
3.270000000000e-01
3.280000000000e-01
3.290000000000e-01
3.300000000000e-01
3.310000000000e-01
3.320000000000e-01
3.330000000000e-01
3.340000000000e-01
3.350000000000e-01
3.360000000000e-01
3.370000000000e-01
3.380000000000e-01
3.390000000000e-01
3.400000000000e-01
3.410000000000e-01
3.420000000000e-01
3.430000000000e-01
3.440000000000e-01
3.450000000000e-01
3.460000000000e-01
3.470000000000e-01
3.480000000000e-01
3.490000000000e-01
3.500000000000e-01
3.510000000000e-01
3.520000000000e-01
3.530000000000e-01
3.540000000000e-01
3.550000000000e-01
3.560000000000e-01
3.570000000000e-01
3.580000000000e-01
3.590000000000e-01
3.600000000000e-01
3.610000000000e-01
3.620000000000e-01
3.630000000000e-01
3.640000000000e-01
3.650000000000e-01
3.660000000000e-01
3.670000000000e-01
3.680000000000e-01
3.690000000000e-01
3.700000000000e-01
3.710000000000e-01
3.720000000000e-01
3.730000000000e-01
3.740000000000e-01
3.750000000000e-01
3.760000000000e-01
3.770000000000e-01
3.780000000000e-01
3.790000000000e-01
3.800000000000e-01
3.810000000000e-01
3.820000000000e-01
3.830000000000e-01
3.840000000000e-01
3.850000000000e-01
3.860000000000e-01
3.870000000000e-01
3.880000000000e-01
3.890000000000e-01
3.900000000000e-01
3.910000000000e-01
3.920000000000e-01
3.930000000000e-01
3.940000000000e-01
3.950000000000e-01
3.960000000000e-01
3.970000000000e-01
3.980000000000e-01
3.990000000000e-01
4.000000000000e-01
</indep>
<dep sw1.i(pr1) sw1.v(v-sweep)>
4.369592927785e-05
4.491008750215e-05
4.617511183587e-05
4.747550459752e-05
4.881223849801e-05
5.018631204254e-05
5.159875018016e-05
5.305060494714e-05
5.454295612326e-05
5.607691190078e-05
5.765360956583e-05
5.927421619260e-05
6.093992934976e-05
6.265197781995e-05
6.441162233149e-05
6.622015630272e-05
6.807890659891e-05
6.998923430159e-05
7.195253548987e-05
7.397024203441e-05
7.604382240300e-05
7.817478247828e-05
8.036466638693e-05
8.261505734027e-05
8.492757848622e-05
8.730389377192e-05
8.974570881697e-05
9.225477179668e-05
9.483287433557e-05
9.748185240943e-05
1.002035872572e-04
1.030000063001e-04
1.058730840697e-04
1.088248431421e-04
1.118573550792e-04
1.149727413758e-04
1.181731744115e-04
1.214608784069e-04
1.248381303830e-04
1.283072611236e-04
1.318706561385e-04
1.355307566277e-04
1.392900604440e-04
1.431511230552e-04
1.471165585017e-04
1.511890403509e-04
1.553713026449e-04
1.596661408418e-04
1.640764127482e-04
1.686050394407e-04
1.732550061766e-04
1.780293632902e-04
1.829312270740e-04
1.879637806426e-04
1.931302747776e-04
1.984340287509e-04
2.038784311252e-04
2.094669405288e-04
2.152030864026e-04
2.210904697182e-04
2.271327636624e-04
2.333337142881e-04
2.396971411277e-04
2.462269377674e-04
2.529270723783e-04
2.598015882043e-04
2.668546040011e-04
2.740903144264e-04
2.815129903764e-04
2.891269792677e-04
2.969367052602e-04
3.049466694193e-04
3.131614498149e-04
3.215857015537e-04
3.302241567418e-04
3.390816243766e-04
3.481629901640e-04
3.574732162580e-04
3.670173409221e-04
3.768004781079e-04
3.868278169505e-04
3.971046211770e-04
4.076362284269e-04
4.184280494825e-04
4.294855674074e-04
4.408143365914e-04
4.524199817004e-04
4.643081965304e-04
4.764847427651e-04
4.889554486349e-04
5.017262074787e-04
5.148029762071e-04
5.281917736681e-04
5.418986789141e-04
5.559298293736e-04
5.702914189262e-04
5.849896958837e-04
6.000309608791e-04
6.154215646651e-04
6.311679058254e-04
6.472764284014e-04
6.637536194373e-04
6.806060064490e-04
6.978401548184e-04
7.154626651204e-04
7.334801703857e-04
7.518993333060e-04
7.707268433864e-04
7.899694140519e-04
8.096337797150e-04
8.297266928097e-04
8.502549208009e-04
8.712252431761e-04
8.926444484266e-04
9.145193310278e-04
9.368566884258e-04
9.596633180395e-04
9.829460142865e-04
1.006711565642e-03
1.030966751742e-03
1.055718340531e-03
1.080973085480e-03
1.106737722864e-03
1.133018969125e-03
1.159823518315e-03
1.187158039646e-03
1.215029175128e-03
1.243443537339e-03
1.272407707295e-03
1.301928232465e-03
1.332011624914e-03
1.362664359583e-03
1.393892872726e-03
1.425703560496e-03
1.458102777690e-03
1.491096836656e-03
1.524692006370e-03
1.558894511680e-03
1.593710532726e-03
1.629146204531e-03
1.665207616769e-03
1.701900813709e-03
1.739231794335e-03
1.777206512640e-03
1.815830878088e-03
1.855110756253e-03
1.895051969618e-03
1.935660298541e-03
1.976941482375e-03
2.018901220740e-03
2.061545174946e-03
2.104878969549e-03
2.148908194042e-03
2.193638404674e-03
2.239075126380e-03
2.285223854822e-03
2.332090058530e-03
2.379679181133e-03
2.427996643666e-03
2.477047846954e-03
2.526838174053e-03
2.577372992746e-03
2.628657658073e-03
2.680697514901e-03
2.733497900507e-03
2.787064147180e-03
2.841401584818e-03
2.896515543518e-03
2.952411356155e-03
3.009094360930e-03
3.066569903878e-03
3.124843341345e-03
3.183920042407e-03
3.243805391226e-03
3.304504789351e-03
3.366023657936e-03
3.428367439891e-03
3.491541601933e-03
3.555551636566e-03
3.620403063952e-03
3.686101433689e-03
3.752652326492e-03
3.820061355759e-03
3.888334169035e-03
3.957476449369e-03
4.027493916548e-03
4.098392328231e-03
4.170177480959e-03
4.242855211056e-03
4.316431395414e-03
4.390911952166e-03
4.466302841238e-03
4.542610064805e-03
4.619839667617e-03
4.697997737235e-03
4.777090404146e-03
4.857123841781e-03
4.938104266434e-03
5.020037937074e-03
5.102931155068e-03
5.186790263813e-03
</dep>
<dep sw1.i(gm) sw1.v(v-sweep)>
1.188725168078e-03
1.239591277624e-03
1.282708546491e-03
1.318563329633e-03
1.355403722592e-03
1.393255842252e-03
1.432146450320e-03
1.472102969302e-03
1.513153477184e-03
1.555326719860e-03
1.598652144885e-03
1.643159892595e-03
1.688880812978e-03
1.735846488771e-03
1.784089241674e-03
1.833642135907e-03
1.884538996855e-03
1.936814443049e-03
1.990503865734e-03
2.045643458182e-03
2.102270221016e-03
2.160421988862e-03
2.220137432118e-03
2.281456048969e-03
2.344418215117e-03
2.409065166020e-03
2.475439011107e-03
2.543582756864e-03
2.613540305063e-03
2.685356460752e-03
2.759076943803e-03
2.834748404901e-03
2.912418422874e-03
2.992135504698e-03
3.073949113031e-03
3.157909662654e-03
3.244068516040e-03
3.332477986895e-03
3.423191357932e-03
3.516262877312e-03
3.611747750654e-03
3.709702152577e-03
3.810183213382e-03
3.913249026155e-03
4.018958645880e-03
4.127372071672e-03
4.238550245006e-03
4.352555051490e-03
4.469449298661e-03
4.589296714208e-03
4.712161925546e-03
4.838110448269e-03
4.967208674600e-03
5.099523850305e-03
5.235124055147e-03
5.374078171805e-03
5.516455885867e-03
5.662327639655e-03
5.811764594022e-03
5.964838629246e-03
6.121622287303e-03
6.282188731887e-03
6.446611736876e-03
6.614965624152e-03
6.787325217417e-03
6.963765809331e-03
7.144363110001e-03
7.329193188355e-03
7.518332420631e-03
7.711857439752e-03
7.909845074039e-03
8.112372277047e-03
8.319516068944e-03
8.531353461904e-03
8.747961409483e-03
8.969416712468e-03
9.195795939831e-03
9.427175375443e-03
9.663630923917e-03
9.905238016473e-03
1.015207153454e-02
1.040420573783e-02
1.066171414976e-02
1.092466948904e-02
1.119314355602e-02
1.146720714473e-02
1.174692996742e-02
1.203238053016e-02
1.232362605119e-02
1.262073235786e-02
1.292376378448e-02
1.323278309506e-02
1.354785135188e-02
1.386902784972e-02
1.419637000755e-02
1.452993325568e-02
1.486977097631e-02
1.521593438891e-02
1.556847247208e-02
1.592743186851e-02
1.629285680505e-02
1.666478902340e-02
1.704326768959e-02
1.742832933527e-02
1.782000778316e-02
1.821833408933e-02
1.862333649871e-02
1.903504037504e-02
1.945346816612e-02
1.987863937813e-02
2.031057054097e-02
2.074927518248e-02
2.119476381157e-02
2.164704392449e-02
2.210611999942e-02
2.257199350453e-02
2.304466292902e-02
2.352412380269e-02
2.401036872701e-02
2.450338744264e-02
2.500316686760e-02
2.550969116477e-02
2.602294182097e-02
2.654289772597e-02
2.706953526221e-02
2.760282840342e-02
2.814274884422e-02
2.868926608368e-02
2.924234756207e-02
2.980195881008e-02
3.036806355805e-02
3.094062390385e-02
3.151960045589e-02
3.210495248052e-02
3.269663808059e-02
3.329461434021e-02
3.389883750948e-02
3.450926317683e-02
3.512584642795e-02
3.574854202171e-02
3.637730458639e-02
3.701208878049e-02
3.765284946322e-02
3.829954187662e-02
3.895212180716e-02
3.961054576429e-02
4.027477114299e-02
4.094475637650e-02
4.162046109890e-02
4.230184628718e-02
4.298887440335e-02
4.368150954814e-02
4.437971756221e-02
4.508346616650e-02
4.579272507410e-02
4.650746607382e-02
4.722766315268e-02
4.795329256879e-02
4.868433291083e-02
4.942076519043e-02
5.016257289636e-02
5.090974200961e-02
5.166226107622e-02
5.242012121798e-02
5.318331613857e-02
5.395184215385e-02
5.472569816867e-02
5.550488566630e-02
5.628940870484e-02
5.707927386389e-02
5.787449020555e-02
5.867506926194e-02
5.948102494191e-02
6.029237346983e-02
6.110913335266e-02
6.193132527077e-02
6.275897199793e-02
6.359209833651e-02
6.443073100826e-02
6.527489856100e-02
6.612463127009e-02
6.697996103533e-02
6.784092127088e-02
6.870754680044e-02
6.957987375511e-02
7.045793943128e-02
7.134178220536e-02
7.223144141210e-02
7.312695722649e-02
7.402837055448e-02
7.493572291129e-02
7.584905632108e-02
7.676841318638e-02
7.769383621170e-02
7.862536826675e-02
7.956305227275e-02
8.050693114203e-02
8.145704764573e-02
8.241344431692e-02
8.337616336807e-02
8.434205411501e-02
</dep>
