<Qucs Dataset 1.0.5>
<indep V2 301>
  +0.00000000000000000000e+00
  +1.00000000000000002082e-02
  +2.00000000000000004163e-02
  +2.99999999999999988898e-02
  +4.00000000000000008327e-02
  +5.00000000000000027756e-02
  +5.99999999999999977796e-02
  +7.00000000000000066613e-02
  +8.00000000000000016653e-02
  +8.99999999999999966693e-02
  +1.00000000000000005551e-01
  +1.10000000000000000555e-01
  +1.19999999999999995559e-01
  +1.30000000000000004441e-01
  +1.40000000000000013323e-01
  +1.49999999999999994449e-01
  +1.60000000000000003331e-01
  +1.70000000000000012212e-01
  +1.79999999999999993339e-01
  +1.90000000000000002220e-01
  +2.00000000000000011102e-01
  +2.09999999999999992228e-01
  +2.20000000000000001110e-01
  +2.30000000000000009992e-01
  +2.39999999999999991118e-01
  +2.50000000000000000000e-01
  +2.60000000000000008882e-01
  +2.70000000000000017764e-01
  +2.80000000000000026645e-01
  +2.89999999999999980016e-01
  +2.99999999999999988898e-01
  +3.09999999999999997780e-01
  +3.20000000000000006661e-01
  +3.30000000000000015543e-01
  +3.40000000000000024425e-01
  +3.50000000000000033307e-01
  +3.59999999999999986677e-01
  +3.69999999999999995559e-01
  +3.80000000000000004441e-01
  +3.90000000000000013323e-01
  +4.00000000000000022204e-01
  +4.10000000000000031086e-01
  +4.19999999999999984457e-01
  +4.29999999999999993339e-01
  +4.40000000000000002220e-01
  +4.50000000000000011102e-01
  +4.60000000000000019984e-01
  +4.70000000000000028866e-01
  +4.79999999999999982236e-01
  +4.89999999999999991118e-01
  +5.00000000000000000000e-01
  +5.10000000000000008882e-01
  +5.20000000000000017764e-01
  +5.30000000000000026645e-01
  +5.40000000000000035527e-01
  +5.50000000000000044409e-01
  +5.60000000000000053291e-01
  +5.70000000000000062172e-01
  +5.79999999999999960032e-01
  +5.89999999999999968914e-01
  +5.99999999999999977796e-01
  +6.09999999999999986677e-01
  +6.19999999999999995559e-01
  +6.30000000000000004441e-01
  +6.40000000000000013323e-01
  +6.50000000000000022204e-01
  +6.60000000000000031086e-01
  +6.70000000000000039968e-01
  +6.80000000000000048850e-01
  +6.90000000000000057732e-01
  +7.00000000000000066613e-01
  +7.09999999999999964473e-01
  +7.19999999999999973355e-01
  +7.29999999999999982236e-01
  +7.39999999999999991118e-01
  +7.50000000000000000000e-01
  +7.60000000000000008882e-01
  +7.70000000000000017764e-01
  +7.80000000000000026645e-01
  +7.90000000000000035527e-01
  +8.00000000000000044409e-01
  +8.10000000000000053291e-01
  +8.20000000000000062172e-01
  +8.30000000000000071054e-01
  +8.39999999999999968914e-01
  +8.49999999999999977796e-01
  +8.59999999999999986677e-01
  +8.69999999999999995559e-01
  +8.80000000000000004441e-01
  +8.90000000000000013323e-01
  +9.00000000000000022204e-01
  +9.10000000000000031086e-01
  +9.20000000000000039968e-01
  +9.30000000000000048850e-01
  +9.40000000000000057732e-01
  +9.50000000000000066613e-01
  +9.59999999999999964473e-01
  +9.69999999999999973355e-01
  +9.79999999999999982236e-01
  +9.89999999999999991118e-01
  +1.00000000000000000000e+00
  +1.01000000000000000888e+00
  +1.02000000000000001776e+00
  +1.03000000000000002665e+00
  +1.04000000000000003553e+00
  +1.05000000000000004441e+00
  +1.06000000000000005329e+00
  +1.07000000000000006217e+00
  +1.08000000000000007105e+00
  +1.09000000000000007994e+00
  +1.10000000000000008882e+00
  +1.11000000000000009770e+00
  +1.12000000000000010658e+00
  +1.13000000000000011546e+00
  +1.14000000000000012434e+00
  +1.15000000000000013323e+00
  +1.15999999999999992006e+00
  +1.16999999999999992895e+00
  +1.17999999999999993783e+00
  +1.18999999999999994671e+00
  +1.19999999999999995559e+00
  +1.20999999999999996447e+00
  +1.21999999999999997335e+00
  +1.22999999999999998224e+00
  +1.23999999999999999112e+00
  +1.25000000000000000000e+00
  +1.26000000000000000888e+00
  +1.27000000000000001776e+00
  +1.28000000000000002665e+00
  +1.29000000000000003553e+00
  +1.30000000000000004441e+00
  +1.31000000000000005329e+00
  +1.32000000000000006217e+00
  +1.33000000000000007105e+00
  +1.34000000000000007994e+00
  +1.35000000000000008882e+00
  +1.36000000000000009770e+00
  +1.37000000000000010658e+00
  +1.38000000000000011546e+00
  +1.39000000000000012434e+00
  +1.40000000000000013323e+00
  +1.40999999999999992006e+00
  +1.41999999999999992895e+00
  +1.42999999999999993783e+00
  +1.43999999999999994671e+00
  +1.44999999999999995559e+00
  +1.45999999999999996447e+00
  +1.46999999999999997335e+00
  +1.47999999999999998224e+00
  +1.48999999999999999112e+00
  +1.50000000000000000000e+00
  +1.51000000000000000888e+00
  +1.52000000000000001776e+00
  +1.53000000000000002665e+00
  +1.54000000000000003553e+00
  +1.55000000000000004441e+00
  +1.56000000000000005329e+00
  +1.57000000000000006217e+00
  +1.58000000000000007105e+00
  +1.59000000000000007994e+00
  +1.60000000000000008882e+00
  +1.61000000000000009770e+00
  +1.62000000000000010658e+00
  +1.63000000000000011546e+00
  +1.64000000000000012434e+00
  +1.65000000000000013323e+00
  +1.66000000000000014211e+00
  +1.66999999999999992895e+00
  +1.67999999999999993783e+00
  +1.68999999999999994671e+00
  +1.69999999999999995559e+00
  +1.70999999999999996447e+00
  +1.71999999999999997335e+00
  +1.72999999999999998224e+00
  +1.73999999999999999112e+00
  +1.75000000000000000000e+00
  +1.76000000000000000888e+00
  +1.77000000000000001776e+00
  +1.78000000000000002665e+00
  +1.79000000000000003553e+00
  +1.80000000000000004441e+00
  +1.81000000000000005329e+00
  +1.82000000000000006217e+00
  +1.83000000000000007105e+00
  +1.84000000000000007994e+00
  +1.85000000000000008882e+00
  +1.86000000000000009770e+00
  +1.87000000000000010658e+00
  +1.88000000000000011546e+00
  +1.89000000000000012434e+00
  +1.90000000000000013323e+00
  +1.91000000000000014211e+00
  +1.91999999999999992895e+00
  +1.92999999999999993783e+00
  +1.93999999999999994671e+00
  +1.94999999999999995559e+00
  +1.95999999999999996447e+00
  +1.96999999999999997335e+00
  +1.97999999999999998224e+00
  +1.98999999999999999112e+00
  +2.00000000000000000000e+00
  +2.01000000000000023093e+00
  +2.02000000000000001776e+00
  +2.03000000000000024869e+00
  +2.04000000000000003553e+00
  +2.04999999999999982236e+00
  +2.06000000000000005329e+00
  +2.06999999999999984013e+00
  +2.08000000000000007105e+00
  +2.08999999999999985789e+00
  +2.10000000000000008882e+00
  +2.10999999999999987566e+00
  +2.12000000000000010658e+00
  +2.12999999999999989342e+00
  +2.14000000000000012434e+00
  +2.14999999999999991118e+00
  +2.16000000000000014211e+00
  +2.16999999999999992895e+00
  +2.18000000000000015987e+00
  +2.18999999999999994671e+00
  +2.20000000000000017764e+00
  +2.20999999999999996447e+00
  +2.22000000000000019540e+00
  +2.22999999999999998224e+00
  +2.24000000000000021316e+00
  +2.25000000000000000000e+00
  +2.26000000000000023093e+00
  +2.27000000000000001776e+00
  +2.28000000000000024869e+00
  +2.29000000000000003553e+00
  +2.30000000000000026645e+00
  +2.31000000000000005329e+00
  +2.31999999999999984013e+00
  +2.33000000000000007105e+00
  +2.33999999999999985789e+00
  +2.35000000000000008882e+00
  +2.35999999999999987566e+00
  +2.37000000000000010658e+00
  +2.37999999999999989342e+00
  +2.39000000000000012434e+00
  +2.39999999999999991118e+00
  +2.41000000000000014211e+00
  +2.41999999999999992895e+00
  +2.43000000000000015987e+00
  +2.43999999999999994671e+00
  +2.45000000000000017764e+00
  +2.45999999999999996447e+00
  +2.47000000000000019540e+00
  +2.47999999999999998224e+00
  +2.49000000000000021316e+00
  +2.50000000000000000000e+00
  +2.51000000000000023093e+00
  +2.52000000000000001776e+00
  +2.53000000000000024869e+00
  +2.54000000000000003553e+00
  +2.55000000000000026645e+00
  +2.56000000000000005329e+00
  +2.56999999999999984013e+00
  +2.58000000000000007105e+00
  +2.58999999999999985789e+00
  +2.60000000000000008882e+00
  +2.60999999999999987566e+00
  +2.62000000000000010658e+00
  +2.62999999999999989342e+00
  +2.64000000000000012434e+00
  +2.64999999999999991118e+00
  +2.66000000000000014211e+00
  +2.66999999999999992895e+00
  +2.68000000000000015987e+00
  +2.68999999999999994671e+00
  +2.70000000000000017764e+00
  +2.70999999999999996447e+00
  +2.72000000000000019540e+00
  +2.72999999999999998224e+00
  +2.74000000000000021316e+00
  +2.75000000000000000000e+00
  +2.76000000000000023093e+00
  +2.77000000000000001776e+00
  +2.78000000000000024869e+00
  +2.79000000000000003553e+00
  +2.80000000000000026645e+00
  +2.81000000000000005329e+00
  +2.81999999999999984013e+00
  +2.83000000000000007105e+00
  +2.83999999999999985789e+00
  +2.85000000000000008882e+00
  +2.85999999999999987566e+00
  +2.87000000000000010658e+00
  +2.87999999999999989342e+00
  +2.89000000000000012434e+00
  +2.89999999999999991118e+00
  +2.91000000000000014211e+00
  +2.91999999999999992895e+00
  +2.93000000000000015987e+00
  +2.93999999999999994671e+00
  +2.95000000000000017764e+00
  +2.95999999999999996447e+00
  +2.97000000000000019540e+00
  +2.97999999999999998224e+00
  +2.99000000000000021316e+00
  +3.00000000000000000000e+00
</indep>
<dep V1.I V2>
  +0.00000000000000000000e+00
  +0.00000000000000000000e+00
  +0.00000000000000000000e+00
  +0.00000000000000000000e+00
  +0.00000000000000000000e+00
  +0.00000000000000000000e+00
  +0.00000000000000000000e+00
  +0.00000000000000000000e+00
  +0.00000000000000000000e+00
  +0.00000000000000000000e+00
  +0.00000000000000000000e+00
  +0.00000000000000000000e+00
  +0.00000000000000000000e+00
  +0.00000000000000000000e+00
  +0.00000000000000000000e+00
  +0.00000000000000000000e+00
  +0.00000000000000000000e+00
  +0.00000000000000000000e+00
  +0.00000000000000000000e+00
  +0.00000000000000000000e+00
  +0.00000000000000000000e+00
  +0.00000000000000000000e+00
  +0.00000000000000000000e+00
  +0.00000000000000000000e+00
  +0.00000000000000000000e+00
  +0.00000000000000000000e+00
  +0.00000000000000000000e+00
  +0.00000000000000000000e+00
  +0.00000000000000000000e+00
  +0.00000000000000000000e+00
  +0.00000000000000000000e+00
  +0.00000000000000000000e+00
  +0.00000000000000000000e+00
  +0.00000000000000000000e+00
  +0.00000000000000000000e+00
  +0.00000000000000000000e+00
  +0.00000000000000000000e+00
  +0.00000000000000000000e+00
  +0.00000000000000000000e+00
  +0.00000000000000000000e+00
  +0.00000000000000000000e+00
  +0.00000000000000000000e+00
  +0.00000000000000000000e+00
  +0.00000000000000000000e+00
  +0.00000000000000000000e+00
  +0.00000000000000000000e+00
  +0.00000000000000000000e+00
  +0.00000000000000000000e+00
  +0.00000000000000000000e+00
  +0.00000000000000000000e+00
  +0.00000000000000000000e+00
  +0.00000000000000000000e+00
  +0.00000000000000000000e+00
  +0.00000000000000000000e+00
  +0.00000000000000000000e+00
  +0.00000000000000000000e+00
  +0.00000000000000000000e+00
  +0.00000000000000000000e+00
  +0.00000000000000000000e+00
  +0.00000000000000000000e+00
  +0.00000000000000000000e+00
  +0.00000000000000000000e+00
  +0.00000000000000000000e+00
  +0.00000000000000000000e+00
  +0.00000000000000000000e+00
  +0.00000000000000000000e+00
  +0.00000000000000000000e+00
  +0.00000000000000000000e+00
  +0.00000000000000000000e+00
  +0.00000000000000000000e+00
  +0.00000000000000000000e+00
  +0.00000000000000000000e+00
  +0.00000000000000000000e+00
  +0.00000000000000000000e+00
  +0.00000000000000000000e+00
  +0.00000000000000000000e+00
  +0.00000000000000000000e+00
  +0.00000000000000000000e+00
  +0.00000000000000000000e+00
  +0.00000000000000000000e+00
  +0.00000000000000000000e+00
  +0.00000000000000000000e+00
  +0.00000000000000000000e+00
  +0.00000000000000000000e+00
  +0.00000000000000000000e+00
  +0.00000000000000000000e+00
  +0.00000000000000000000e+00
  +0.00000000000000000000e+00
  +0.00000000000000000000e+00
  +0.00000000000000000000e+00
  +0.00000000000000000000e+00
  +0.00000000000000000000e+00
  +0.00000000000000000000e+00
  +0.00000000000000000000e+00
  +0.00000000000000000000e+00
  +0.00000000000000000000e+00
  +0.00000000000000000000e+00
  +0.00000000000000000000e+00
  +0.00000000000000000000e+00
  +0.00000000000000000000e+00
  +0.00000000000000000000e+00
  +0.00000000000000000000e+00
  +0.00000000000000000000e+00
  +0.00000000000000000000e+00
  +0.00000000000000000000e+00
  +0.00000000000000000000e+00
  +0.00000000000000000000e+00
  +0.00000000000000000000e+00
  +0.00000000000000000000e+00
  +0.00000000000000000000e+00
  +0.00000000000000000000e+00
  +0.00000000000000000000e+00
  +0.00000000000000000000e+00
  +0.00000000000000000000e+00
  +0.00000000000000000000e+00
  +0.00000000000000000000e+00
  +0.00000000000000000000e+00
  +0.00000000000000000000e+00
  +0.00000000000000000000e+00
  +0.00000000000000000000e+00
  +0.00000000000000000000e+00
  +0.00000000000000000000e+00
  +0.00000000000000000000e+00
  +0.00000000000000000000e+00
  +0.00000000000000000000e+00
  +0.00000000000000000000e+00
  +0.00000000000000000000e+00
  +0.00000000000000000000e+00
  +0.00000000000000000000e+00
  +0.00000000000000000000e+00
  +0.00000000000000000000e+00
  +0.00000000000000000000e+00
  +0.00000000000000000000e+00
  +0.00000000000000000000e+00
  +0.00000000000000000000e+00
  +0.00000000000000000000e+00
  +0.00000000000000000000e+00
  +0.00000000000000000000e+00
  +0.00000000000000000000e+00
  +0.00000000000000000000e+00
  +0.00000000000000000000e+00
  +0.00000000000000000000e+00
  +0.00000000000000000000e+00
  +0.00000000000000000000e+00
  +0.00000000000000000000e+00
  +0.00000000000000000000e+00
  +0.00000000000000000000e+00
  +0.00000000000000000000e+00
  +0.00000000000000000000e+00
  +0.00000000000000000000e+00
  +0.00000000000000000000e+00
  +0.00000000000000000000e+00
  +0.00000000000000000000e+00
  +0.00000000000000000000e+00
  +0.00000000000000000000e+00
  +0.00000000000000000000e+00
  +0.00000000000000000000e+00
  +0.00000000000000000000e+00
  +0.00000000000000000000e+00
  +0.00000000000000000000e+00
  +0.00000000000000000000e+00
  +0.00000000000000000000e+00
  +0.00000000000000000000e+00
  +0.00000000000000000000e+00
  +0.00000000000000000000e+00
  +0.00000000000000000000e+00
  +0.00000000000000000000e+00
  +0.00000000000000000000e+00
  +0.00000000000000000000e+00
  +0.00000000000000000000e+00
  +0.00000000000000000000e+00
  +0.00000000000000000000e+00
  +0.00000000000000000000e+00
  +0.00000000000000000000e+00
  +0.00000000000000000000e+00
  +0.00000000000000000000e+00
  +0.00000000000000000000e+00
  +0.00000000000000000000e+00
  +0.00000000000000000000e+00
  +0.00000000000000000000e+00
  +0.00000000000000000000e+00
  +0.00000000000000000000e+00
  +0.00000000000000000000e+00
  +0.00000000000000000000e+00
  +0.00000000000000000000e+00
  +0.00000000000000000000e+00
  +0.00000000000000000000e+00
  +0.00000000000000000000e+00
  +0.00000000000000000000e+00
  +0.00000000000000000000e+00
  +0.00000000000000000000e+00
  +0.00000000000000000000e+00
  +0.00000000000000000000e+00
  +0.00000000000000000000e+00
  +0.00000000000000000000e+00
  +0.00000000000000000000e+00
  +0.00000000000000000000e+00
  +0.00000000000000000000e+00
  +0.00000000000000000000e+00
  +0.00000000000000000000e+00
  +0.00000000000000000000e+00
  +0.00000000000000000000e+00
  +0.00000000000000000000e+00
  +0.00000000000000000000e+00
  +0.00000000000000000000e+00
  +0.00000000000000000000e+00
  +0.00000000000000000000e+00
  +0.00000000000000000000e+00
  +0.00000000000000000000e+00
  +0.00000000000000000000e+00
  +0.00000000000000000000e+00
  +0.00000000000000000000e+00
  +0.00000000000000000000e+00
  +0.00000000000000000000e+00
  +0.00000000000000000000e+00
  +0.00000000000000000000e+00
  +0.00000000000000000000e+00
  +0.00000000000000000000e+00
  +0.00000000000000000000e+00
  +0.00000000000000000000e+00
  +0.00000000000000000000e+00
  +0.00000000000000000000e+00
  +0.00000000000000000000e+00
  +0.00000000000000000000e+00
  +0.00000000000000000000e+00
  +0.00000000000000000000e+00
  +0.00000000000000000000e+00
  +0.00000000000000000000e+00
  +0.00000000000000000000e+00
  +0.00000000000000000000e+00
  +0.00000000000000000000e+00
  +0.00000000000000000000e+00
  +0.00000000000000000000e+00
  +0.00000000000000000000e+00
  +0.00000000000000000000e+00
  +0.00000000000000000000e+00
  +0.00000000000000000000e+00
  +0.00000000000000000000e+00
  +0.00000000000000000000e+00
  +0.00000000000000000000e+00
  +0.00000000000000000000e+00
  +0.00000000000000000000e+00
  +0.00000000000000000000e+00
  +0.00000000000000000000e+00
  +0.00000000000000000000e+00
  +0.00000000000000000000e+00
  +0.00000000000000000000e+00
  +0.00000000000000000000e+00
  +0.00000000000000000000e+00
  +0.00000000000000000000e+00
  +0.00000000000000000000e+00
  +0.00000000000000000000e+00
  +0.00000000000000000000e+00
  +0.00000000000000000000e+00
  +0.00000000000000000000e+00
  +0.00000000000000000000e+00
  +0.00000000000000000000e+00
  +0.00000000000000000000e+00
  +0.00000000000000000000e+00
  +0.00000000000000000000e+00
  +0.00000000000000000000e+00
  +0.00000000000000000000e+00
  +0.00000000000000000000e+00
  +0.00000000000000000000e+00
  +0.00000000000000000000e+00
  +0.00000000000000000000e+00
  +0.00000000000000000000e+00
  +0.00000000000000000000e+00
  +0.00000000000000000000e+00
  +0.00000000000000000000e+00
  +0.00000000000000000000e+00
  +0.00000000000000000000e+00
  +0.00000000000000000000e+00
  +0.00000000000000000000e+00
  +0.00000000000000000000e+00
  +0.00000000000000000000e+00
  +0.00000000000000000000e+00
  +0.00000000000000000000e+00
  +0.00000000000000000000e+00
  +0.00000000000000000000e+00
  +0.00000000000000000000e+00
  +0.00000000000000000000e+00
  +0.00000000000000000000e+00
  +0.00000000000000000000e+00
  +0.00000000000000000000e+00
  +0.00000000000000000000e+00
  +0.00000000000000000000e+00
  +0.00000000000000000000e+00
  +0.00000000000000000000e+00
  +0.00000000000000000000e+00
  +0.00000000000000000000e+00
  +0.00000000000000000000e+00
  +0.00000000000000000000e+00
  +0.00000000000000000000e+00
  +0.00000000000000000000e+00
  +0.00000000000000000000e+00
  +0.00000000000000000000e+00
  +0.00000000000000000000e+00
  +0.00000000000000000000e+00
  +0.00000000000000000000e+00
  +0.00000000000000000000e+00
</dep>
<dep Ids.I V2>
  +0.00000000000000000000e+00
  +0.00000000000000000000e+00
  +0.00000000000000000000e+00
  +0.00000000000000000000e+00
  +0.00000000000000000000e+00
  +0.00000000000000000000e+00
  +0.00000000000000000000e+00
  +0.00000000000000000000e+00
  +0.00000000000000000000e+00
  +0.00000000000000000000e+00
  +0.00000000000000000000e+00
  +0.00000000000000000000e+00
  +0.00000000000000000000e+00
  +0.00000000000000000000e+00
  +0.00000000000000000000e+00
  +0.00000000000000000000e+00
  +0.00000000000000000000e+00
  +0.00000000000000000000e+00
  +0.00000000000000000000e+00
  +0.00000000000000000000e+00
  +0.00000000000000000000e+00
  +0.00000000000000000000e+00
  +0.00000000000000000000e+00
  +0.00000000000000000000e+00
  +0.00000000000000000000e+00
  +0.00000000000000000000e+00
  +0.00000000000000000000e+00
  +0.00000000000000000000e+00
  +0.00000000000000000000e+00
  +0.00000000000000000000e+00
  +0.00000000000000000000e+00
  +0.00000000000000000000e+00
  +0.00000000000000000000e+00
  +0.00000000000000000000e+00
  +0.00000000000000000000e+00
  +0.00000000000000000000e+00
  +0.00000000000000000000e+00
  +0.00000000000000000000e+00
  +0.00000000000000000000e+00
  +0.00000000000000000000e+00
  +0.00000000000000000000e+00
  +0.00000000000000000000e+00
  +0.00000000000000000000e+00
  +0.00000000000000000000e+00
  +0.00000000000000000000e+00
  +0.00000000000000000000e+00
  +0.00000000000000000000e+00
  +0.00000000000000000000e+00
  +0.00000000000000000000e+00
  +0.00000000000000000000e+00
  +0.00000000000000000000e+00
  +0.00000000000000000000e+00
  +0.00000000000000000000e+00
  +0.00000000000000000000e+00
  +0.00000000000000000000e+00
  +0.00000000000000000000e+00
  +0.00000000000000000000e+00
  +0.00000000000000000000e+00
  +0.00000000000000000000e+00
  +0.00000000000000000000e+00
  +0.00000000000000000000e+00
