<Qucs Dataset 25.1.1>
<indep dc1.i(pr1) 1>
1.332294000000e-03+j0.000000000000e+00
</indep>
<indep dc1.v(vdd) 1>
1.200000000000e+00+j0.000000000000e+00
</indep>
<indep dc1.gm 1>
0.000000000000e+00+j0.000000000000e+00
</indep>
<indep sw1.v(v-sweep) 201>
2.000000000000e-01
2.010000000000e-01
2.020000000000e-01
2.030000000000e-01
2.040000000000e-01
2.050000000000e-01
2.060000000000e-01
2.070000000000e-01
2.080000000000e-01
2.090000000000e-01
2.100000000000e-01
2.110000000000e-01
2.120000000000e-01
2.130000000000e-01
2.140000000000e-01
2.150000000000e-01
2.160000000000e-01
2.170000000000e-01
2.180000000000e-01
2.190000000000e-01
2.200000000000e-01
2.210000000000e-01
2.220000000000e-01
2.230000000000e-01
2.240000000000e-01
2.250000000000e-01
2.260000000000e-01
2.270000000000e-01
2.280000000000e-01
2.290000000000e-01
2.300000000000e-01
2.310000000000e-01
2.320000000000e-01
2.330000000000e-01
2.340000000000e-01
2.350000000000e-01
2.360000000000e-01
2.370000000000e-01
2.380000000000e-01
2.390000000000e-01
2.400000000000e-01
2.410000000000e-01
2.420000000000e-01
2.430000000000e-01
2.440000000000e-01
2.450000000000e-01
2.460000000000e-01
2.470000000000e-01
2.480000000000e-01
2.490000000000e-01
2.500000000000e-01
2.510000000000e-01
2.520000000000e-01
2.530000000000e-01
2.540000000000e-01
2.550000000000e-01
2.560000000000e-01
2.570000000000e-01
2.580000000000e-01
2.590000000000e-01
2.600000000000e-01
2.610000000000e-01
2.620000000000e-01
2.630000000000e-01
2.640000000000e-01
2.650000000000e-01
2.660000000000e-01
2.670000000000e-01
2.680000000000e-01
2.690000000000e-01
2.700000000000e-01
2.710000000000e-01
2.720000000000e-01
2.730000000000e-01
2.740000000000e-01
2.750000000000e-01
2.760000000000e-01
2.770000000000e-01
2.780000000000e-01
2.790000000000e-01
2.800000000000e-01
2.810000000000e-01
2.820000000000e-01
2.830000000000e-01
2.840000000000e-01
2.850000000000e-01
2.860000000000e-01
2.870000000000e-01
2.880000000000e-01
2.890000000000e-01
2.900000000000e-01
2.910000000000e-01
2.920000000000e-01
2.930000000000e-01
2.940000000000e-01
2.950000000000e-01
2.960000000000e-01
2.970000000000e-01
2.980000000000e-01
2.990000000000e-01
3.000000000000e-01
3.010000000000e-01
3.020000000000e-01
3.030000000000e-01
3.040000000000e-01
3.050000000000e-01
3.060000000000e-01
3.070000000000e-01
3.080000000000e-01
3.090000000000e-01
3.100000000000e-01
3.110000000000e-01
3.120000000000e-01
3.130000000000e-01
3.140000000000e-01
3.150000000000e-01
3.160000000000e-01
3.170000000000e-01
3.180000000000e-01
3.190000000000e-01
3.200000000000e-01
3.210000000000e-01
3.220000000000e-01
3.230000000000e-01
3.240000000000e-01
3.250000000000e-01
3.260000000000e-01
3.270000000000e-01
3.280000000000e-01
3.290000000000e-01
3.300000000000e-01
3.310000000000e-01
3.320000000000e-01
3.330000000000e-01
3.340000000000e-01
3.350000000000e-01
3.360000000000e-01
3.370000000000e-01
3.380000000000e-01
3.390000000000e-01
3.400000000000e-01
3.410000000000e-01
3.420000000000e-01
3.430000000000e-01
3.440000000000e-01
3.450000000000e-01
3.460000000000e-01
3.470000000000e-01
3.480000000000e-01
3.490000000000e-01
3.500000000000e-01
3.510000000000e-01
3.520000000000e-01
3.530000000000e-01
3.540000000000e-01
3.550000000000e-01
3.560000000000e-01
3.570000000000e-01
3.580000000000e-01
3.590000000000e-01
3.600000000000e-01
3.610000000000e-01
3.620000000000e-01
3.630000000000e-01
3.640000000000e-01
3.650000000000e-01
3.660000000000e-01
3.670000000000e-01
3.680000000000e-01
3.690000000000e-01
3.700000000000e-01
3.710000000000e-01
3.720000000000e-01
3.730000000000e-01
3.740000000000e-01
3.750000000000e-01
3.760000000000e-01
3.770000000000e-01
3.780000000000e-01
3.790000000000e-01
3.800000000000e-01
3.810000000000e-01
3.820000000000e-01
3.830000000000e-01
3.840000000000e-01
3.850000000000e-01
3.860000000000e-01
3.870000000000e-01
3.880000000000e-01
3.890000000000e-01
3.900000000000e-01
3.910000000000e-01
3.920000000000e-01
3.930000000000e-01
3.940000000000e-01
3.950000000000e-01
3.960000000000e-01
3.970000000000e-01
3.980000000000e-01
3.990000000000e-01
4.000000000000e-01
</indep>
<dep sw1.i(pr1) sw1.v(v-sweep)>
4.369592927785e-05
4.491008750215e-05
4.617511183587e-05
4.747550459752e-05
4.881223849801e-05
5.018631204252e-05
5.159875018016e-05
5.305060494713e-05
5.454295612326e-05
5.607691190078e-05
5.765360956583e-05
5.927421619260e-05
6.093992934976e-05
6.265197781995e-05
6.441162233149e-05
6.622015630272e-05
6.807890659891e-05
6.998923430159e-05
7.195253548987e-05
7.397024203441e-05
7.604382240300e-05
7.817478247828e-05
8.036466638692e-05
8.261505734027e-05
8.492757848622e-05
8.730389377192e-05
8.974570881697e-05
9.225477179668e-05
9.483287433557e-05
9.748185240943e-05
1.002035872572e-04
1.030000063001e-04
1.058730840697e-04
1.088248431421e-04
1.118573550792e-04
1.149727413758e-04
1.181731744115e-04
1.214608784069e-04
1.248381303830e-04
1.283072611236e-04
1.318706561385e-04
1.355307566277e-04
1.392900604440e-04
1.431511230552e-04
1.471165585017e-04
1.511890403509e-04
1.553713026449e-04
1.596661408419e-04
1.640764127482e-04
1.686050394408e-04
1.732550061766e-04
1.780293632902e-04
1.829312270740e-04
1.879637806426e-04
1.931302747776e-04
1.984340287509e-04
2.038784311252e-04
2.094669405288e-04
2.152030864026e-04
2.210904697182e-04
2.271327636624e-04
2.333337142881e-04
2.396971411277e-04
2.462269377674e-04
2.529270723783e-04
2.598015882043e-04
2.668546040011e-04
2.740903144264e-04
2.815129903764e-04
2.891269792677e-04
2.969367052602e-04
3.049466694192e-04
3.131614498149e-04
3.215857015537e-04
3.302241567418e-04
3.390816243766e-04
3.481629901640e-04
3.574732162580e-04
3.670173409221e-04
3.768004781079e-04
3.868278169505e-04
3.971046211770e-04
4.076362284268e-04
4.184280494824e-04
4.294855674074e-04
4.408143365914e-04
4.524199817004e-04
4.643081965304e-04
4.764847427651e-04
4.889554486349e-04
5.017262074787e-04
5.148029762071e-04
5.281917736681e-04
5.418986789140e-04
5.559298293736e-04
5.702914189262e-04
5.849896958837e-04
6.000309608791e-04
6.154215646651e-04
6.311679058254e-04
6.472764284014e-04
6.637536194373e-04
6.806060064490e-04
6.978401548184e-04
7.154626651204e-04
7.334801703857e-04
7.518993333060e-04
7.707268433864e-04
7.899694140519e-04
8.096337797150e-04
8.297266928097e-04
8.502549208010e-04
8.712252431761e-04
8.926444484266e-04
9.145193310278e-04
9.368566884258e-04
9.596633180395e-04
9.829460142865e-04
1.006711565642e-03
1.030966751742e-03
1.055718340531e-03
1.080973085480e-03
1.106737722864e-03
1.133018969125e-03
1.159823518315e-03
1.187158039646e-03
1.215029175128e-03
1.243443537339e-03
1.272407707295e-03
1.301928232465e-03
1.332011624914e-03
1.362664359583e-03
1.393892872726e-03
1.425703560496e-03
1.458102777690e-03
1.491096836656e-03
1.524692006370e-03
1.558894511680e-03
1.593710532726e-03
1.629146204531e-03
1.665207616769e-03
1.701900813709e-03
1.739231794335e-03
1.777206512640e-03
1.815830878088e-03
1.855110756253e-03
1.895051969618e-03
1.935660298541e-03
1.976941482375e-03
2.018901220740e-03
2.061545174946e-03
2.104878969549e-03
2.148908194042e-03
2.193638404674e-03
2.239075126380e-03
2.285223854822e-03
2.332090058530e-03
2.379679181133e-03
2.427996643666e-03
2.477047846954e-03
2.526838174053e-03
2.577372992746e-03
2.628657658073e-03
2.680697514901e-03
2.733497900507e-03
2.787064147180e-03
2.841401584818e-03
2.896515543518e-03
2.952411356155e-03
3.009094360930e-03
3.066569903878e-03
3.124843341345e-03
3.183920042407e-03
3.243805391226e-03
3.304504789351e-03
3.366023657936e-03
3.428367439891e-03
3.491541601933e-03
3.555551636566e-03
3.620403063952e-03
3.686101433689e-03
3.752652326492e-03
3.820061355759e-03
3.888334169035e-03
3.957476449369e-03
4.027493916548e-03
4.098392328231e-03
4.170177480959e-03
4.242855211056e-03
4.316431395414e-03
4.390911952166e-03
4.466302841238e-03
4.542610064805e-03
4.619839667617e-03
4.697997737235e-03
4.777090404146e-03
4.857123841781e-03
4.938104266434e-03
5.020037937074e-03
5.102931155068e-03
5.186790263813e-03
</dep>
<dep sw1.v(vdd) sw1.v(v-sweep)>
1.200000000000e+00
1.200000000000e+00
1.200000000000e+00
1.200000000000e+00
1.200000000000e+00
1.200000000000e+00
1.200000000000e+00
1.200000000000e+00
1.200000000000e+00
1.200000000000e+00
1.200000000000e+00
1.200000000000e+00
1.200000000000e+00
1.200000000000e+00
1.200000000000e+00
1.200000000000e+00
1.200000000000e+00
1.200000000000e+00
1.200000000000e+00
1.200000000000e+00
1.200000000000e+00
1.200000000000e+00
1.200000000000e+00
1.200000000000e+00
1.200000000000e+00
1.200000000000e+00
1.200000000000e+00
1.200000000000e+00
1.200000000000e+00
1.200000000000e+00
1.200000000000e+00
1.200000000000e+00
1.200000000000e+00
1.200000000000e+00
1.200000000000e+00
1.200000000000e+00
1.200000000000e+00
1.200000000000e+00
1.200000000000e+00
1.200000000000e+00
1.200000000000e+00
1.200000000000e+00
1.200000000000e+00
1.200000000000e+00
1.200000000000e+00
1.200000000000e+00
1.200000000000e+00
1.200000000000e+00
1.200000000000e+00
1.200000000000e+00
1.200000000000e+00
1.200000000000e+00
1.200000000000e+00
1.200000000000e+00
1.200000000000e+00
1.200000000000e+00
1.200000000000e+00
1.200000000000e+00
1.200000000000e+00
1.200000000000e+00
1.200000000000e+00
1.200000000000e+00
1.200000000000e+00
1.200000000000e+00
1.200000000000e+00
1.200000000000e+00
1.200000000000e+00
1.200000000000e+00
1.200000000000e+00
1.200000000000e+00
1.200000000000e+00
1.200000000000e+00
1.200000000000e+00
1.200000000000e+00
1.200000000000e+00
1.200000000000e+00
1.200000000000e+00
1.200000000000e+00
1.200000000000e+00
1.200000000000e+00
1.200000000000e+00
1.200000000000e+00
1.200000000000e+00
1.200000000000e+00
1.200000000000e+00
1.200000000000e+00
1.200000000000e+00
1.200000000000e+00
1.200000000000e+00
1.200000000000e+00
1.200000000000e+00
1.200000000000e+00
1.200000000000e+00
1.200000000000e+00
1.200000000000e+00
1.200000000000e+00
1.200000000000e+00
1.200000000000e+00
1.200000000000e+00
1.200000000000e+00
1.200000000000e+00
1.200000000000e+00
1.200000000000e+00
1.200000000000e+00
1.200000000000e+00
1.200000000000e+00
1.200000000000e+00
1.200000000000e+00
1.200000000000e+00
1.200000000000e+00
1.200000000000e+00
1.200000000000e+00
1.200000000000e+00
1.200000000000e+00
1.200000000000e+00
1.200000000000e+00
1.200000000000e+00
1.200000000000e+00
1.200000000000e+00
1.200000000000e+00
1.200000000000e+00
1.200000000000e+00
1.200000000000e+00
1.200000000000e+00
1.200000000000e+00
1.200000000000e+00
1.200000000000e+00
1.200000000000e+00
1.200000000000e+00
1.200000000000e+00
1.200000000000e+00
1.200000000000e+00
1.200000000000e+00
1.200000000000e+00
1.200000000000e+00
1.200000000000e+00
1.200000000000e+00
1.200000000000e+00
1.200000000000e+00
1.200000000000e+00
1.200000000000e+00
1.200000000000e+00
1.200000000000e+00
1.200000000000e+00
1.200000000000e+00
1.200000000000e+00
1.200000000000e+00
1.200000000000e+00
1.200000000000e+00
1.200000000000e+00
1.200000000000e+00
1.200000000000e+00
1.200000000000e+00
1.200000000000e+00
1.200000000000e+00
1.200000000000e+00
1.200000000000e+00
1.200000000000e+00
1.200000000000e+00
1.200000000000e+00
1.200000000000e+00
1.200000000000e+00
1.200000000000e+00
1.200000000000e+00
1.200000000000e+00
1.200000000000e+00
1.200000000000e+00
1.200000000000e+00
1.200000000000e+00
1.200000000000e+00
1.200000000000e+00
1.200000000000e+00
1.200000000000e+00
1.200000000000e+00
1.200000000000e+00
1.200000000000e+00
1.200000000000e+00
1.200000000000e+00
1.200000000000e+00
1.200000000000e+00
1.200000000000e+00
1.200000000000e+00
1.200000000000e+00
1.200000000000e+00
1.200000000000e+00
1.200000000000e+00
1.200000000000e+00
1.200000000000e+00
1.200000000000e+00
1.200000000000e+00
1.200000000000e+00
1.200000000000e+00
1.200000000000e+00
1.200000000000e+00
1.200000000000e+00
1.200000000000e+00
1.200000000000e+00
1.200000000000e+00
1.200000000000e+00
1.200000000000e+00
1.200000000000e+00
</dep>
<dep sw1.i(gm) sw1.v(v-sweep)>
1.188725168142e-03
1.239591278398e-03
1.282708546291e-03
1.318563328146e-03
1.355403720694e-03
1.393255841272e-03
1.432146452714e-03
1.472102973039e-03
1.513153477608e-03
1.555326718683e-03
1.598652143462e-03
1.643159889657e-03
1.688880814156e-03
1.735846490571e-03
1.784089239408e-03
1.833642133585e-03
1.884538998487e-03
1.936814444580e-03
1.990503867310e-03
2.045643456590e-03
2.102270219290e-03
2.160421991070e-03
2.220137430951e-03
2.281456048648e-03
2.344418214744e-03
2.409065165086e-03
2.475439011965e-03
2.543582757851e-03
2.613540305653e-03
2.685356461671e-03
2.759076944234e-03
2.834748405806e-03
2.912418421159e-03
2.992135502880e-03
3.073949114689e-03
3.157909664553e-03
3.244068516229e-03
3.332477986042e-03
3.423191356492e-03
3.516262878161e-03
3.611747751072e-03
3.709702150383e-03
3.810183214472e-03
3.913249027236e-03
4.018958644737e-03
4.127372071406e-03
4.238550244697e-03
4.352555052001e-03
4.469449299952e-03
4.589296712202e-03
4.712161924609e-03
4.838110448629e-03
4.967208675323e-03
5.099523850064e-03
5.235124051506e-03
5.374078174669e-03
5.516455890544e-03
5.662327637506e-03
5.811764594242e-03
5.964838629177e-03
6.121622283974e-03
6.282188732294e-03
6.446611737145e-03
6.614965625067e-03
6.787325218692e-03
6.963765810244e-03
7.144363110260e-03
7.329193186311e-03
7.518332420485e-03
7.711857441000e-03
7.909845074151e-03
8.112372275909e-03
8.319516068467e-03
8.531353463798e-03
8.747961410037e-03
8.969416709587e-03
9.195795938134e-03
9.427175378931e-03
9.663630923709e-03
9.905238013573e-03
1.015207153528e-02
1.040420573667e-02
1.066171415252e-02
1.092466949044e-02
1.119314355402e-02
1.146720714534e-02
1.174692996850e-02
1.203238053055e-02
1.232362605221e-02
1.262073235761e-02
1.292376378419e-02
1.323278309526e-02
1.354785135199e-02
1.386902785097e-02
1.419637000568e-02
1.452993325243e-02
1.486977097776e-02
1.521593438967e-02
1.556847247147e-02
1.592743187014e-02
1.629285680361e-02
1.666478902057e-02
1.704326769077e-02
1.742832933670e-02
1.782000778181e-02
1.821833409245e-02
1.862333649958e-02
1.903504037088e-02
1.945346816530e-02
1.987863937753e-02
2.031057054184e-02
2.074927518399e-02
2.119476381011e-02
2.164704392401e-02
2.210612000037e-02
2.257199350649e-02
2.304466292986e-02
2.352412380066e-02
2.401036872743e-02
2.450338744273e-02
2.500316686597e-02
2.550969116631e-02
2.602294182227e-02
2.654289772477e-02
2.706953526162e-02
2.760282840503e-02
2.814274884489e-02
2.868926608219e-02
2.924234756210e-02
2.980195880893e-02
3.036806355931e-02
3.094062390526e-02
3.151960045380e-02
3.210495248219e-02
3.269663808115e-02
3.329461433859e-02
3.389883751075e-02
3.450926317769e-02
3.512584642570e-02
3.574854202047e-02
3.637730458802e-02
3.701208878314e-02
3.765284946245e-02
3.829954187450e-02
3.895212180672e-02
3.961054576571e-02
4.027477114345e-02
4.094475637626e-02
4.162046109765e-02
4.230184628486e-02
4.298887440535e-02
4.368150954802e-02
4.437971756080e-02
4.508346616783e-02
4.579272507364e-02
4.650746607404e-02
4.722766315339e-02
4.795329256703e-02
4.868433291004e-02
4.942076519293e-02
5.016257289845e-02
5.090974200824e-02
5.166226107346e-02
5.242012121884e-02
5.318331614096e-02
5.395184215220e-02
5.472569816680e-02
5.550488566979e-02
5.628940870429e-02
5.707927385861e-02
5.787449020890e-02
5.867506926661e-02
5.948102493958e-02
6.029237346832e-02
6.110913335240e-02
6.193132526885e-02
6.275897199972e-02
6.359209833976e-02
6.443073100745e-02
6.527489855934e-02
6.612463126948e-02
6.697996103462e-02
6.784092127109e-02
6.870754680319e-02
6.957987375573e-02
7.045793942981e-02
7.134178220450e-02
7.223144141375e-02
7.312695722668e-02
7.402837055129e-02
7.493572291123e-02
7.584905631909e-02
7.676841318745e-02
7.769383621684e-02
7.862536826503e-02
7.956305227113e-02
8.050693114312e-02
8.145704764614e-02
8.241344431702e-02
8.337616336756e-02
8.434205411651e-02
</dep>
