#   Hz   S  RI   R   50
!
0.0 -0.7082363951244924 0.0
75000000.0 -0.7046193078649386 0.07958780279478495
150000000.0 -0.6938290552457914 0.15832194386718684
225000000.0 -0.6760469555460717 0.23536828318169425
300000000.0 -0.6515695720500833 0.3099310909204107
375000000.0 -0.6208004810088895 0.3812706972102467
450000000.0 -0.5842391721325536 0.4487193504194624
525000000.0 -0.5424674798985962 0.5116948061918557
600000000.0 -0.49613402204089385 0.569711260952991
675000000.0 -0.44593717753786855 0.6223873462948036
750000000.0 -0.39260716963895387 0.6694510087405438
825000000.0 -0.33688783088261476 0.7107412077889291
900000000.0 -0.27951861872218986 0.7462064696949078
975000000.0 -0.22121742494644472 0.7759004322174475
1050000000.0 -0.16266468228873787 0.7999746047729546
1125000000.0 -0.10448921981194073 0.8186686482238911
1200000000.0 -0.047256256522425905 0.8322985485794522
1275000000.0 0.00854214883399112 0.8412431189112591
1350000000.0 0.06249395430342345 0.8459293131120843
1425000000.0 0.11427114928658347 0.8468168723442248
1500000000.0 0.16363087619353303 0.8443828478975208
1575000000.0 0.21041371230784586 0.8391065497940722
1650000000.0 0.2545392729236179 0.8314554556894235
1725000000.0 0.29599940425917354 0.8218725767005003
1800000000.0 0.33484933568698005 0.8107657142003456
1875000000.0 0.3711972484892631 0.7984989547390106
1950000000.0 0.40519278540497305 0.7853866418989334
2025000000.0 0.43701506513750576 0.7716899394979639
2100000000.0 0.4668607739624097 0.7576159678698543
2175000000.0 0.4949328804774706 0.7433193633471801
2250000000.0 0.5214304604368871 0.728905990458671
2325000000.0 0.5465400308376723 0.7144384359610587
2400000000.0 0.570428683142774 0.6999428410256706
2475000000.0 0.5932391838554284 0.6854165873003231
2550000000.0 0.6150870865406437 0.6708363455370903
2625000000.0 0.63605978236467 0.656166020163387
2700000000.0 0.6562173143751541 0.6413641749744813
2775000000.0 0.67559469994478 0.6263905974934114
2850000000.0 0.6942054493520803 0.611211744957313
2925000000.0 0.7120459371478194 0.5958049058016549
3000000000.0 0.7291002753606073 0.5801610001440793
3075000000.0 0.7453453507407745 0.5642860256310945
3150000000.0 0.7607557181832478 0.5482012271610953
3225000000.0 0.7753080849133647 0.5319421280284772
3300000000.0 0.7889851707965245 0.5155566048756595
3375000000.0 0.801778785516081 0.49910221945353567
3450000000.0 0.813692020213631 0.4826430372376886
3525000000.0 0.8247405069561454 0.46624616749588166
3600000000.0 0.8349527520492858 0.4499782527140259
3675000000.0 0.8443695971038742 0.4339021186997383
3750000000.0 0.8530429034950922 0.41807377157465214
3825000000.0 0.8610335902295552 0.4025398956928469
3900000000.0 0.868409181217831 0.38733596887195276
3975000000.0 0.8752410347103168 0.3724850699729442
4050000000.0 0.8816014346572787 0.35799741079825426
4125000000.0 0.8875607208648169 0.3438705816481761
4200000000.0 0.8931846223996943 0.3300904599064443
4275000000.0 0.8985319376628175 0.31663269586440507
4350000000.0 0.9036526763671229 0.30346466153405455
4425000000.0 0.9085867452568369 0.2905477279116381
4500000000.0 0.9133632230599261 0.2778397249353077
4575000000.0 0.9180002332866652 0.2652974364796467
4650000000.0 0.9225053884243001 0.25287898972823936
4725000000.0 0.9268767479191373 0.2405460131401038
4800000000.0 0.931104206750069 0.22826545847247348
4875000000.0 0.9351712125229197 0.21601100812053173
4950000000.0 0.9390566974294469 0.20376401742773315
5025000000.0 0.9427371071523923 0.19151397068735776
5100000000.0 0.9461884114224357 0.17925845755315384
5175000000.0 0.9493879896419749 0.16700270203770826
5250000000.0 0.9523162987325059 0.1547586980659538
5325000000.0 0.9549582479472164 0.14254402287641643
5400000000.0 0.9573042255850632 0.1303804119577176
5475000000.0 0.9593507441411976 0.11829218649240505
5550000000.0 0.9611006922991059 0.10630462651518176
5625000000.0 0.9625632032805995 0.09444238043635822
5700000000.0 0.9637531685029755 0.08272799465441513
5775000000.0 0.9646904424516236 0.07118063624087481
5850000000.0 0.9653987984944354 0.05981506780165915
5925000000.0 0.9659047055174188 0.04864091738035202
6000000000.0 0.9662360013859199 0.03766226853466733
6075000000.0 0.9664205411519062 0.02687757741318779
6150000000.0 0.9664848956554519 0.016279905736227934
6225000000.0 0.9664531699423576 0.0058574419740343876
6300000000.0 0.9663460011867477 -0.004405731423403342
6375000000.0 0.9661797832097666 -0.01452867842677368
6450000000.0 0.9659661500252519 -0.024532519220701134
6525000000.0 0.9657117350306004 -0.03443927544390697
6600000000.0 0.9654182064515745 -0.04427071733952532
6675000000.0 0.9650825643767311 -0.05404727595615818
6750000000.0 0.9646976710263493 -0.0637870768607929
6825000000.0 0.9642529744958513 -0.07350514235119313
6900000000.0 0.9637353776158913 -0.08321279758740974
6975000000.0 0.9631301980976569 -0.09291730317840358
7050000000.0 0.9624221638922421 -0.10262172335968253
7125000000.0 0.9615963886027215 -0.11232502574810982
7200000000.0 0.9606392755939939 -0.12202239645137249
7275000000.0 0.9595393057609845 -0.13170574362513376
7350000000.0 0.958287672254901 -0.14136435386712007
7425000000.0 0.9568787352825168 -0.1509856594356274
7500000000.0 0.9553102808081166 -0.16055607036695307
7575000000.0 0.9535835780233202 -0.1700618242003151
7650000000.0 0.951703241249295 -0.17948980713937654
7725000000.0 0.9496769119818549 -0.188828303918444
7800000000.0 0.9475147856216707 -0.19806763913503536
7875000000.0 0.9452290146591061 -0.20720068001231154
7950000000.0 0.9428330253996193 -0.21622317904967286
8025000000.0 0.9403407885107994 -0.22513394434016873
8100000000.0 0.9377660846418758 -0.23393483497912992
8175000000.0 0.9351218051196135 -0.2426305884493483
8250000000.0 0.9324193243846034 -0.2512284956494377
8325000000.0 0.9296679756331417 -0.25973794688114304
8400000000.0 0.9268746544049279 -0.26816987824424204
8475000000.0 0.924043567018463 -0.27653615221182914
8550000000.0 0.9211761322716334 -0.28484890849097333
8625000000.0 0.9182710361871889 -0.29311992155040983
8700000000.0 0.9153244312779585 -0.3013599994757082
8775000000.0 0.9123302642842122 -0.30957845526484457
8850000000.0 0.9092807099814824 -0.31778267657375275
8925000000.0 0.9061666837725354 -0.3259778136097716
9000000000.0 0.9029784025648909 -0.33416659774994967
9075000000.0 0.8997059619937884 -0.3423492959541309
9150000000.0 0.89633989837569 -0.35052379857062593
9225000000.0 0.89287170577021 -0.3586858310903241
9300000000.0 0.8892942820077949 -0.3668292741433858
9375000000.0 0.8856022822591789 -0.3749465708413723
9450000000.0 0.8817923643844559 -0.38302919666755453
9525000000.0 0.8778633165769106 -0.3910681646549423
9600000000.0 0.8738160643675362 -0.39905453763450877
9675000000.0 0.869653560539577 -0.40697991987926335
9750000000.0 0.8653805675934845 -0.4148369024359994
9825000000.0 0.8610033478051186 -0.422619439682823
9900000000.0 0.8565292803785298 -0.4303231389763969
9975000000.0 0.8519664285053763 -0.437945450409129
10050000000.0 0.8473230811622878 -0.44548574939761926
10125000000.0 0.8426072951292147 -0.45294531076042144
10200000000.0 0.8378264619910282 -0.46032717879833207
10275000000.0 0.8329869228587807 -0.4676359433548041
10350000000.0 0.8280936503524768 -0.4748774366232962
10425000000.0 0.8231500132220094 -0.48205836933858826
10500000000.0 0.818157634095742 -0.48918592775104747
10575000000.0 0.8131163455212689 -0.4962673543123789
10650000000.0 0.8080242440030525 -0.5033095352463243
10725000000.0 0.8028778364498951 -0.5103186171593984
10800000000.0 0.7976722686067278 -0.5172996726570148
10875000000.0 0.7924016209107527 -0.5242564317241762
10950000000.0 0.7870592539846687 -0.5311910916135261
11025000000.0 0.7816381838048911 -0.5381042134006959
11100000000.0 0.7761314655427197 -0.5449947084826423
11175000000.0 0.7705325651890189 -0.5518599133799917
11250000000.0 0.7648356992939643 -0.5586957465207377
11325000000.0 0.7590361253822958 -0.5654969364688818
11400000000.0 0.7531303686928005 -0.5722573075228892
11475000000.0 0.7471163746518021 -0.5789701059082938
11550000000.0 0.7409935807104184 -0.5856283480416659
11625000000.0 0.7347629056244482 -0.5922251716134563
11700000000.0 0.7284266586993291 -0.5987541705368002
11775000000.0 0.721988375732308 -0.6052096960987613
11850000000.0 0.7154525921476921 -0.6115871088422041
11925000000.0 0.708824566952875 -0.6178829686693181
12000000000.0 0.7021099734912469 -0.6240951542239934
12075000000.0 0.6953145744233186 -0.6302229065829495
12150000000.0 0.6884438988668964 -0.6362667964492417
12225000000.0 0.6815029391589854 -0.6422286181726814
12300000000.0 0.6744958833056618 -0.6481112177998632
12375000000.0 0.6674258969505945 -0.6539182657772635
12450000000.0 0.660294965751839 -0.6596539877166845
12525000000.0 0.6531038055810291 -0.6653228686422493
12600000000.0 0.6458518441473502 -0.6709293472761143
12675000000.0 0.6385372737145494 -0.6764775171397823
12750000000.0 0.6311571707396445 -0.6819708505548984
12825000000.0 0.6237076747241989 -0.6874119600779607
12900000000.0 0.6161842155189676 -0.6928024095996992
12975000000.0 0.6085817759150333 -0.6981425844234802
13050000000.0 0.6008951747044967 -0.703431626279059
13125000000.0 0.5931193545727349 -0.7086674356187904
13200000000.0 0.5852496592167973 -0.7138467398815395
13275000000.0 0.5772820849495879 -0.7189652228905774
13350000000.0 0.5692134936827563 -0.7240177073584624
13425000000.0 0.5610417764804135 -0.7289983797650641
13500000000.0 0.552765959706923 -0.7339010447862652
13575000000.0 0.5443862489972415 -0.7387193950776144
13650000000.0 0.5359040096840437 -0.7434472816182234
13725000000.0 0.5273216857416404 -0.7480789700141465
13800000000.0 0.5186426625737836 -0.7526093691257145
13875000000.0 0.5098710819122827 -0.7570342200593546
13950000000.0 0.5010116195559269 -0.7613502358552218
14025000000.0 0.4920692385398212 -0.765555184980538
14100000000.0 0.48304893149145917 -0.7696479148533801
14175000000.0 0.47395546634575486 -0.773628314904357
14250000000.0 0.4647931492408973 -0.777497221957278
14325000000.0 0.4555656173254958 -0.7812562737989289
14400000000.0 0.446275672440064 -0.7849077195472335
14475000000.0 0.4369251642941422 -0.788454197671115
14550000000.0 0.427514928976847 -0.7918984941468372
14625000000.0 0.41804478556936486 -0.795243294171874
14700000000.0 0.4085135904433102 -0.7984909410547198
14775000000.0 0.3989193457038723 -0.8016432153553891
14850000000.0 0.3892593553407912 -0.8047011461054432
14925000000.0 0.37953042013776334 -0.8076648640650311
15000000000.0 0.3697290603928337 -0.8105335045877156
15075000000.0 0.35985175411931236 -0.8133051648978147
15150000000.0 0.3498951776943214 -0.8159769175937642
15225000000.0 0.33985643592815745 -0.8185448791379479
15300000000.0 0.32973326923208546 -0.8210043291421151
15375000000.0 0.31952422691813387 -0.8233498735631058
15450000000.0 0.30922879759211347 -0.8255756426254119
15525000000.0 0.29884748999211974 -0.8276755125016029
15600000000.0 0.288381860348576 -0.829643338597344
15675000000.0 0.2778344852522899 -0.8314731877613745
15750000000.0 0.26720888195956916 -0.8331595568947808
15825000000.0 0.2565093808832391 -0.834697566255661
15900000000.0 0.24574095756738784 -0.8360831171979959
15975000000.0 0.23490903358811538 -0.8373130060682245
16050000000.0 0.22401925745005122 -0.838384988402773
16125000000.0 0.2130772775731897 -0.8392977902943376
16200000000.0 0.2020885198330906 -0.8400510666777641
16275000000.0 0.19105798181069023 -0.8406453091723423
16350000000.0 0.17999005494356368 -0.8410817088504058
16425000000.0 0.1688883842017086 -0.841361981734077
16500000000.0 0.1577557728244754 -0.8414881668211578
16575000000.0 0.14659413716618186 -0.8414624078993436
16650000000.0 0.13540451394355085 -0.8412867312471669
16725000000.0 0.12418711931004137 -0.8409628314967119
16800000000.0 0.11294145635773159 -0.840491877440478
16875000000.0 0.10166646502068545 -0.8398743484331371
16950000000.0 0.09036070606667347 -0.8391099103336419
17025000000.0 0.07902256903899497 -0.8381973377504087
17100000000.0 0.06765049274268341 -0.8371344868133989
17175000000.0 0.05624318622440145 -0.835918319941217
17250000000.0 0.04479983820340212 -0.8345449812482622
17325000000.0 0.03332030356764417 -0.8330099184980619
17400000000.0 0.021805256815839048 -0.8313080449997742
17475000000.0 0.010256304132631082 -0.8294339326977908
17550000000.0 -0.0013239519676413178 -0.8273820260317756
17625000000.0 -0.012931898923374159 -0.8251468650337702
17700000000.0 -0.024562952074246993 -0.8227233056378451
17775000000.0 -0.036211642221863405 -0.8201067253321827
17850000000.0 -0.04787174806349557 -0.817293203075585
17925000000.0 -0.05953646632687244 -0.8142796637895875
18000000000.0 -0.07119861038323594 -0.8110639796511636
18075000000.0 -0.08285082655880895 -0.8076450227492153
18150000000.0 -0.09448581638724335 -0.8040226663068245
18225000000.0 -0.10609655270321845 -0.8001977344696921
18300000000.0 -0.11767647779207807 -0.7961719034685073
18375000000.0 -0.12921967276846016 -0.7919475596263508
18450000000.0 -0.14072098890928747 -0.78752762205551
18525000000.0 -0.15217613373094097 -0.7829153398398908
18600000000.0 -0.16358170706578648 -0.7781140749207146
18675000000.0 -0.17493518512536554 -0.773127082714286
18750000000.0 -0.18623485338709928 -0.7679573026451568
18825000000.0 -0.19747969195197607 -0.7626071702658609
18900000000.0 -0.20866921963818733 -0.7570784614828345
18975000000.0 -0.21980330535657652 -0.7513721776793784
19050000000.0 -0.2308819571334851 -0.7454884783147394
19125000000.0 -0.2419051004059493 -0.7394266650035398
19200000000.0 -0.25287235784496814 -0.7331852182813886
19275000000.0 -0.2637828429303508 -0.7267618853913723
19350000000.0 -0.27463497880675364 -0.7201538146364974
19425000000.0 -0.2854263526311106 -0.7133577292846516
19500000000.0 -0.29615361374592103 -0.7063701318222524
19575000000.0 -0.30681242167888817 -0.6991875276484912
19650000000.0 -0.31739744729956204 -0.6918066561765311
19725000000.0 -0.327902427598001 -0.6842247168243936
19800000000.0 -0.338320271640369 -0.6764395775663644
19875000000.0 -0.3486432124565876 -0.6684499545710084
19950000000.0 -0.3588629970763198 -0.660255552934409
20025000000.0 -0.36897110479045747 -0.6518571605538183
20100000000.0 -0.3789589820953842 -0.6432566896738592
20175000000.0 -0.388818281770075 -0.6344571634452719
20250000000.0 -0.39854109320351494 -0.6254626478163543
20325000000.0 -0.4081201514580405 -0.6162781320690902
20400000000.0 -0.4175490136113315 -0.6069093641518442
20475000000.0 -0.42682219261557514 -0.5973626494906205
20550000000.0 -0.43593524116060417 -0.5876446240383764
20625000000.0 -0.4448847807102189 -0.577762013827326
20700000000.0 -0.4536684738534155 -0.5677213941337935
20775000000.0 -0.46228494121338337 -0.5575289614963076
20850000000.0 -0.47073362721663836 -0.5471903312320694
20925000000.0 -0.47901462187378924 -0.5367103718020411
21000000000.0 -0.4871284482040208 -0.5260930854467983
21075000000.0 -0.4950758269092277 -0.5153415420554482
21150000000.0 -0.5028574312599525 -0.5044578703691658
21225000000.0 -0.5104736458162172 -0.49344330751201226
21300000000.0 -0.5179243425318173 -0.48229830465131196
21375000000.0 -0.5252086869794417 -0.4710226834892325
21450000000.0 -0.53232498592415 -0.4596158354434019
21525000000.0 -0.5392705853388541 -0.44807695294178174
21600000000.0 -0.5460418253057001 -0.43640528036940246
21675000000.0 -0.5526340552170516 -0.42460037096853565
21750000000.0 -0.5590417094361989 -0.4126623354831689
21825000000.0 -0.5652584402714452 -0.40059206859039864
21900000000.0 -0.5712773019339464 -0.3883914401733489
21975000000.0 -0.577090976262193 -0.3760634402203059
22050000000.0 -0.5826920285648819 -0.3636122685021763
22125000000.0 -0.5880731800987784 -0.35104336306837913
22200000000.0 -0.5932275825696681 -0.3383633648627295
22275000000.0 -0.5981490796977709 -0.3255800192246705
22350000000.0 -0.6028324413577386 -0.31270201852130963
22425000000.0 -0.6072735570772752 -0.2997387934605178
22500000000.0 -0.6114695777017963 -0.28670026357919753
22575000000.0 -0.6154189967067357 -0.27359655981379505
22650000000.0 -0.6191216658265581 -0.26043773379928287
22725000000.0 -0.6225787432015712 -0.24723346950050007
22800000000.0 -0.6257925759291805 -0.23399281289077636
22875000000.0 -0.6287665225430766 -0.2207239346386508
22950000000.0 -0.6315047243299956 -0.20743393917445266
23025000000.0 -0.6340118373392308 -0.1941287311611512
23100000000.0 -0.6362927392776268 -0.18081294740797452
23175000000.0 -0.6383522270773853 -0.16748995879632403
23250000000.0 -0.6401947216798475 -0.15416194301827604
23325000000.0 -0.6418239964444588 -0.14083002505895104
23400000000.0 -0.6432429445640753 -0.12749447859208235
23475000000.0 -0.6444533989886839 -0.11415497800666193
23550000000.0 -0.6454560157173305 -0.10081088783032573
23625000000.0 -0.6462502280412052 -0.08746157402766941
23700000000.0 -0.6468342755728294 -0.07410672016229236
23775000000.0 -0.6472053078675374 -0.060746630814514556
23850000000.0 -0.6473595583432178 -0.0473825049928311
23925000000.0 -0.6472925802499817 -0.034016663568475915
24000000000.0 -0.6469995328491159 -0.020652716952276086
24075000000.0 -0.6464755029330799 -0.007295662225173891
24150000000.0 -0.6457158445342547 0.006048097413006937
24225000000.0 -0.644716518274534 0.019370813879990244
24300000000.0 -0.6434744114006781 0.03266353473922845
24375000000.0 -0.6419876201811655 0.045916317200724484
24450000000.0 -0.6402556780014558 0.05911850556586269
24525000000.0 -0.6382797151202951 0.07225905833481786
24600000000.0 -0.6360625395170967 0.0853269081205914
24675000000.0 -0.6336086323955795 0.09831133530620856
24750000000.0 -0.6309240564946847 0.11120233518497642
24825000000.0 -0.6280162801470558 0.12399095822693168
24900000000.0 -0.6248939247542218 0.1366696041454614
24975000000.0 -0.6215664477511698 0.14923225256116465
25050000000.0 -0.6180437769607662 0.16167461617716325
25125000000.0 -0.6143359152693458 0.17399420633706666
25200000000.0 -0.6104525366084791 0.18619030543080617
25275000000.0 -0.6064025951761838 0.19826384560550517
25350000000.0 -0.6021939696030653 0.21021719836499472
25425000000.0 -0.5978331623558655 0.22205388462976886
25500000000.0 -0.5933250721257528 0.23377821940951515
25575000000.0 -0.5886728533833345 0.24539490916101245
25650000000.0 -0.5838778728631256 0.25690862294243383
25725000000.0 -0.5789397676806488 0.2683235604484872
25800000000.0 -0.5738566043363141 0.27964304078681307
25875000000.0 -0.5686251323009 0.29086913535923375
25950000000.0 -0.5632411205004236 0.3020023664295497
26025000000.0 -0.5576997601187628 0.3130414899466814
26100000000.0 -0.5519961129952945 0.323983377069423
26175000000.0 -0.5461255817648327 0.3348230037927813
26250000000.0 -0.5400843759762998 0.34555355235040225
26325000000.0 -0.5338699478851396 0.35616662195591564
26400000000.0 -0.5274813725215348 0.3666525402762983
26475000000.0 -0.5209196489922273 0.37700076114741465
26550000000.0 -0.5141879036943788 0.3872003287892094
26625000000.0 -0.5072914810383051 0.3972403844744021
26700000000.0 -0.5002379131496492 0.40711068852502813
26775000000.0 -0.49303676654356204 0.41680212886726986
26850000000.0 -0.4856993705804212 0.42630718729934225
26925000000.0 -0.4782384392454826 0.43562033616485885
27000000000.0 -0.47066760406217095 0.44473834122596395
27075000000.0 -0.4630008813885267 0.45366045105899366
27150000000.0 -0.45525210163942276 0.4623884590285986
27225000000.0 -0.4474343308635552 0.47092663054416434
27300000000.0 -0.43955931639753365 0.4792814955215061
27375000000.0 -0.43163698791730987 0.48746151338605787
27450000000.0 -0.4236750430934483 0.4954766251694114
27525000000.0 -0.41567864330307763 0.503337713882402
27600000000.0 -0.4076502396137459 0.5110560000312645
27675000000.0 -0.3995895427648436 0.5186424035537268
27750000000.0 -0.3914936434316358 0.5261069063195188
27825000000.0 -0.3833572810228452 0.5334579504610307
27900000000.0 -0.3751732510361166 0.5407019070508525
27975000000.0 -0.36693293300515867 0.5478426469883914
28050000000.0 -0.3586269137566463 0.5548812414578902
28125000000.0 -0.35024567448112087 0.5618158131367895
