<Qucs Dataset 25.1.1>
<indep dc1.v(vds) 1>
1.292600000000e-02+j0.000000000000e+00
</indep>
<indep dc1.v(vgs) 1>
1.000000000000e+00+j0.000000000000e+00
</indep>
<indep dc1.ids 1>
2.350559000000e-04+j0.000000000000e+00
</indep>
<indep dc1.gm 1>
0.000000000000e+00+j0.000000000000e+00
</indep>
<indep dc1.gm_sur_ids 1>
0.000000000000e+00+j0.000000000000e+00
</indep>
<indep dc1.k 1>
2.940000000000e+01+j0.000000000000e+00
</indep>
<indep dc1.gm_sur_ids_sur_k 1>
0.000000000000e+00+j0.000000000000e+00
</indep>
<indep vgs.v(v-sweep) 80>
0.000000000000e+00
1.265820000000e-02
2.531640000000e-02
3.797460000000e-02
5.063280000000e-02
6.329100000000e-02
7.594920000000e-02
8.860740000000e-02
1.012656000000e-01
1.139238000000e-01
1.265820000000e-01
1.392402000000e-01
1.518984000000e-01
1.645566000000e-01
1.772148000000e-01
1.898730000000e-01
2.025312000000e-01
2.151894000000e-01
2.278476000000e-01
2.405058000000e-01
2.531640000000e-01
2.658222000000e-01
2.784804000000e-01
2.911386000000e-01
3.037968000000e-01
3.164550000000e-01
3.291132000000e-01
3.417714000000e-01
3.544296000000e-01
3.670878000000e-01
3.797460000000e-01
3.924042000000e-01
4.050624000000e-01
4.177206000000e-01
4.303788000000e-01
4.430370000000e-01
4.556952000000e-01
4.683534000000e-01
4.810116000000e-01
4.936698000000e-01
5.063280000000e-01
5.189862000000e-01
5.316444000000e-01
5.443026000000e-01
5.569608000000e-01
5.696190000000e-01
5.822772000000e-01
5.949354000000e-01
6.075936000000e-01
6.202518000000e-01
6.329100000000e-01
6.455682000000e-01
6.582264000000e-01
6.708846000000e-01
6.835428000000e-01
6.962010000000e-01
7.088592000000e-01
7.215174000000e-01
7.341756000000e-01
7.468338000000e-01
7.594920000000e-01
7.721502000000e-01
7.848084000000e-01
7.974666000000e-01
8.101248000000e-01
8.227830000000e-01
8.354412000000e-01
8.480994000000e-01
8.607576000000e-01
8.734158000000e-01
8.860740000000e-01
8.987322000000e-01
9.113904000000e-01
9.240486000000e-01
9.367068000000e-01
9.493650000000e-01
9.620232000000e-01
9.746814000000e-01
9.873396000000e-01
9.999978000000e-01
</indep>
<dep vgs.v(vds) vgs.v(v-sweep)>
1.292600000000e-02
1.292600000000e-02
1.292600000000e-02
1.292600000000e-02
1.292600000000e-02
1.292600000000e-02
1.292600000000e-02
1.292600000000e-02
1.292600000000e-02
1.292600000000e-02
1.292600000000e-02
1.292600000000e-02
1.292600000000e-02
1.292600000000e-02
1.292600000000e-02
1.292600000000e-02
1.292600000000e-02
1.292600000000e-02
1.292600000000e-02
1.292600000000e-02
1.292600000000e-02
1.292600000000e-02
1.292600000000e-02
1.292600000000e-02
1.292600000000e-02
1.292600000000e-02
1.292600000000e-02
1.292600000000e-02
1.292600000000e-02
1.292600000000e-02
1.292600000000e-02
1.292600000000e-02
1.292600000000e-02
1.292600000000e-02
1.292600000000e-02
1.292600000000e-02
1.292600000000e-02
1.292600000000e-02
1.292600000000e-02
1.292600000000e-02
1.292600000000e-02
1.292600000000e-02
1.292600000000e-02
1.292600000000e-02
1.292600000000e-02
1.292600000000e-02
1.292600000000e-02
1.292600000000e-02
1.292600000000e-02
1.292600000000e-02
1.292600000000e-02
1.292600000000e-02
1.292600000000e-02
1.292600000000e-02
1.292600000000e-02
1.292600000000e-02
1.292600000000e-02
1.292600000000e-02
1.292600000000e-02
1.292600000000e-02
1.292600000000e-02
1.292600000000e-02
1.292600000000e-02
1.292600000000e-02
1.292600000000e-02
1.292600000000e-02
1.292600000000e-02
1.292600000000e-02
1.292600000000e-02
1.292600000000e-02
1.292600000000e-02
1.292600000000e-02
1.292600000000e-02
1.292600000000e-02
1.292600000000e-02
1.292600000000e-02
1.292600000000e-02
1.292600000000e-02
1.292600000000e-02
1.292600000000e-02
</dep>
<dep vgs.v(vgs) vgs.v(v-sweep)>
0.000000000000e+00
1.265820000000e-02
2.531640000000e-02
3.797460000000e-02
5.063280000000e-02
6.329100000000e-02
7.594920000000e-02
8.860740000000e-02
1.012656000000e-01
1.139238000000e-01
1.265820000000e-01
1.392402000000e-01
1.518984000000e-01
1.645566000000e-01
1.772148000000e-01
1.898730000000e-01
2.025312000000e-01
2.151894000000e-01
2.278476000000e-01
2.405058000000e-01
2.531640000000e-01
2.658222000000e-01
2.784804000000e-01
2.911386000000e-01
3.037968000000e-01
3.164550000000e-01
3.291132000000e-01
3.417714000000e-01
3.544296000000e-01
3.670878000000e-01
3.797460000000e-01
3.924042000000e-01
4.050624000000e-01
4.177206000000e-01
4.303788000000e-01
4.430370000000e-01
4.556952000000e-01
4.683534000000e-01
4.810116000000e-01
4.936698000000e-01
5.063280000000e-01
5.189862000000e-01
5.316444000000e-01
5.443026000000e-01
5.569608000000e-01
5.696190000000e-01
5.822772000000e-01
5.949354000000e-01
6.075936000000e-01
6.202518000000e-01
6.329100000000e-01
6.455682000000e-01
6.582264000000e-01
6.708846000000e-01
6.835428000000e-01
6.962010000000e-01
7.088592000000e-01
7.215174000000e-01
7.341756000000e-01
7.468338000000e-01
7.594920000000e-01
7.721502000000e-01
7.848084000000e-01
7.974666000000e-01
8.101248000000e-01
8.227830000000e-01
8.354412000000e-01
8.480994000000e-01
8.607576000000e-01
8.734158000000e-01
8.860740000000e-01
8.987322000000e-01
9.113904000000e-01
9.240486000000e-01
9.367068000000e-01
9.493650000000e-01
9.620232000000e-01
9.746814000000e-01
9.873396000000e-01
9.999978000000e-01
</dep>
<dep vgs.i(ids) vgs.v(v-sweep)>
4.457985822909e-11
6.338932686343e-11
9.022412779182e-11
1.285404857584e-10
1.832958254781e-10
2.616051812080e-10
3.736868529905e-10
5.342250585018e-10
7.643343726939e-10
1.094392892806e-09
1.568129723553e-09
2.248523629166e-09
3.226316540940e-09
4.632300627272e-09
6.655046567914e-09
9.566466556770e-09
1.375863294102e-08
1.979671065122e-08
2.849483629666e-08
4.102441405934e-08
5.906765970829e-08
8.503316519394e-08
1.223541352999e-07
1.758920831746e-07
2.524655805027e-07
3.615086322656e-07
5.158266659492e-07
7.323499969125e-07
1.032685107176e-06
1.443163527958e-06
1.994064723311e-06
2.717845724080e-06
3.646573402764e-06
4.809162824431e-06
6.229180600405e-06
7.923721009269e-06
9.903383290680e-06
1.217300602900e-05
1.473271994678e-05
1.757899341484e-05
2.070551167080e-05
2.410385451334e-05
2.776399884196e-05
3.167469021360e-05
3.582372411339e-05
4.019816749875e-05
4.478454117235e-05
4.956897585237e-05
5.453734956656e-05
5.967541067349e-05
6.496888881368e-05
7.033533435998e-05
7.590422397528e-05
8.158641818351e-05
8.736843607145e-05
9.323718099675e-05
9.917999044205e-05
1.051846767986e-04
1.112395597836e-04
1.173334912840e-04
1.234558734081e-04
1.295966704501e-04
1.357464153894e-04
1.418962114775e-04
1.480377294364e-04
1.541632007732e-04
1.602654077109e-04
1.663376702224e-04
1.723738306362e-04
1.783682362564e-04
1.843157204062e-04
1.902115822691e-04
1.960515658650e-04
2.018318384586e-04
2.075489686644e-04
2.131999044749e-04
2.187819514090e-04
2.242927509433e-04
2.297302593688e-04
2.350927271816e-04
</dep>
<dep vgs.i(gm) vgs.v(v-sweep)>
1.168949968188e-09
1.802952614223e-09
2.573476438001e-09
3.676340146557e-09
5.256067033605e-09
7.520462131758e-09
1.076850884382e-08
1.543061097563e-08
2.212667813372e-08
3.174998620892e-08
4.558826438039e-08
6.549852338352e-08
9.415939857587e-08
1.354351340228e-07
1.948999829951e-07
2.805922790407e-07
4.040955307411e-07
5.820813131267e-07
8.384961293121e-07
1.207629181544e-06
1.738349494186e-06
2.499821285474e-06
3.588935155892e-06
5.139413392221e-06
7.331869819211e-06
1.040278576126e-05
1.464826612974e-05
2.041595334356e-05
2.807719624613e-05
3.797457838141e-05
5.035005751695e-05
6.527423644171e-05
8.260720719970e-05
1.020132087359e-04
1.230253189568e-04
1.451313255548e-04
1.678471275431e-04
1.907592175863e-04
2.135369715220e-04
2.359257921356e-04
2.577325804025e-04
2.788108566447e-04
2.990486680673e-04
3.183598486131e-04
3.366780934552e-04
3.539530525256e-04
3.701477442932e-04
3.852367790920e-04
3.992050536855e-04
4.120467067641e-04
4.210679119658e-04
4.319466891658e-04
4.444187887504e-04
4.528373740410e-04
4.602061435766e-04
4.665574240650e-04
4.719271224123e-04
4.763540369689e-04
4.798792279084e-04
4.825454497674e-04
4.843966427336e-04
4.854774763116e-04
4.858329394126e-04
4.855079729744e-04
4.845471431854e-04
4.829943544329e-04
4.808926012082e-04
4.782837577735e-04
4.752084038012e-04
4.717056836649e-04
4.678131966908e-04
4.635669154723e-04
4.590011292878e-04
4.541484097005e-04
4.490395955320e-04
4.437037945595e-04
4.381683994722e-04
4.324591158253e-04
4.265999999331e-04
4.206717784900e-04
</dep>
<dep vgs.gm_sur_ids vgs.v(v-sweep)>
2.622148240537e+01
2.844252658035e+01
2.852315119010e+01
2.860063990629e+01
2.867532318259e+01
2.874737456281e+01
2.881693256706e+01
2.888410180328e+01
2.894895077887e+01
2.901150621282e+01
2.907174304246e+01
2.912956863514e+01
2.918479863369e+01
2.923712101616e+01
2.928604345683e+01
2.933081690879e+01
2.937032570557e+01
2.940293078895e+01
2.942624834137e+01
2.943684167669e+01
2.942980139675e+01
2.939819163231e+01
2.933235682714e+01
2.921912856715e+01
2.904106692331e+01
2.877603695400e+01
2.839765195695e+01
2.787731744334e+01
2.718853603197e+01
2.631342716590e+01
2.524996151245e+01
2.401690274889e+01
2.265337841193e+01
2.121225927674e+01
1.974983980217e+01
1.831605698699e+01
1.694846322883e+01
1.567067469874e+01
1.449406303068e+01
1.342089314036e+01
1.244753496075e+01
1.156706519658e+01
1.077109496256e+01
1.005092224948e+01
9.398187982621e+00
8.805203683392e+00
8.265078408835e+00
7.771731662146e+00
7.319846982999e+00
6.904798846188e+00
6.481069934462e+00
6.141247398570e+00
5.854994168640e+00
5.550401453125e+00
5.267418810155e+00
5.003984666603e+00
4.758289654081e+00
4.528739845643e+00
4.313925988579e+00
4.112597728806e+00
3.923641940733e+00
3.746064421450e+00
3.578974354638e+00
3.421571075924e+00
3.273132768452e+00
3.133006787680e+00
3.000601365427e+00
2.875378482421e+00
2.756847730582e+00
2.644561013581e+00
2.538107957693e+00
2.437111925268e+00
2.341226540388e+00
2.250132650868e+00
2.163535663038e+00
2.081163195885e+00
2.002763009702e+00
1.928101171377e+00
1.856960424391e+00
1.789386611543e+00
</dep>
<dep vgs.k vgs.k_steps>
2.940000000000e+01
0.000000000000e+00
</dep>
<dep vgs.gm_sur_ids_sur_k vgs.v(v-sweep)>
8.918871566451e-01
9.674328768826e-01
9.701752105476e-01
9.728108811664e-01
9.753511286597e-01
9.778018558779e-01
9.801677743897e-01
9.824524422884e-01
9.846581897576e-01
9.867859256062e-01
9.888347973627e-01
9.908016542563e-01
9.926802256357e-01
9.944598985087e-01
9.961239271030e-01
9.976468336322e-01
9.989906702573e-01
1.000099686699e+00
1.000892800727e+00
1.001253118255e+00
1.001013652951e+00
9.999384908950e-01
9.976992118074e-01
9.938479104473e-01
9.877913919493e-01
9.787767671427e-01
9.659065291480e-01
9.482080763040e-01
9.247801371417e-01
8.950145294525e-01
8.588422283147e-01
8.169014540438e-01
7.705230752358e-01
7.215054175762e-01
6.717632585774e-01
6.229951356118e-01
5.764783411165e-01
5.330161462157e-01
4.929953411795e-01
4.564929639578e-01
4.233855428825e-01
3.934375917204e-01
3.663637742368e-01
3.418681037236e-01
3.196662579123e-01
2.994967239249e-01
2.811251159468e-01
2.643446143587e-01
2.489743871768e-01
2.348571036118e-01
2.204445555940e-01
2.088859659378e-01
1.991494615184e-01
1.887891650723e-01
1.791639051073e-01
1.702035600885e-01
1.618465868735e-01
1.540387702600e-01
1.467321764823e-01
1.398842764900e-01
1.334572088685e-01
1.274171571922e-01
1.217338215863e-01
1.163799685688e-01
1.113310465460e-01
1.065648567238e-01
1.020612709329e-01
9.780198919798e-02
9.377033097217e-02
8.995105488371e-02
8.633020264263e-02
8.289496344451e-02
7.963355579550e-02
7.653512417919e-02
7.358964840264e-02
7.078786380563e-02
6.812119080618e-02
6.558167249583e-02
6.316191919699e-02
6.086349018854e-02
</dep>
