<Qucs Dataset 25.1.2>
<indep dc1.i(pr1) 1>
2.201817000000e-03+j0.000000000000e+00
</indep>
<indep dc1.v(vdd) 1>
1.200000000000e+00+j0.000000000000e+00
</indep>
<indep dc1.v(vout) 1>
1.192023000000e+00+j0.000000000000e+00
</indep>
<indep sw1.res-sweep 501>
5.000000000000e+00
1.499000000000e+01
2.498000000000e+01
3.497000000000e+01
4.496000000000e+01
5.495000000000e+01
6.494000000000e+01
7.493000000000e+01
8.492000000000e+01
9.491000000000e+01
1.049000000000e+02
1.148900000000e+02
1.248800000000e+02
1.348700000000e+02
1.448600000000e+02
1.548500000000e+02
1.648400000000e+02
1.748300000000e+02
1.848200000000e+02
1.948100000000e+02
2.048000000000e+02
2.147900000000e+02
2.247800000000e+02
2.347700000000e+02
2.447600000000e+02
2.547500000000e+02
2.647400000000e+02
2.747300000000e+02
2.847200000000e+02
2.947100000000e+02
3.047000000000e+02
3.146900000000e+02
3.246800000000e+02
3.346700000000e+02
3.446600000000e+02
3.546500000000e+02
3.646400000000e+02
3.746300000000e+02
3.846200000000e+02
3.946100000000e+02
4.046000000000e+02
4.145900000000e+02
4.245800000000e+02
4.345700000000e+02
4.445600000000e+02
4.545500000000e+02
4.645400000000e+02
4.745300000000e+02
4.845200000000e+02
4.945100000000e+02
5.045000000000e+02
5.144900000000e+02
5.244800000000e+02
5.344700000000e+02
5.444600000000e+02
5.544500000000e+02
5.644400000000e+02
5.744300000000e+02
5.844200000000e+02
5.944100000000e+02
6.044000000000e+02
6.143900000000e+02
6.243800000000e+02
6.343700000000e+02
6.443600000000e+02
6.543500000000e+02
6.643400000000e+02
6.743300000000e+02
6.843200000000e+02
6.943100000000e+02
7.043000000000e+02
7.142900000000e+02
7.242800000000e+02
7.342700000000e+02
7.442600000000e+02
7.542500000000e+02
7.642400000000e+02
7.742300000000e+02
7.842200000000e+02
7.942100000000e+02
8.042000000000e+02
8.141900000000e+02
8.241800000000e+02
8.341700000000e+02
8.441600000000e+02
8.541500000000e+02
8.641400000000e+02
8.741300000000e+02
8.841200000000e+02
8.941100000000e+02
9.041000000000e+02
9.140900000000e+02
9.240800000000e+02
9.340700000000e+02
9.440600000000e+02
9.540500000000e+02
9.640400000000e+02
9.740300000000e+02
9.840200000000e+02
9.940100000000e+02
1.004000000000e+03
1.013990000000e+03
1.023980000000e+03
1.033970000000e+03
1.043960000000e+03
1.053950000000e+03
1.063940000000e+03
1.073930000000e+03
1.083920000000e+03
1.093910000000e+03
1.103900000000e+03
1.113890000000e+03
1.123880000000e+03
1.133870000000e+03
1.143860000000e+03
1.153850000000e+03
1.163840000000e+03
1.173830000000e+03
1.183820000000e+03
1.193810000000e+03
1.203800000000e+03
1.213790000000e+03
1.223780000000e+03
1.233770000000e+03
1.243760000000e+03
1.253750000000e+03
1.263740000000e+03
1.273730000000e+03
1.283720000000e+03
1.293710000000e+03
1.303700000000e+03
1.313690000000e+03
1.323680000000e+03
1.333670000000e+03
1.343660000000e+03
1.353650000000e+03
1.363640000000e+03
1.373630000000e+03
1.383620000000e+03
1.393610000000e+03
1.403600000000e+03
1.413590000000e+03
1.423580000000e+03
1.433570000000e+03
1.443560000000e+03
1.453550000000e+03
1.463540000000e+03
1.473530000000e+03
1.483520000000e+03
1.493510000000e+03
1.503500000000e+03
1.513490000000e+03
1.523480000000e+03
1.533470000000e+03
1.543460000000e+03
1.553450000000e+03
1.563440000000e+03
1.573430000000e+03
1.583420000000e+03
1.593410000000e+03
1.603400000000e+03
1.613390000000e+03
1.623380000000e+03
1.633370000000e+03
1.643360000000e+03
1.653350000000e+03
1.663340000000e+03
1.673330000000e+03
1.683320000000e+03
1.693310000000e+03
1.703300000000e+03
1.713290000000e+03
1.723280000000e+03
1.733270000000e+03
1.743260000000e+03
1.753250000000e+03
1.763240000000e+03
1.773230000000e+03
1.783220000000e+03
1.793210000000e+03
1.803200000000e+03
1.813190000000e+03
1.823180000000e+03
1.833170000000e+03
1.843160000000e+03
1.853150000000e+03
1.863140000000e+03
1.873130000000e+03
1.883120000000e+03
1.893110000000e+03
1.903100000000e+03
1.913090000000e+03
1.923080000000e+03
1.933070000000e+03
1.943060000000e+03
1.953050000000e+03
1.963040000000e+03
1.973030000000e+03
1.983020000000e+03
1.993010000000e+03
2.003000000000e+03
2.012990000000e+03
2.022980000000e+03
2.032970000000e+03
2.042960000000e+03
2.052950000000e+03
2.062940000000e+03
2.072930000000e+03
2.082920000000e+03
2.092910000000e+03
2.102900000000e+03
2.112890000000e+03
2.122880000000e+03
2.132870000000e+03
2.142860000000e+03
2.152850000000e+03
2.162840000000e+03
2.172830000000e+03
2.182820000000e+03
2.192810000000e+03
2.202800000000e+03
2.212790000000e+03
2.222780000000e+03
2.232770000000e+03
2.242760000000e+03
2.252750000000e+03
2.262740000000e+03
2.272730000000e+03
2.282720000000e+03
2.292710000000e+03
2.302700000000e+03
2.312690000000e+03
2.322680000000e+03
2.332670000000e+03
2.342660000000e+03
2.352650000000e+03
2.362640000000e+03
2.372630000000e+03
2.382620000000e+03
2.392610000000e+03
2.402600000000e+03
2.412590000000e+03
2.422580000000e+03
2.432570000000e+03
2.442560000000e+03
2.452550000000e+03
2.462540000000e+03
2.472530000000e+03
2.482520000000e+03
2.492510000000e+03
2.502500000000e+03
2.512490000000e+03
2.522480000000e+03
2.532470000000e+03
2.542460000000e+03
2.552450000000e+03
2.562440000000e+03
2.572430000000e+03
2.582420000000e+03
2.592410000000e+03
2.602400000000e+03
2.612390000000e+03
2.622380000000e+03
2.632370000000e+03
2.642360000000e+03
2.652350000000e+03
2.662340000000e+03
2.672330000000e+03
2.682320000000e+03
2.692310000000e+03
2.702300000000e+03
2.712290000000e+03
2.722280000000e+03
2.732270000000e+03
2.742260000000e+03
2.752250000000e+03
2.762240000000e+03
2.772230000000e+03
2.782220000000e+03
2.792210000000e+03
2.802200000000e+03
2.812190000000e+03
2.822180000000e+03
2.832170000000e+03
2.842160000000e+03
2.852150000000e+03
2.862140000000e+03
2.872130000000e+03
2.882120000000e+03
2.892110000000e+03
2.902100000000e+03
2.912090000000e+03
2.922080000000e+03
2.932070000000e+03
2.942060000000e+03
2.952050000000e+03
2.962040000000e+03
2.972030000000e+03
2.982020000000e+03
2.992010000000e+03
3.002000000000e+03
3.011990000000e+03
3.021980000000e+03
3.031970000000e+03
3.041960000000e+03
3.051950000000e+03
3.061940000000e+03
3.071930000000e+03
3.081920000000e+03
3.091910000000e+03
3.101900000000e+03
3.111890000000e+03
3.121880000000e+03
3.131870000000e+03
3.141860000000e+03
3.151850000000e+03
3.161840000000e+03
3.171830000000e+03
3.181820000000e+03
3.191810000000e+03
3.201800000000e+03
3.211790000000e+03
3.221780000000e+03
3.231770000000e+03
3.241760000000e+03
3.251750000000e+03
3.261740000000e+03
3.271730000000e+03
3.281720000000e+03
3.291710000000e+03
3.301700000000e+03
3.311690000000e+03
3.321680000000e+03
3.331670000000e+03
3.341660000000e+03
3.351650000000e+03
3.361640000000e+03
3.371630000000e+03
3.381620000000e+03
3.391610000000e+03
3.401600000000e+03
3.411590000000e+03
3.421580000000e+03
3.431570000000e+03
3.441560000000e+03
3.451550000000e+03
3.461540000000e+03
3.471530000000e+03
3.481520000000e+03
3.491510000000e+03
3.501500000000e+03
3.511490000000e+03
3.521480000000e+03
3.531470000000e+03
3.541460000000e+03
3.551450000000e+03
3.561440000000e+03
3.571430000000e+03
3.581420000000e+03
3.591410000000e+03
3.601400000000e+03
3.611390000000e+03
3.621380000000e+03
3.631370000000e+03
3.641360000000e+03
3.651350000000e+03
3.661340000000e+03
3.671330000000e+03
3.681320000000e+03
3.691310000000e+03
3.701300000000e+03
3.711290000000e+03
3.721280000000e+03
3.731270000000e+03
3.741260000000e+03
3.751250000000e+03
3.761240000000e+03
3.771230000000e+03
3.781220000000e+03
3.791210000000e+03
3.801200000000e+03
3.811190000000e+03
3.821180000000e+03
3.831170000000e+03
3.841160000000e+03
3.851150000000e+03
3.861140000000e+03
3.871130000000e+03
3.881120000000e+03
3.891110000000e+03
3.901100000000e+03
3.911090000000e+03
3.921080000000e+03
3.931070000000e+03
3.941060000000e+03
3.951050000000e+03
3.961040000000e+03
3.971030000000e+03
3.981020000000e+03
3.991010000000e+03
4.001000000000e+03
4.010990000000e+03
4.020980000000e+03
4.030970000000e+03
4.040960000000e+03
4.050950000000e+03
4.060940000000e+03
4.070930000000e+03
4.080920000000e+03
4.090910000000e+03
4.100900000000e+03
4.110890000000e+03
4.120880000000e+03
4.130870000000e+03
4.140860000000e+03
4.150850000000e+03
4.160840000000e+03
4.170830000000e+03
4.180820000000e+03
4.190810000000e+03
4.200800000000e+03
4.210790000000e+03
4.220780000000e+03
4.230770000000e+03
4.240760000000e+03
4.250750000000e+03
4.260740000000e+03
4.270730000000e+03
4.280720000000e+03
4.290710000000e+03
4.300700000000e+03
4.310690000000e+03
4.320680000000e+03
4.330670000000e+03
4.340660000000e+03
4.350650000000e+03
4.360640000000e+03
4.370630000000e+03
4.380620000000e+03
4.390610000000e+03
4.400600000000e+03
4.410590000000e+03
4.420580000000e+03
4.430570000000e+03
4.440560000000e+03
4.450550000000e+03
4.460540000000e+03
4.470530000000e+03
4.480520000000e+03
4.490510000000e+03
4.500500000000e+03
4.510490000000e+03
4.520480000000e+03
4.530470000000e+03
4.540460000000e+03
4.550450000000e+03
4.560440000000e+03
4.570430000000e+03
4.580420000000e+03
4.590410000000e+03
4.600400000000e+03
4.610390000000e+03
4.620380000000e+03
4.630370000000e+03
4.640360000000e+03
4.650350000000e+03
4.660340000000e+03
4.670330000000e+03
4.680320000000e+03
4.690310000000e+03
4.700300000000e+03
4.710290000000e+03
4.720280000000e+03
4.730270000000e+03
4.740260000000e+03
4.750250000000e+03
4.760240000000e+03
4.770230000000e+03
4.780220000000e+03
4.790210000000e+03
4.800200000000e+03
4.810190000000e+03
4.820180000000e+03
4.830170000000e+03
4.840160000000e+03
4.850150000000e+03
4.860140000000e+03
4.870130000000e+03
4.880120000000e+03
4.890110000000e+03
4.900100000000e+03
4.910090000000e+03
4.920080000000e+03
4.930070000000e+03
4.940060000000e+03
4.950050000000e+03
4.960040000000e+03
4.970030000000e+03
4.980020000000e+03
4.990010000000e+03
5.000000000000e+03
</indep>
<dep sw1.i(pr1) sw1.res-sweep>
2.347893674646e-02
2.262162153744e-02
2.177434593167e-02
2.094086274289e-02
2.012493157246e-02
1.933013868018e-02
1.855968542280e-02
1.781622920664e-02
1.710179143773e-02
1.641773202860e-02
1.576477920936e-02
1.514309798938e-02
1.455981586622e-02
1.399787240778e-02
1.346532815686e-02
1.296121058946e-02
1.248417687360e-02
1.203281407867e-02
1.160569008361e-02
1.120138633857e-02
1.081852106513e-02
1.045576501217e-02
1.011185146991e-02
9.785581958823e-03
9.475828736433e-03
9.181535019259e-03
8.901713610708e-03
8.635444458485e-03
8.381871529988e-03
8.140199291406e-03
7.909688996968e-03
7.689654933309e-03
7.479460720102e-03
7.278515734112e-03
7.086271699392e-03
6.902219468411e-03
6.725886007611e-03
6.556831589113e-03
6.394647187849e-03
6.238952076056e-03
6.089391606423e-03
5.945635173063e-03
5.807374338707e-03
5.674321116227e-03
5.546206392932e-03
5.422778486344e-03
5.303801821004e-03
5.189055715335e-03
5.078333270623e-03
4.971440351711e-03
4.868194652794e-03
4.768424839728e-03
4.671969763086e-03
4.578677735089e-03
4.488405865062e-03
4.401019448066e-03
4.316391402375e-03
4.234401751203e-03
4.154937144996e-03
4.077890420772e-03
4.003160195116e-03
3.930650488505e-03
3.860270377503e-03
3.791933673165e-03
3.725558623164e-03
3.661067635605e-03
3.598387022946e-03
3.537446764158e-03
3.478180283975e-03
3.420524247456e-03
3.364418368807e-03
3.309805233754e-03
3.256630133400e-03
3.204840910001e-03
3.154387812426e-03
3.105223361621e-03
3.057302224716e-03
3.010581097241e-03
2.965018593162e-03
2.920575141524e-03
2.877212890048e-03
2.834895614414e-03
2.793588633329e-03
2.753258728735e-03
2.713874070850e-03
2.675404147771e-03
2.637819699253e-03
2.601092654345e-03
2.565196072755e-03
2.530104089517e-03
2.495791862958e-03
2.462235525531e-03
2.429412137446e-03
2.397299642942e-03
2.365876828848e-03
2.335123285695e-03
2.305019370581e-03
2.275546172377e-03
2.246685478548e-03
2.218419743966e-03
2.190732061090e-03
2.163606131997e-03
2.137026241681e-03
2.110977232740e-03
2.085444481378e-03
2.060413874727e-03
2.035871789076e-03
2.011805069396e-03
1.988201009781e-03
1.965047334835e-03
1.942332182055e-03
1.920044084945e-03
1.898171957000e-03
1.876705076521e-03
1.855633071968e-03
1.834945908204e-03
1.814633873185e-03
1.794687565485e-03
1.775097882145e-03
1.755856007291e-03
1.736953401114e-03
1.718381789460e-03
1.700133153731e-03
1.682199721501e-03
1.664573957190e-03
1.647248553451e-03
1.630216422758e-03
1.613470689434e-03
1.597004681965e-03
1.580811925701e-03
1.564886135774e-03
1.549221210466e-03
1.533811224656e-03
1.518650423722e-03
1.503733217573e-03
1.489054174950e-03
1.474608018024e-03
1.460389617098e-03
1.446393985647e-03
1.432616275420e-03
1.419051771888e-03
1.405695889726e-03
1.392544168583e-03
1.379592268916e-03
1.366835968106e-03
1.354271156596e-03
1.341893834287e-03
1.329700106964e-03
1.317686182969e-03
1.305848369914e-03
1.294183071550e-03
1.282686784722e-03
1.271356096533e-03
1.260187681445e-03
1.249178298650e-03
1.238324789454e-03
1.227624074755e-03
1.217073152637e-03
1.206669095989e-03
1.196409050367e-03
1.186290231687e-03
1.176309924250e-03
1.166465478645e-03
1.156754309816e-03
1.147173895176e-03
1.137721772834e-03
1.128395539757e-03
1.119192850121e-03
1.110111413681e-03
1.101148994158e-03
1.092303407700e-03
1.083572521441e-03
1.074954252032e-03
1.066446564272e-03
1.058047469756e-03
1.049755025596e-03
1.041567333162e-03
1.033482536843e-03
1.025498822908e-03
1.017614418361e-03
1.009827589812e-03
1.002136642456e-03
9.945399189675e-04
9.870357986118e-04
9.796226961669e-04
9.722990610302e-04
9.650633763393e-04
9.579141580147e-04
9.508499539700e-04
9.438693432640e-04
9.369709352836e-04
9.301533689618e-04
9.234153120548e-04
9.167554603662e-04
9.101725370645e-04
9.036652919742e-04
8.972325009208e-04
8.908729650656e-04
8.845855102890e-04
8.783689865481e-04
8.722222673311e-04
8.661442490148e-04
8.601338503612e-04
8.541900119540e-04
8.483116956231e-04
8.424978840160e-04
8.367475800046e-04
8.310598062821e-04
8.254336048229e-04
8.198680364557e-04
8.143621804270e-04
8.089151339360e-04
8.035260117370e-04
7.981939457010e-04
7.929180844450e-04
7.876975929420e-04
7.825316521056e-04
7.774194584656e-04
7.723602237964e-04
7.673531747382e-04
7.623975525128e-04
7.574926125368e-04
7.526376241465e-04
7.478318702498e-04
7.430746470421e-04
7.383652637147e-04
7.337030421254e-04
7.290873165698e-04
7.245174334645e-04
7.199927511121e-04
7.155126394084e-04
7.110764796252e-04
7.066836641285e-04
7.023335961567e-04
6.980256895756e-04
6.937593686627e-04
6.895340678710e-04
6.853492316174e-04
6.812043140674e-04
6.770987789223e-04
6.730320992331e-04
6.690037571866e-04
6.650132439330e-04
6.610600593690e-04
6.571437119839e-04
6.532637186630e-04
6.494196045233e-04
6.456109027375e-04
6.418371543708e-04
6.380979082164e-04
6.343927206437e-04
6.307211554424e-04
6.270827836584e-04
6.234771834599e-04
6.199039400063e-04
6.163626452713e-04
6.128528979431e-04
6.093743032696e-04
6.059264729294e-04
6.025090249214e-04
5.991215834108e-04
5.957637786381e-04
5.924352467737e-04
5.891356298147e-04
5.858645754763e-04
5.826217370655e-04
5.794067733937e-04
5.762193486402e-04
5.730591322822e-04
5.699257989768e-04
5.668190284485e-04
5.637385054186e-04
5.606839194995e-04
5.576549650892e-04
5.546513412987e-04
5.516727518679e-04
5.487189050485e-04
5.457895135485e-04
5.428842944410e-04
5.400029690771e-04
5.371452630146e-04
5.343109059321e-04
5.314996315646e-04
5.287111776183e-04
5.259452856879e-04
5.232017012280e-04
5.204801734348e-04
5.177804552016e-04
5.151023030381e-04
5.124454770411e-04
5.098097407767e-04
5.071948612614e-04
5.046006088757e-04
5.020267573257e-04
4.994730835587e-04
4.969393677212e-04
4.944253931046e-04
4.919309460870e-04
4.894558160615e-04
4.869997954252e-04
4.845626794732e-04
4.821442664021e-04
4.797443572136e-04
4.773627556939e-04
4.749992683617e-04
4.726537044048e-04
4.703258756672e-04
4.680155965600e-04
4.657226840654e-04
4.634469576515e-04
4.611882392539e-04
4.589463532297e-04
4.567211263078e-04
4.545123875697e-04
4.523199683896e-04
4.501437023944e-04
4.479834254553e-04
4.458389756142e-04
4.437101930652e-04
4.415969201367e-04
4.394990012125e-04
4.374162827412e-04
4.353486131792e-04
4.332958429656e-04
4.312578244844e-04
4.292344120418e-04
4.272254618230e-04
4.252308318797e-04
4.232503820850e-04
4.212839740986e-04
4.193314713666e-04
4.173927390654e-04
4.154676440830e-04
4.135560549960e-04
4.116578420402e-04
4.097728770810e-04
4.079010335956e-04
4.060421866408e-04
4.041962128308e-04
4.023629903152e-04
4.005423987478e-04
3.987343192779e-04
3.969386345076e-04
3.951552284883e-04
3.933839866834e-04
3.916247959631e-04
3.898775445602e-04
3.881421220768e-04
3.864184194367e-04
3.847063288905e-04
3.830057439711e-04
3.813165594952e-04
3.796386715250e-04
3.779719773805e-04
3.763163755756e-04
3.746717658451e-04
3.730380490901e-04
3.714151273976e-04
3.698029039805e-04
3.682012832017e-04
3.666101705271e-04
3.650294725263e-04
3.634590968547e-04
3.618989522245e-04
3.603489484110e-04
3.588089962188e-04
3.572790074797e-04
3.557588950238e-04
3.542485726845e-04
3.527479552644e-04
3.512569585332e-04
3.497754992182e-04
3.483034949693e-04
3.468408643748e-04
3.453875269302e-04
3.439434030203e-04
3.425084139283e-04
3.410824818014e-04
3.396655296574e-04
3.382574813534e-04
3.368582615914e-04
3.354677958944e-04
3.340860106010e-04
3.327128328539e-04
3.313481905957e-04
3.299920125342e-04
3.286442281647e-04
3.273047677322e-04
3.259735622373e-04
3.246505434176e-04
3.233356437442e-04
3.220287964040e-04
3.207299353012e-04
3.194389950333e-04
3.181559108980e-04
3.168806188702e-04
3.156130555995e-04
3.143531584013e-04
3.131008652439e-04
3.118561147508e-04
3.106188461727e-04
3.093889994051e-04
3.081665149542e-04
3.069513339419e-04
3.057433981059e-04
3.045426497693e-04
3.033490318594e-04
3.021624878777e-04
3.009829618982e-04
2.998103985764e-04
2.986447431166e-04
2.974859412840e-04
2.963339393872e-04
2.951886842815e-04
2.940501233426e-04
2.929182044883e-04
2.917928761452e-04
2.906740872557e-04
2.895617872755e-04
2.884559261548e-04
2.873564543352e-04
2.862633227513e-04
2.851764828289e-04
2.840958864552e-04
2.830214859926e-04
2.819532342743e-04
2.808910845891e-04
2.798349906754e-04
2.787849067255e-04
2.777407873672e-04
2.767025876788e-04
2.756702631551e-04
2.746437697307e-04
2.736230637506e-04
2.726081019879e-04
2.715988416148e-04
2.705952402215e-04
2.695972557954e-04
2.686048467196e-04
2.676179717770e-04
2.666365901241e-04
2.656606613177e-04
2.646901452815e-04
2.637250023191e-04
2.627651931014e-04
2.618106786676e-04
2.608614204181e-04
2.599173801041e-04
2.589785198452e-04
2.580448020924e-04
2.571161896530e-04
2.561926456737e-04
2.552741336350e-04
2.543606173547e-04
2.534520609794e-04
2.525484289799e-04
2.516496861488e-04
2.507557976009e-04
2.498667287647e-04
2.489824453796e-04
2.481029134898e-04
2.472280994478e-04
2.463579699081e-04
2.454924918215e-04
2.446316324306e-04
2.437753592741e-04
2.429236401774e-04
2.420764432461e-04
2.412337368756e-04
2.403954897315e-04
2.395616707644e-04
2.387322491831e-04
2.379071944863e-04
2.370864764191e-04
2.362700650026e-04
2.354579305175e-04
2.346500434983e-04
2.338463747388e-04
2.330468952842e-04
2.322515764289e-04
2.314603897159e-04
2.306733069288e-04
2.298903001010e-04
2.291113414973e-04
2.283364036236e-04
2.275654592216e-04
2.267984812606e-04
2.260354429450e-04
2.252763176958e-04
2.245210791734e-04
2.237697012532e-04
2.230221580226e-04
2.222784238029e-04
2.215384731185e-04
2.208022807152e-04
2.200698215428e-04
2.193410707632e-04
2.186160037478e-04
2.178945960668e-04
2.171768234988e-04
2.164626620192e-04
</dep>
<dep sw1.v(vdd) sw1.res-sweep>
1.200000000000e+00
1.200000000000e+00
1.200000000000e+00
1.200000000000e+00
1.200000000000e+00
1.200000000000e+00
1.200000000000e+00
1.200000000000e+00
1.200000000000e+00
1.200000000000e+00
1.200000000000e+00
1.200000000000e+00
1.200000000000e+00
1.200000000000e+00
1.200000000000e+00
1.200000000000e+00
1.200000000000e+00
1.200000000000e+00
1.200000000000e+00
1.200000000000e+00
1.200000000000e+00
1.200000000000e+00
1.200000000000e+00
1.200000000000e+00
1.200000000000e+00
1.200000000000e+00
1.200000000000e+00
1.200000000000e+00
1.200000000000e+00
1.200000000000e+00
1.200000000000e+00
1.200000000000e+00
1.200000000000e+00
