#   Hz   S  RI   R   50
!
0.0 -0.8341430835217181 0.0
75000000.0 -0.8302148261971376 0.0863729779757417
150000000.0 -0.8184966951403776 0.1718034662386116
225000000.0 -0.799187190522528 0.25536886956970317
300000000.0 -0.7726123996765532 0.336186071684958
375000000.0 -0.7392188668798604 0.4134303789906178
450000000.0 -0.6995636052486373 0.4863534544607939
525000000.0 -0.6543012808686826 0.5542998211609576
600000000.0 -0.6041686567353693 0.6167214589011342
675000000.0 -0.5499664733135342 0.6731899672955889
750000000.0 -0.49253906441190987 0.7234057369433331
825000000.0 -0.4327521579177951 0.7672035716687532
900000000.0 -0.37146948154326714 0.8045542527329536
975000000.0 -0.30952896884505204 0.8355616422579636
1050000000.0 -0.2477195194930899 0.8604550944209469
1125000000.0 -0.18675938513337545 0.8795771781647607
1200000000.0 -0.12727730223231454 0.8933670031647166
1275000000.0 -0.06979745320013979 0.9023397595837289
1350000000.0 -0.014729192126001935 0.9070633997640759
1425000000.0 0.037637780518386184 0.9081336677978893
1500000000.0 0.08713245533811559 0.9061488810637289
1575000000.0 0.13369583424940154 0.9016859521878258
1650000000.0 0.17736903491373252 0.8952790889474909
1725000000.0 0.21827708315269995 0.8874024196556434
1800000000.0 0.2566096221943241 0.8784574787347305
1875000000.0 0.2925999759560028 0.8687660857906853
1950000000.0 0.3265040720036215 0.8585687084189495
2025000000.0 0.3585806549738062 0.8480279657292594
2100000000.0 0.38907401922162055 0.8372365537201287
2175000000.0 0.4182001918317083 0.8262285915129028
2250000000.0 0.44613714444867825 0.8149932197458913
2325000000.0 0.4730192468813083 0.8034892330930159
2400000000.0 0.49893583463232705 0.7916595872208521
2475000000.0 0.5239334747867305 0.7794447653925158
2550000000.0 0.5480212973728765 0.766794194821795
2625000000.0 0.5711786189745015 0.7536751405389424
2700000000.0 0.5933640198241729 0.7400787505763594
2775000000.0 0.6145250366240109 0.7260231612558233
2850000000.0 0.6346076894300086 0.7115537813244749
2925000000.0 0.6535651596033545 0.6967410497793599
3000000000.0 0.6713650650394041 0.6816760995880552
3075000000.0 0.6879949277440481 0.6664648561210134
3150000000.0 0.7034655876710468 0.6512211547460894
3225000000.0 0.7178124768407961 0.6360594776953411
3300000000.0 0.731094821006341 0.6210878880147758
3375000000.0 0.7433929747885432 0.6064016813111731
3450000000.0 0.7548042130156333 0.5920781886997174
3525000000.0 0.7654373895680728 0.5781730530624302
3600000000.0 0.7754069303822076 0.5647181733350799
3675000000.0 0.7848266465354218 0.5517213772745663
3750000000.0 0.7938038362850293 0.5391677519421131
3825000000.0 0.8024340942219363 0.5270224426993
3900000000.0 0.8107971667649196 0.5152346344058548
3975000000.0 0.8189540937672793 0.5037423592081834
4050000000.0 0.826945765180124 0.4924777375785573
4125000000.0 0.834792909096864 0.4813722538778346
4200000000.0 0.8424974220990943 0.4703616925702519
4275000000.0 0.8500448622147821 0.4593904118164765
4350000000.0 0.8574078545543709 0.44841470131673866
4425000000.0 0.8645501131028124 0.43740505388861195
4500000000.0 0.87143076027304 0.42634726814690405
4575000000.0 0.8780086277634869 0.4152423861253528
4650000000.0 0.8842462455538979 0.404105549015608
4725000000.0 0.8901132669735621 0.39296392186746615
4800000000.0 0.8955891324733016 0.3818538908319679
4875000000.0 0.9006648385025142 0.37081777229852614
4950000000.0 0.9053437461600243 0.3599002911697428
5025000000.0 0.9096414326160703 0.3491450856422563
5100000000.0 0.9135846525400521 0.33859147924929395
5175000000.0 0.9172095331779971 0.3282717294406791
5250000000.0 0.9205591721244648 0.31820891825752184
5325000000.0 0.9236808387553335 0.30841559798415924
5400000000.0 0.9266229971277455 0.29889324681381024
5475000000.0 0.929432369309843 0.28963253062221006
5550000000.0 0.9321512440547199 0.2806143110034321
5625000000.0 0.9348152080351351 0.2718112906012677
5700000000.0 0.9374514380327982 0.26319014769871
5775000000.0 0.94007764581748 0.2547139853864227
5850000000.0 0.9427017167213876 0.246344907758657
5925000000.0 0.9453220320187806 0.23804653670105727
6000000000.0 0.9479284178660826 0.22978629707061582
6075000000.0 0.9505036229498617 0.22153732360747708
6150000000.0 0.953025195605138 0.21327987721959155
6225000000.0 0.9554676106133839 0.20500219834636602
6300000000.0 0.9578044868681401 0.19670076776203252
6375000000.0 0.9600107394407897 0.18837998732965142
6450000000.0 0.962064522366533 0.18005133206139837
6525000000.0 0.9639488401682995 0.1717320580267393
6600000000.0 0.9656527347662569 0.16344357637020276
6675000000.0 0.9671719877228551 0.15520962074265054
6750000000.0 0.9685093133574295 0.1470543432077296
6825000000.0 0.9696740537448197 0.13900047214128858
6900000000.0 0.9706814197303212 0.13106765533187958
6975000000.0 0.9715513508257613 0.12327109345264847
7050000000.0 0.9723070895120184 0.11562054478047647
7125000000.0 0.972973580800744 0.10811975330579206
7200000000.0 0.9735758151397428 0.10076632126447484
7275000000.0 0.9741372316680796 0.09355201580165166
7350000000.0 0.9746782897890345 0.08646347008419662
7425000000.0 0.9752153009240951 0.07948321367161419
7500000000.0 0.9757595905074163 0.07259094696832546
7575000000.0 0.9763170345142784 0.065764961307315
7650000000.0 0.9768879870547027 0.058983600324255155
7725000000.0 0.9774675878410087 0.0522266598798524
7800000000.0 0.9780464126023447 0.04547663243487974
7875000000.0 0.9786114074809897 0.03871971654686696
7950000000.0 0.9791470314619711 0.03194653171866237
8025000000.0 0.9796365198839276 0.025152501598997002
8100000000.0 0.9800631775095452 0.018337892793448617
8175000000.0 0.9804116114847552 0.01150752057036608
8250000000.0 0.980668822343003 0.004670154937858633
8325000000.0 0.9808250842018604 -0.0021623204627646097
8400000000.0 0.9808745623530071 -0.0089759295554564
8475000000.0 0.9808156362613918 -0.01575572847142327
8550000000.0 0.9806509171529508 -0.022486952927278356
8625000000.0 0.9803869704479432 -0.029156109116398425
8700000000.0 0.9800337729154437 -0.03575193561536823
8775000000.0 0.979603951348734 -0.0422661751503054
8850000000.0 0.9791118627636342 -0.04869411013183622
8925000000.0 0.9785725848404321 -0.05503483353917698
9000000000.0 0.9780008891135191 -0.061291245755146884
9075000000.0 0.977410268147227 -0.06746978700427306
9150000000.0 0.9768120818508352 -0.07357993283030015
9225000000.0 0.9762148777348338 -0.07963349538688472
9300000000.0 0.975623926131992 -0.08564378522222608
9375000000.0 0.9750409952574522 -0.09162469599616123
9450000000.0 0.9744643736566121 -0.09758977777068682
9525000000.0 0.9738891303290389 -0.10355136309070274
9600000000.0 0.9733075868154899 -0.10951980427946924
9675000000.0 0.9727099618548223 -0.11550287076993004
9750000000.0 0.9720851387149634 -0.12150534268085678
9825000000.0 0.9714214985774517 -0.1275288222036068
9900000000.0 0.9707077607226844 -0.13357176876637136
9975000000.0 0.9699337717454147 -0.13962974848095042
10050000000.0 0.9690911913724758 -0.1456958740877213
10125000000.0 0.9681740311575827 -0.15176139941055708
10200000000.0 0.9671790136923003 -0.15781642295329137
10275000000.0 0.9661057331532252 -0.16385064923888093
10350000000.0 0.9649566120720197 -0.16985415410240384
10425000000.0 0.9637366632096592 -0.17581810144648816
10500000000.0 0.9624530784146209 -0.1817353637610655
10575000000.0 0.9611146775107363 -0.18760100658623002
10650000000.0 0.9597312588965323 -0.19341260745431263
10725000000.0 0.9583128991269347 -0.19917039193176234
10800000000.0 0.9568692509846514 -0.20487718233948718
10875000000.0 0.9554088883570178 -0.21053816766499245
10950000000.0 0.953938741772655 -0.21616051521118768
11025000000.0 0.9524636611001501 -0.221752854852761
11100000000.0 0.9509861322396327 -0.22732467472191015
11175000000.0 0.9495061633687963 -0.23288567222998038
11250000000.0 0.9480213442543334 -0.23844510626999316
11325000000.0 0.9465270701596386 -0.24401119518385025
11400000000.0 0.9450169107942676 -0.24959060078884873
11475000000.0 0.9434830952987099 -0.2551880318189898
11550000000.0 0.9419170770424723 -0.26080599109793035
11625000000.0 0.9403101374641624 -0.2664446802999357
11700000000.0 0.9386539865325914 -0.2721020650260026
11775000000.0 0.9369413186871441 -0.27777409189780117
11850000000.0 0.9351662871551963 -0.283455039193478
11925000000.0 0.9333248659970517 -0.2891379738777488
12000000000.0 0.9314150775988718 -0.29481528125542483
12075000000.0 0.9294370730134628 -0.3004792292937144
12150000000.0 0.9273930628602862 -0.3061225281354987
12225000000.0 0.925287106737167 -0.31173884650537653
12300000000.0 0.9231247785839957 -0.31732325045697485
12375000000.0 0.92091273355278 -0.322872535922432
12450000000.0 0.9186582081590591 -0.32838543435723483
12525000000.0 0.9163684894308838 -0.33386267986572415
12600000000.0 0.9140503902049212 -0.3393069359077295
12675000000.0 0.9117097665886116 -0.34472258935431055
12750000000.0 0.9093511100317615 -0.3501154286213263
12825000000.0 0.9069772407155073 -0.35549223026134963
12900000000.0 0.9045891215015424 -0.36086028423357214
12975000000.0 0.902185803033602 -0.36622689172713857
13050000000.0 0.8997645013638783 -0.37159887067286046
13125000000.0 0.897320800335411 -0.376982102899211
13200000000.0 0.8948489625156633 -0.38238115339887635
13275000000.0 0.8923423253126888 -0.3877989866576899
13350000000.0 0.8897937534791356 -0.39323679787773536
13425000000.0 0.887196115856411 -0.3986939687207009
13500000000.0 0.8845427531176017 -0.40416814848788263
13575000000.0 0.8818279044615455 -0.4096554530415198
13650000000.0 0.8790470645653974 -0.4151507658395659
13725000000.0 0.8761972473510092 -0.4206481187250323
13800000000.0 0.8732771398732226 -0.4261411250128824
13875000000.0 0.8702871374155237 -0.43162343426664895
13950000000.0 0.867229259141215 -0.43708917713356304
14025000000.0 0.8641069518337329 -0.4425333697478138
14100000000.0 0.8609247968182085 -0.44795225040978637
14175000000.0 0.8576881415864015 -0.4533435262627564
14250000000.0 0.854402682527334 -0.45870651415715497
14325000000.0 0.8510740281827741 -0.4640421673612841
14400000000.0 0.8477072734143819 -0.46935298772761475
14475000000.0 0.8443066137428844 -0.4746428308077444
14550000000.0 0.8408750259973179 -0.4799166186874121
14625000000.0 0.8374140365291262 -0.4851799814919074
14700000000.0 0.8339235919563436 -0.4904388531779083
14775000000.0 0.8304020401562933 -0.49569905007505694
14850000000.0 0.8268462215321318 -0.5009658614936976
14925000000.0 0.8232516629753583 -0.5062436805391121
15000000000.0 0.8196128599561091 -0.5115357001736015
15075000000.0 0.8159236262690327 -0.5168436947840164
15150000000.0 0.8121774865358983 -0.522167901394575
15225000000.0 0.8083680839005145 -0.5275070076500175
15300000000.0 0.8044895746055966 -0.5328582462734107
15375000000.0 0.8005369823407819 -0.5382175883871244
15450000000.0 0.7965064882899483 -0.5435800213702233
15525000000.0 0.7923956374564538 -0.5489398912588053
15600000000.0 0.7882034477742538 -0.5542912854492524
15675000000.0 0.783930415307354 -0.55962842891051
15750000000.0 0.7795784160327601 -0.5649460664072452
15825000000.0 0.7751505118036393 -0.5702398044136764
15900000000.0 0.7706506746199194 -0.5755063893648458
15975000000.0 0.7660834488537611 -0.580743903435911
16050000000.0 0.7614535752175062 -0.585951864843353
16125000000.0 0.7567656027461356 -0.5911312263233028
16200000000.0 0.7520235157321836 -0.5962842725023493
16275000000.0 0.7472304013600782 -0.6014144238494763
16350000000.0 0.7423881808282643 -0.6065259613048978
16425000000.0 0.7374974222323717 -0.6116236910832542
16500000000.0 0.7325572477296511 -0.6167125731760674
16575000000.0 0.7275653409176075 -0.6217973394596767
16650000000.0 0.7225180533981719 -0.6268821278936912
16725000000.0 0.7174106026464527 -0.6319701580415461
16800000000.0 0.7122373470329548 -0.6370634701566039
16875000000.0 0.7069921185889008 -0.6421627455717783
16950000000.0 0.7016685902114036 -0.6472672204280293
17025000000.0 0.6962606517368131 -0.6523746982770587
17100000000.0 0.690762768811296 -0.6574816602465953
17175000000.0 0.6851702997804978 -0.6625834647328573
17250000000.0 0.6794797488063681 -0.6676746224416569
17325000000.0 0.6736889378869911 -0.6727491274520564
17400000000.0 0.6677970860945059 -0.677800821169771
17475000000.0 0.6618047907701292 -0.6828237638253396
17550000000.0 0.6557139121858936 -0.6878125877005274
17625000000.0 0.6495273698396471 -0.6927628075649008
17700000000.0 0.643248864640422 -0.6976710667835615
17775000000.0 0.63688254635029 -0.7025353020141983
17850000000.0 0.6304326494261956 -0.7073548150436952
17925000000.0 0.6239031225902507 -0.7121302467376661
18000000000.0 0.6172972778962227 -0.716863454850526
18075000000.0 0.6106174837196241 -0.7215573041031155
18150000000.0 0.6038649230675452 -0.7262153830190999
18225000000.0 0.5970394340888352 -0.7308416670980786
18300000000.0 0.5901394439758612 -0.7354401516380737
18375000000.0 0.5831620009793984 -0.7400144796419375
18450000000.0 0.5761029024565509 -0.7445675906024134
18525000000.0 0.5689569102099774 -0.7491014145335273
18600000000.0 0.5617180383167416 -0.7536166325004519
18675000000.0 0.5543798936060556 -0.7581125203122209
18750000000.0 0.5469360452744957 -0.7625868862991303
18825000000.0 0.5393803980769858 -0.7670361075956136
18900000000.0 0.5317075432423075 -0.7714552625367933
18975000000.0 0.5239130627527491 -0.7758383501197015
19050000000.0 0.5159937657977165 -0.780178581433777
19125000000.0 0.5079478408460869 -0.7844687229430364
19200000000.0 0.49977491256874396 -0.7887014678488286
19275000000.0 0.49147599939000813 -0.7928698097301693
19350000000.0 0.48305337431125966 -0.7969673923931396
19425000000.0 0.47451033836507056 -0.8009888113882979
19500000000.0 0.46585092216396845 -0.8049298458814572
19575000000.0 0.4570795360822102 -0.8087876042786644
19650000000.0 0.4482005932958811 -0.8125605728977239
19725000000.0 0.439218131941489 -0.8162485636494945
19800000000.0 0.430135462882238 -0.8198525636879368
19875000000.0 0.4209548679636387 -0.8233744968265274
19950000000.0 0.4116773702928838 -0.8268169127240995
20025000000.0 0.40230259320869316 -0.830182624978547
20100000000.0 0.3928287185478083 -0.8334743229663669
20175000000.0 0.3832525479753072 -0.8366941842615362
20250000000.0 0.37356966400012176 -0.8398435146084009
20325000000.0 0.36377468034064625 -0.8429224406889801
20400000000.0 0.3538615650234019 -0.8459296774254452
20475000000.0 0.3438240144301676 -0.8488623865271391
20550000000.0 0.33365585281972093 -0.8517161367691684
20625000000.0 0.32335142990192245 -0.8544849695002538
20700000000.0 0.31290598897789373 -0.857161565598812
20775000000.0 0.30231597999573656 -0.859737503027115
20850000000.0 0.2915792954924762 -0.8622035877600377
20925000000.0 0.2806954125644216 -0.8645502356288571
21000000000.0 0.26966543038814295 -0.8667678788891224
21075000000.0 0.2584919999772881 -0.8688473693632487
21150000000.0 0.24717915032387028 -0.8707803499749985
21225000000.0 0.23573202232846743 -0.8725595684074987
21300000000.0 0.22415652847119893 -0.8741791103705535
21375000000.0 0.21245896155487456 -0.8756345353216048
21450000000.0 0.2006455796764177 -0.8769229040990084
21525000000.0 0.18872219656639325 -0.878042695355587
21600000000.0 0.1766938064157656 -0.87899361541983
21675000000.0 0.164564270257374 -0.8797763137268553
21750000000.0 0.15233608700227416 -0.8803920227233235
21825000000.0 0.14001026660006313 -0.8808421466765677
21900000000.0 0.1275863158705407 -0.8811278277051198
21975000000.0 0.11506233981075478 -0.8812495193028188
22050000000.0 0.10243525314964269 -0.881206597491971
22125000000.0 0.08970108916113138 -0.880997037498796
22200000000.0 0.07685538580085512 -0.8806171796307952
22275000000.0 0.06389362359430657 -0.8800616021240873
22350000000.0 0.05081168578042509 -0.879323111513077
22425000000.0 0.03760630929343624 -0.8783928530420225
22500000000.0 0.0242754954009147 -0.8772605353348709
22575000000.0 0.010818851214110711 -0.8759147555355813
22650000000.0 -0.002762162292376098 -0.8743434039797155
22725000000.0 -0.016464093949673523 -0.8725341216607868
22800000000.0 -0.030281488441361925 -0.8704747797269609
22875000000.0 -0.04420699705945943 -0.8681539482867293
22950000000.0 -0.058231606856047204 -0.8655613220820056
23025000000.0 -0.07234497353373363 -0.8626880731211543
23100000000.0 -0.08653583595692288 -0.8595271050171394
23175000000.0 -0.10079248411839119 -0.8560731902640334
23250000000.0 -0.11510324820791502 -0.8523229795930825
23325000000.0 -0.12945697442840665 -0.8482748813539686
23400000000.0 -0.143843453572386 -0.8439288179704749
23475000000.0 -0.15825377112687647 -0.8392858752902806
23550000000.0 -0.17268055266981353 -0.8343478684640238
23625000000.0 -0.1871180852450148 -0.829116854281724
23700000000.0 -0.20156230380254647 -0.8235946241950983
23775000000.0 -0.2160106411000368 -0.8177822142257177
23850000000.0 -0.23046174903802272 -0.8116794674249139
23925000000.0 -0.2449151085802646 -0.8052846815109466
24000000000.0 -0.2593705535390969 -0.798594368937838
24075000000.0 -0.2738277400038147 -0.7916031492904916
24150000000.0 -0.28828559758178407 -0.7843037850361285
24225000000.0 -0.3027418005735852 -0.7766873618862713
24300000000.0 -0.31719229654561165 -0.7687436049982083
24375000000.0 -0.3316309265032963 -0.7604613126563796
24450000000.0 -0.3460491651888001 -0.7518288805866477
24525000000.0 -0.3604360022780321 -0.742834883269063
24600000000.0 -0.3747779759269759 -0.7334686740208911
24675000000.0 -0.3890593598242839 -0.7237209635762631
24750000000.0 -0.4032624943312333 -0.7135843375820957
24825000000.0 -0.41736824215034063 -0.7030536768718666
24900000000.0 -0.4313565399665589 -0.692126450393053
24975000000.0 -0.4452070102969706 -0.680802858894565
25050000000.0 -0.4588995929070002 -0.6690858174091292
25125000000.0 -0.47241515299785164 -0.6569807755423931
25200000000.0 -0.48573602415609135 -0.6444953858645558
25275000000.0 -0.49884644779620024 -0.6316390415083708
25350000000.0 -0.5117328773258 -0.6184223136402638
25425000000.0 -0.5243841241258829 -0.6048563270881129
25500000000.0 -0.5367913330915259 -0.5909521175029211
25575000000.0 -0.5489477872101949 -0.5767200155914023
25650000000.0 -0.5608485526615714 -0.5621691029739949
25725000000.0 -0.5724899873700056 -0.5473067801073991
25800000000.0 -0.5838691460188412 -0.532138479693635
25875000000.0 -0.5949831225220044 -0.5166675495152424
25950000000.0 -0.6058283762539142 -0.5008953173011629
26025000000.0 -0.6164000905537328 -0.4848213377871497
26100000000.0 -0.6266916109377396 -0.4684438094186306
26175000000.0 -0.6366940060871547 -0.4517601360127152
26250000000.0 -0.6463957872598666 -0.4347675979822178
26325000000.0 -0.6557828117400336 -0.41746408918090644
26400000000.0 -0.664838383907356 -0.39984886967978034
26475000000.0 -0.6735435542395114 -0.3819232822832801
26550000000.0 -0.6818776029195518 -0.3636913815939501
26625000000.0 -0.6898186816154499 -0.3451604289625666
26700000000.0 -0.697344575335393 -0.32634121451280024
26775000000.0 -0.7044335368763708 -0.30724817817028904
26850000000.0 -0.7110651399869429 -0.28789931461059115
26925000000.0 -0.7172210944917741 -0.26831586144669556
27000000000.0 -0.7228859675836887 -0.24852178485497006
27075000000.0 -0.7280477603329963 -0.2285430911716541
27150000000.0 -0.7326982969748135 -0.20840700576701968
27225000000.0 -0.7368333962296938 -0.18814107078383366
27300000000.0 -0.7404528080665426 -0.16777222032247974
27375000000.0 -0.7435599150103368 -0.14732589478861144
27450000000.0 -0.7461612132804718 -0.12682525507056341
27525000000.0 -0.7482656046080381 -0.10629055194978441
27600000000.0 -0.7498835434342149 -0.08573869692825774
27675000000.0 -0.7510260953451156 -0.0651830680195598
27750000000.0 -0.751703970227032 -0.04463356877585024
27825000000.0 -0.7519265971282029 -0.024096941881683227
27900000000.0 -0.7517013068514686 -0.0035773211364276765
27975000000.0 -0.7510326828242094 0.01692301127406388
28050000000.0 -0.7499221310369132 0.03740271050504469
28125000000.0 -0.7483677063301912 0.05786035846581355
28200000000.0 -0.7463642158157882 0.07829342629718931
28275000000.0 -0.7439036017325975 0.09869728357517032
