# Hz S RI R 50
!
0.0  -0.9979536714551829 0.0  -0.997955011354442 0.0  -0.9979534314153032 0.0  -0.9979547713142402 0.0
75000000.0  -0.9979532320304529 7.135974886719072e-05  -0.9979545719273618 7.134091764211077e-05  -0.9979529918649207 7.136177254396528e-05  -0.997954331761507 7.13429413261544e-05
150000000.0  -0.99795191572463 0.00014266590436284735  -0.9979532556134659 0.00014262831243620736  -0.9979516751833302 0.00014266993838317615  -0.9979530150718432 0.00014263234647105726
225000000.0  -0.9979497284256681 0.00021386522159235976  -0.9979510682976493 0.0002138090095906489  -0.9979494872620442 0.00021387123943753853  -0.9979508271337021 0.00021381502745755057
300000000.0  -0.9979466798899034 0.0002849051487263402  -0.9979480197311837 0.0002848305265412813  -0.997946437863292 0.0002849131109862341  -0.997947777704248 0.0002848384888300477
375000000.0  -0.9979427836575229 0.0003557341638799672  -0.9979441234472316 0.00035564140942273456  -0.9979425405354272 0.0003557440186889213  -0.9979438803248105 0.00035565126426767086
450000000.0  -0.9979380569358811 0.0004263021005980671  -0.9979393966442313 0.00042619155815746586  -0.9979378124961649 0.0004263137842071081  -0.9979391522041879 0.0004262032418093991
525000000.0  -0.9979325204523007 0.0004965604584585136  -0.9979338600387778 0.0004964325366774784  -0.9979322744852787 0.0004965738959371783  -0.9979336140714273 0.0004964459742058348
600000000.0  -0.9979261982783743 0.0005664626955619586  -0.9979275376900264 0.0005663178650547236  -0.9979259505887836 0.0005664778016185681  -0.9979272900001056 0.0005663329711677351
675000000.0  -0.9979191176281651 0.0006359644999831197  -0.9979204567980081 0.0006358032906113267  -0.997918868036993 0.0006359811798969585  -0.9979202072065039 0.0006358199705880593
750000000.0  -0.9979113086330065 0.0007050240376103239  -0.9979126474785552 0.0007048470354480287  -0.9979110569791635 0.0007050421882591921  -0.9979123958243779 0.0007048651861660831
825000000.0  -0.9979028040958562 0.0007736021741837447  -0.9979041425177948 0.0007734100181946474  -0.9979025502376799 0.0007736216851584252  -0.9979038886592817 0.0007734295292446201
900000000.0  -0.9978936392283664 0.0008416626697571412  -0.9978949771093694 0.0008414560482170043  -0.9978933830449419 0.0008416834245464845  -0.9978947209256056 0.0008414768030875118
975000000.0  -0.9978838513739677 0.0009091723442318191  -0.9978851885776784 0.000908951990927642  -0.9978835927662549 0.0009091942214643155  -0.9978849299696239 0.0009089738682468402
1050000000.0  -0.9978734797203396 0.0009761012130502193  -0.9978748160905104 0.0009758679032849591  -0.9978732186121063 0.0009761240877794985  -0.9978745549819329 0.0009758907781062989
1125000000.0  -0.9978625650046667 0.0010424225925634895  -0.9978639003644708 0.0010421771390042504  -0.9978623013432124 0.0010424463375809765  -0.9978636367026696 0.0010422008841187188
1200000000.0  -0.9978511492150335 0.0011081131750120736  -0.997852483366545 0.0011078564234127388  -0.9978508829717094 0.0011081376621721432  -0.9978522171228712 0.0011078809106744114
1275000000.0  -0.9978392752912218 0.0011731530734577335  -0.9978406080150688 0.0011728858982905097  -0.9978390064617448 0.0011731781750016909  -0.9978403391852397 0.0011729109999404092
1350000000.0  -0.9978269868280399 0.0012375258373788685  -0.9978283178832272 0.0012372491374081347  -0.9978267154326034 0.0012375514272435673  -0.9978280464874358 0.001237274727382748
1425000000.0  -0.997814327784124 0.0013012184399886582  -0.9978156569080264 0.00130093313381842  -0.9978140538673045 0.0013012443950851861  -0.9978153829908496 0.0013009590890283192
1500000000.0  -0.9978013421989329 0.001364221238637592  -0.9978026691074501 0.0013639282602631788  -0.9978010658294085 0.001364247440089792  -0.997802392737566 0.0013639544618319174
1575000000.0  -0.9977880739204175 0.0014265279099297536  -0.9977893983082914 0.001426228204328424  -0.997787795190495 0.0014265542442559037  -0.9977891195780071 0.0014262545387737989
1650000000.0  -0.9977745663455664 0.0014881353614082963  -0.9977758878868467 0.001487829880187232  -0.9977742853705384 0.0014881617216425328  -0.9977756069114546 0.0014878562405429797
1725000000.0  -0.9977608621757479 0.0015490436218417024  -0.9977621805244076 0.0015487333189810487  -0.9977605790930755 0.001549069908576694  -0.9977618974413697 0.001548759605839382
1800000000.0  -0.9977470031884691 0.0016092557122841136  -0.9977483179791519 0.0016089415399883594  -0.9977467181568229 0.001609281834635074  -0.9977480329471384 0.0016089676624640803
1875000000.0  -0.9977330300268825 0.0016687775001742488  -0.9977343408757801 0.0016684604048624054  -0.997732743225033 0.0016688033766497788  -0.9977340540735622 0.0016684862814637016
1950000000.0  -0.997718982008063 0.0017276175387941183  -0.9977202885139098 0.0017272984572426536  -0.99771869363365 0.0017276430980728706  -0.9977200001391274 0.001727324016647764
2025000000.0  -0.9977048969508013 0.0017857868944236054  -0.9977061986959767 0.0017854667500836355  -0.997704607218991 0.0017858120760280735  -0.9977059089637966 0.0017854919318145898
2100000000.0  -0.9976908110233823 0.0018432989635092478  -0.9976921075751074 0.0018429786630092162  -0.9976905201654259 0.001843323718376177  -0.9976918167167811 0.0018430034180024052
2175000000.0  -0.9976767586115508 0.001900169282116175  -0.9976780495231726 0.0018998497119663382  -0.997676466873263 0.001900193573058778  -0.9976777577845154 0.0018998740030345212
2250000000.0  -0.9976627722066364 0.001956415329855458  -0.9976640570189883 0.0019560973533622197  -0.9976624798468053 0.0019564391319177423  -0.9976637646587887 0.0019561211555490644
2325000000.0  -0.9976488823135881 0.0020120563303793124  -0.9976501605564124 0.0020117407847796143  -0.9976485896023343 0.002012079631080696  -0.9976498678447911 0.002011764085604158
2400000000.0  -0.9976351173784666 0.002067113050416675  -0.997636388571894 0.0020668007442380333  -0.9976348245955624 0.0020671358498883384  -0.9976360957886242 0.002066823543831193
2475000000.0  -0.9976215037347796 0.002121607599189177  -0.9976227673908471 0.002121299309838821  -0.9976212111679499 0.002121629910205443  -0.997622474823654 0.002121321620974536
2550000000.0  -0.9976080655678871 0.002175563229900227  -0.9976093211920947 0.0021752597014879425  -0.997607773511094 0.0021755850778042607  -0.9976090291349409 0.0021752815495091242
2625000000.0  -0.9975948248965868 0.002229004144837013  -0.997596071989475 0.0022287060862307014  -0.9975945336483237 0.0022290255673673596  -0.9975957807408544 0.002228727508875645
2700000000.0  -0.9975818015708798 0.0022819553054675237  -0.9975830396296215 0.0022816633885816354  -0.9975815114324772 0.0022819763524878443  -0.9975827494908651 0.0022816844357137884
2775000000.0  -0.9975690132848444 0.002334442248754378  -0.9975702418048441 0.00233415710706922  -0.9975687245588034 0.002334462981891229  -0.9975699530784536 0.0023341778403149463
2850000000.0  -0.9975564756034782 0.002386490910748614  -0.9975576940799638 0.002386213138055708  -0.997556188591845 0.002386511402943998  -0.9975574070679861 0.0023862336303568416
2925000000.0  -0.99754420200233 0.0024381274583714337  -0.9975454099319399 0.0024378576077422206  -0.9975439170051152 0.0024381477933533083  -0.9975451249343857 0.0024378779428266325
3000000000.0  -0.9975322039187304 0.0024893781301402367  -0.9975334008010763 0.0024891167131111135  -0.9975319212323857 0.002489398401819701  -0.997533118114398 0.0024891369848898275
3075000000.0  -0.9975204908133998 0.0025402690864526484  -0.997521676152607 0.0025400165724199955  -0.9975202107293597 0.0025402893982527405  -0.9975213960682398 0.0025400368843159385
3150000000.0  -0.9975090702412416 0.002590826269905114  -0.9975102435474584 0.002590583085723159  -0.9975087930445377 0.0025908467340276806  -0.9975099663504339 0.0025906035499381917
3225000000.0  -0.9974979479301357 0.002641075275993681  -0.997499108721002 0.0026408418057669147  -0.997497673898089 0.0026410960126335187  -0.9974988346886414 0.002640862542495851
3300000000.0  -0.9974871278665737 0.002691041234430015  -0.9974882756686466 0.002690817819493198  -0.9974868572675711 0.0026910623709385404  -0.9974880050693377 0.0026908389560874766
3375000000.0  -0.9974766123870226 0.0027407487011916493  -0.9974777467371561 0.0027405356402643412  -0.9974763454793801 0.0027407703712034864  -0.9974774798292151 0.002740557310358646
3450000000.0  -0.9974664022739421 0.0027902215613297868  -0.9974675227206111 0.002790019110842507  -0.9974661393048617 0.0027902439038525735  -0.9974672597512403 0.002790041453444614
3525000000.0  -0.9974564968554349 0.0028394829424700408  -0.9974576029600029 0.0028392913170452783  -0.9974562380600545 0.0028395061009499904  -0.9974573441643402 0.0028393144756014457
3600000000.0  -0.9974468941075577 0.002888555138854268  -0.9974479854454816 0.0028883745119387713  -0.997446639708101 0.002888579260220471  -0.9974477310457512 0.0028883986333781263
3675000000.0  -0.9974375907583937 0.0029374595457116823  -0.9974386669203682 0.0029372900503449005  -0.9974373409634125 0.002937484779409175  -0.9974384171251222 0.0029373152841128598
3750000000.0  -0.9974285823930246 0.002986216603676943  -0.997429642986056 0.0029860583333901104  -0.9974283373967456 0.002986243100691302  -0.9974293979895208 0.00298608483047217
3825000000.0  -0.9974198635586251 0.0030348457529236405  -0.9974209082070344 0.003034698762756816  -0.9974196235403935 0.0030348736648059343  -0.9974206681885557 0.0030347266747044726
3900000000.0  -0.997411427868951 0.0030833653966357987  -0.997412456215309 0.0030832297042634356  -0.9974111929927684 0.0030833948745348574  -0.9974122213388885 0.003083259182225564
3975000000.0  -0.9974032681075538 0.0031317928734024506  -0.9974042798135386 0.0031316684603588905  -0.9974030385217201 0.003131824067106838  -0.9974040502274762 0.0031316996541241996
4050000000.0  -0.9973953763291309 0.003180144438088124  -0.9973963710763115 0.0031800312510796027  -0.9973951521659745 0.003180177495087699  -0.9973961469129355 0.0031800643081382517
4125000000.0  -0.9973877439584569 0.0032284352507076937  -0.9973887214489995 0.0032283332030090765  -0.9973875253341605 0.003228470315274154  -0.9973885028244927 0.003228368267632949
4200000000.0  -0.9973803618864231 0.0032766793728158617  -0.9973813218437212 0.0032765883457315267  -0.9973801489009395 0.0032767165851157885  -0.9973811088580361 0.0032766255580873927
4275000000.0  -0.9973732205627552 0.0033248897709085784  -0.9973741627319804 0.0033248096152997627  -0.9973730132998091 0.0033249292661434054  -0.9973739554688419 0.0033248491105891806
4350000000.0  -0.9973663100850386 0.003373078326321164  -0.9973672342336147 0.0033730088641817464  -0.9973661086122112 0.003373120233907146  -0.9973670327606036 0.0033730507718212287
4425000000.0  -0.9973596202837323 0.0034212558511070453  -0.9973605262017289 0.0034211968771854294  -0.9973594246526272 0.0034213002938937504  -0.9973603305704489 0.0034212413200246008
4500000000.0  -0.9973531408029032 0.0034694321093804398  -0.9973540283033551 0.0034693833928353423  -0.9973529510493856 0.0034694792029129665  -0.9973538385496712 0.0034694304864195586
4575000000.0  -0.9973468611764613 0.0035176158436049814  -0.997347730095607 0.0035175771296884037  -0.997346677320969 0.0035176656954334674  -0.9973475462399565 0.0035176269815679908
4650000000.0  -0.9973407708997175 0.0035658148053201474  -0.9973416210971636 0.0035657858170806203  -0.997340592947638 0.003565867514358819  -0.997341443144934 0.0035658385261699878
4725000000.0  -0.9973348594961317 0.0036140357898052956  -0.9973356908549423 0.003614016229801163  -0.9973346874382414 0.0036140914457444746  -0.99733551879691 0.0036140718857906027
4800000000.0  -0.9973291165791583 0.0036622846741899205  -0.9973299290058704 0.0036622742262094237  -0.9973289503921173 0.00366234335695983  -0.9973297628186947 0.0036623329090293643
4875000000.0  -0.9973235319091344 0.0037105664585340105  -0.9973243253337002 0.0037105647893112288  -0.9973233715560339 0.0037106282378272914  -0.9973241649804725 0.0037106265686544055
4950000000.0  -0.9973180954451857 0.0037588853094162465  -0.9973188698208447 0.0037588920703388595  -0.9973179408761436 0.0037589502442667774  -0.9973187152516823 0.003758957005239203
5025000000.0  -0.9973127973921656 0.0038072446055859113  -0.9973135526952526 0.003807259434389077  -0.9973126485449586 0.003807312744004768  -0.9973134038479321 0.003807327572857741
5100000000.0  -0.9973076282426693 0.0038556469852496834  -0.9973083644723494 0.0038556695076876236  -0.9973074850434086 0.0038557183639217206  -0.9973082212729817 0.0038557408864095333
5175000000.0  -0.9973025788141858 0.0039040943945864745  -0.9973032959921326 0.003904124226079029  -0.9973024411780188 0.0039041690386250423  -0.9973031583558647 0.0039041988701675567
5250000000.0  -0.9972976402814901 0.0039525881371021  -0.9972983384515008 0.00395262488434911  -0.9972975081133293 0.003952666059863706  -0.9972982062832447 0.003952702807160775
5325000000.0  -0.997292804204386 0.004001128923456818  -0.9972934834319368 0.004001172186016557  -0.9972926773996634 0.004001210126414695  -0.9972933566271245 0.004001253389024599
5400000000.0  -0.9972880625509415 0.004049716921420832  -0.9972887229226903 0.0040497662932482545  -0.9972879409963754 0.00404980139409652  -0.9972886013680399 0.004049850765974214
5475000000.0  -0.9972834077163699 0.004098351805634802  -0.9972840493396086 0.004098406876574748  -0.9972832912907442 0.00409843952558766  -0.9972839329139033 0.004098494596577937
5550000000.0  -0.9972788325377309 0.004147032806874931  -0.9972794555397857 0.004147093164106974  -0.9972787211126838 0.004147123739747941  -0.9972793441146639 0.004147184097030347
5625000000.0  -0.9972743303046375 0.004195758760544852  -0.9972749348322281 0.004195823989976757  -0.997274223745451 0.004195852860165231  -0.9972748282729709 0.004195918089647501
5700000000.0  -0.9972698947661681 0.004244528154140062  -0.9972704809847212 0.004244597841746292  -0.9972697929325582 0.004244625362673322  -0.9972703791510448 0.004244695050329869
5775000000.0  -0.9972655201341918 0.004293339173452707  -0.9972660882271209 0.004293412906555453  -0.9972654228810908 0.004293439421608515  -0.9972659909739573 0.004293513154761447
5850000000.0  -0.9972612010833263 0.004342189747307385  -0.9972617512512731 0.0043422671157986184  -0.9972611082616591 0.004342292954593761  -0.9972616584295472 0.004342370323135081
5925000000.0  -0.9972569327477516 0.004391077590641766  -0.9972574652078007 0.004391158188142941  -0.9972568442051959 0.004391183665667891  -0.9972573766651894 0.004391264263218773
6000000000.0  -0.9972527107151087 0.004440000245767919  -0.9972532256999723 0.004440083670726289  -0.9972526262968402 0.004440109086590598  -0.9972531412816517 0.004440192511598351
6075000000.0  -0.9972485310177163 0.0044889551216692235  -0.9972490287748965 0.004489040978390317  -0.9972484505671351 0.004489066616182293  -0.997248948324266 0.004489152472952393
6150000000.0  -0.9972443901213393 0.004537939531215134  -0.997244870912271 0.0045380274308304824  -0.9972443134807724 0.004538053557576676  -0.9972447942716575 0.004538141457240455
6225000000.0  -0.9972402849117438 0.0045869507261888185  -0.9972407490109223 0.004587040287554234  -0.9972402119231232 0.004587067153288001  -0.9972406760222574 0.00458715671470123
6300000000.0  -0.9972362126792704 0.004635985930048524  -0.9972366603733656 0.004636076780580047  -0.997236143184784 0.0046361046180029165  -0.9972365908788373 0.004636195468581603
6375000000.0  -0.9972321711016632 0.004685042368360681  -0.9972326026886258 0.004685134144800634  -0.9972321049443731 0.00468516316904704  -0.9972325365312961 0.0046852549455333485
6450000000.0  -0.9972281582253687 0.004734117296859233  -0.9972285740135314 0.004734209645977874  -0.9972280952498016 0.004734240054469814  -0.9972285110379269 0.004734332403634033
6525000000.0  -0.9972241724455421 0.004783208027107014  -0.9972245727527188 0.004783300606337025  -0.9972241124982428 0.004783332578732549  -0.9972245128053845 0.004783425158007162
6600000000.0  -0.9972202124849673 0.004832311949747763  -0.9972205976375548 0.004832404427754753  -0.9972201554150188 0.004832438125979679  -0.9972205405675727 0.004832530604030235
6675000000.0  -0.9972162773721054 0.004881426555354391  -0.9972166477041876 0.0048815186125409065  -0.9972162230316108 0.004881554180908572  -0.9972165933636613 0.004881646238137594
6750000000.0  -0.9972123664184696 0.004930549452895017  -0.9972127222709332 0.004930640781845501  -0.9972123146629989 0.004930678347246585  -0.9972126705154325 0.004930769676238465
6825000000.0  -0.9972084791955274 0.004979678385849113  -0.9972088209151858 0.004979768691708172  -0.9972084298845241 0.004979808363884166  -0.997208771604154 0.0049798986697834275
6900000000.0  -0.9972046155113092 0.005028811246021092  -0.9972049434500418 0.005028900246816067  -0.9972045685084594 0.005028942118693621  -0.9972048964471653 0.005029031119527644
6975000000.0  -0.9972007753869012 0.005077946085108267  -0.9972010899008095 0.005078033512011757  -0.9972007305604619 0.005078077660105594  -0.9972010450743447 0.005078165087046796
7050000000.0  -0.9971969590329888 0.005127081124092849  -0.9971972604815689 0.005127166721628466  -0.9971969162560794 0.005127213206503133  -0.9971972177046353 0.005127298804075146
7125000000.0  -0.9971931668266035 0.005176214760533108  -0.9971934555719443 0.0051762982867290435  -0.9971931259774556 0.005176347153513  -0.9971934147227736 0.005176430679743974
7200000000.0  -0.9971893992882223 0.00522534557384303  -0.9971896756942235 0.0052254268003314374  -0.9971893602503921 0.005225478079284248  -0.9971896366563717 0.005225559305806321
7275000000.0  -0.9971856570593481 0.005274472328650955  -0.9971859214909657 0.005274551040719188  -0.9971856197218898 0.005274604747840012  -0.9971858841534871 0.005274683459940538
7350000000.0  -0.9971819408806969 0.005323593976338164  -0.997182193703217 0.005323669972933739  -0.9971819051382973 0.005323726110608223  -0.9971821579607986 0.0053238021072346976
7425000000.0  -0.9971782515711031 0.005372709654862937  -0.9971784931494421 0.005372782748551418  -0.9971782173241818 0.005372841306237547  -0.9971784589025029 0.0053729143999555265
7500000000.0  -0.9971745900072442 0.005421818686978665  -0.9971748207052823 0.005421888703863007  -0.9971745571620136 0.005421949658799715  -0.9971747878600352 0.005422019675712162
7575000000.0  -0.9971709571042717 0.0054709205769599804  -0.9971711772842163 0.005470987356558238  -0.9971709255727663 0.005471050674502907  -0.9971711457526955 0.005471117454127849
7650000000.0  -0.9971673537974303 0.005520015005952063  -0.9971675638192137 0.005520078401039922  -0.9971673234974978 0.005520144037022987  -0.9971675335192669 0.0055202074321361655
7725000000.0  -0.9971637810247307 0.0055691018260611465  -0.9971639812454418 0.005569161702480972  -0.9971637518799934 0.005569229601574835  -0.9971639521006911 0.005569289478018645
7800000000.0  -0.9971602397107368 0.005618181053304849  -0.9971604304840853 0.0056182372897432345  -0.9971602116505199 0.005618307387842113  -0.9971604024238562 0.00561836362430316
7875000000.0  -0.9971567307515087 0.005667252859541034  -0.9971569124273256 0.005667305347278646  -0.9971567037107415 0.005667377571883348  -0.997156885386547 0.005667430059642323
7950000000.0  -0.9971532550007468 0.0057163175634941795  -0.997153427924522 0.005716366206130757  -0.9971532289198322 0.0057164404771334  -0.9971534018435971 0.005716489119790091
8025000000.0  -0.9971498132571583 0.005765375620996323  -0.9971499777696102 0.00576542033415284  -0.9971497880818196 0.005765496564619244  -0.9971499525942621 0.005765541277794641
8100000000.0  -0.9971464062530682 0.00581442761455889  -0.9971465626897511 0.005814468325559528  -0.9971463819341688 0.005814546422504771  -0.9971465383708433 0.005814587133523109
