<Qucs Dataset 25.1.1>
<indep time 298>
0.000000000000e+00
1.000000000000e-16
2.000000000000e-16
4.000000000000e-16
8.000000000000e-16
1.600000000000e-15
3.200000000000e-15
6.400000000000e-15
1.000000000000e-14
1.058859264547e-14
1.176577793642e-14
1.412014851830e-14
1.882888968208e-14
2.440091311007e-14
3.421161518919e-14
4.975693809555e-14
8.084758390829e-14
1.184866661772e-13
1.717255843553e-13
2.439835840706e-13
3.884995835012e-13
6.775315823624e-13
1.255595580085e-12
2.411723575530e-12
4.723979566420e-12
9.348491548199e-12
1.859751551176e-11
2.864781551176e-11
3.869811551176e-11
4.874841551176e-11
5.879871551176e-11
6.884901551176e-11
7.889931551176e-11
8.894961551176e-11
9.899991551176e-11
1.090502155118e-10
1.191005155118e-10
1.291508155118e-10
1.392011155118e-10
1.492514155118e-10
1.593017155118e-10
1.693520155118e-10
1.794023155118e-10
1.894526155118e-10
1.995029155118e-10
2.095532155118e-10
2.196035155118e-10
2.296538155118e-10
2.397041155118e-10
2.497544155118e-10
2.598047155118e-10
2.698550155118e-10
2.799053155118e-10
2.899556155118e-10
3.000059155118e-10
3.100562155118e-10
3.201065155118e-10
3.301568155118e-10
3.402071155118e-10
3.502574155118e-10
3.603077155118e-10
3.703580155118e-10
3.804083155118e-10
3.904586155118e-10
4.000100000000e-10
4.000110000000e-10
4.000130000000e-10
4.000170000000e-10
4.000200000000e-10
4.000208000000e-10
4.000224000000e-10
4.000256000000e-10
4.000320000000e-10
4.000380234813e-10
4.000494882157e-10
4.000722937329e-10
4.001019079922e-10
4.001438231342e-10
4.001970066776e-10
4.002866687090e-10
4.004425214799e-10
4.007542270217e-10
4.013776381052e-10
4.026244602724e-10
4.051181046067e-10
4.101053932753e-10
4.200799706125e-10
4.301302706125e-10
4.401805706125e-10
4.502308706125e-10
4.602811706125e-10
4.703314706125e-10
4.803817706125e-10
4.904320706125e-10
5.004823706125e-10
5.105326706125e-10
5.205829706125e-10
5.306332706125e-10
5.406835706125e-10
5.507338706125e-10
5.607841706125e-10
5.708344706125e-10
5.808847706125e-10
5.909350706125e-10
6.009853706125e-10
6.110356706125e-10
6.210859706125e-10
6.311362706125e-10
6.411865706125e-10
6.512368706125e-10
6.612871706125e-10
6.713374706125e-10
6.813877706125e-10
6.914380706125e-10
7.014883706125e-10
7.115386706125e-10
7.215889706125e-10
7.316392706125e-10
7.416895706125e-10
7.517398706125e-10
7.617901706125e-10
7.718404706125e-10
7.818907706125e-10
7.919410706125e-10
8.000200000000e-10
8.000210000000e-10
8.000230000000e-10
8.000270000000e-10
8.000300000000e-10
8.000308000000e-10
8.000324000000e-10
8.000356000000e-10
8.000420000000e-10
8.000480029077e-10
8.000600087231e-10
8.000826288328e-10
8.001215208870e-10
8.001633713954e-10
8.002281781535e-10
8.003276015832e-10
8.005264484426e-10
8.009241421615e-10
8.017195295991e-10
8.033103044745e-10
8.064918542252e-10
8.128549537266e-10
8.229052537266e-10
8.329555537266e-10
8.430058537266e-10
8.530561537266e-10
8.631064537266e-10
8.731567537266e-10
8.832070537266e-10
8.932573537266e-10
9.033076537266e-10
9.133579537266e-10
9.234082537266e-10
9.334585537266e-10
9.435088537266e-10
9.535591537266e-10
9.636094537266e-10
9.736597537266e-10
9.837100537266e-10
9.937603537266e-10
1.003810653727e-09
1.013860953727e-09
1.023911253727e-09
1.033961553727e-09
1.044011853727e-09
1.054062153727e-09
1.064112453727e-09
1.074162753727e-09
1.084213053727e-09
1.094263353727e-09
1.104313653727e-09
1.114363953727e-09
1.124414253727e-09
1.134464553727e-09
1.144514853727e-09
1.154565153727e-09
1.164615453727e-09
1.174665753727e-09
1.184716053727e-09
1.194766353727e-09
1.200030000000e-09
1.200117761700e-09
1.200293285100e-09
1.200400205836e-09
1.200501251448e-09
1.200610638653e-09
1.200738345128e-09
1.200939460812e-09
1.201202944697e-09
1.201613965731e-09
1.202254274344e-09
1.203235933700e-09
1.205132477188e-09
1.208925564164e-09
1.216511738116e-09
1.226562038116e-09
1.236612338116e-09
1.246662638116e-09
1.256712938116e-09
1.266763238116e-09
1.276813538116e-09
1.286863838116e-09
1.296914138116e-09
1.306964438116e-09
1.317014738116e-09
1.327065038116e-09
1.337115338116e-09
1.347165638116e-09
1.357215938116e-09
1.367266238116e-09
1.377316538116e-09
1.387366838116e-09
1.397417138116e-09
1.407467438116e-09
1.417517738116e-09
1.427568038116e-09
1.437618338116e-09
1.447668638116e-09
1.457718938116e-09
1.467769238116e-09
1.477819538116e-09
1.487869838116e-09
1.497920138116e-09
1.507970438116e-09
1.518020738116e-09
1.528071038116e-09
1.538121338116e-09
1.548171638116e-09
1.558221938116e-09
1.568272238116e-09
1.578322538116e-09
1.588372838116e-09
1.598423138116e-09
1.600040000000e-09
1.600041000000e-09
1.600043000000e-09
1.600047000000e-09
1.600050000000e-09
1.600050800000e-09
1.600052400000e-09
1.600055600000e-09
1.600062000000e-09
1.600068005507e-09
1.600080016521e-09
1.600102603723e-09
1.600141612176e-09
1.600183464652e-09
1.600248468489e-09
1.600348014173e-09
1.600547105541e-09
1.600945288277e-09
1.601741653749e-09
1.603334384693e-09
1.606519846581e-09
1.612890770356e-09
1.622941070356e-09
1.632991370356e-09
1.643041670356e-09
1.653091970356e-09
1.663142270356e-09
1.673192570356e-09
1.683242870356e-09
1.693293170356e-09
1.703343470356e-09
1.713393770356e-09
1.723444070356e-09
1.733494370356e-09
1.743544670356e-09
1.753594970356e-09
1.763645270356e-09
1.773695570356e-09
1.783745870356e-09
1.793796170356e-09
1.803846470356e-09
1.813896770356e-09
1.823947070356e-09
1.833997370356e-09
1.844047670356e-09
1.854097970356e-09
1.864148270356e-09
1.874198570356e-09
1.884248870356e-09
1.894299170356e-09
1.904349470356e-09
1.914399770356e-09
1.924450070356e-09
1.934500370356e-09
1.944550670356e-09
1.954600970356e-09
1.964651270356e-09
1.974701570356e-09
1.984751870356e-09
1.994802170356e-09
2.000000000000e-09
</indep>
<dep tran.v(clock) time>
0.000000000000e+00
1.000000000000e-02
2.000000000000e-02
4.000000000000e-02
8.000000000000e-02
1.600000000000e-01
3.200000000000e-01
6.400000000000e-01
1.000000000000e+00
1.000000000000e+00
1.000000000000e+00
1.000000000000e+00
1.000000000000e+00
1.000000000000e+00
1.000000000000e+00
1.000000000000e+00
1.000000000000e+00
1.000000000000e+00
1.000000000000e+00
1.000000000000e+00
1.000000000000e+00
1.000000000000e+00
1.000000000000e+00
1.000000000000e+00
1.000000000000e+00
1.000000000000e+00
1.000000000000e+00
1.000000000000e+00
1.000000000000e+00
1.000000000000e+00
1.000000000000e+00
1.000000000000e+00
1.000000000000e+00
1.000000000000e+00
1.000000000000e+00
1.000000000000e+00
1.000000000000e+00
1.000000000000e+00
1.000000000000e+00
1.000000000000e+00
1.000000000000e+00
1.000000000000e+00
1.000000000000e+00
1.000000000000e+00
1.000000000000e+00
1.000000000000e+00
1.000000000000e+00
1.000000000000e+00
1.000000000000e+00
1.000000000000e+00
1.000000000000e+00
1.000000000000e+00
1.000000000000e+00
1.000000000000e+00
1.000000000000e+00
1.000000000000e+00
1.000000000000e+00
1.000000000000e+00
1.000000000000e+00
1.000000000000e+00
1.000000000000e+00
1.000000000000e+00
1.000000000000e+00
1.000000000000e+00
1.000000000000e+00
8.999999999991e-01
6.999999999974e-01
2.999999999992e-01
0.000000000000e+00
0.000000000000e+00
0.000000000000e+00
0.000000000000e+00
0.000000000000e+00
0.000000000000e+00
0.000000000000e+00
0.000000000000e+00
0.000000000000e+00
0.000000000000e+00
0.000000000000e+00
0.000000000000e+00
0.000000000000e+00
0.000000000000e+00
0.000000000000e+00
0.000000000000e+00
0.000000000000e+00
0.000000000000e+00
0.000000000000e+00
0.000000000000e+00
0.000000000000e+00
0.000000000000e+00
0.000000000000e+00
0.000000000000e+00
0.000000000000e+00
0.000000000000e+00
0.000000000000e+00
0.000000000000e+00
0.000000000000e+00
0.000000000000e+00
0.000000000000e+00
0.000000000000e+00
0.000000000000e+00
0.000000000000e+00
0.000000000000e+00
0.000000000000e+00
0.000000000000e+00
0.000000000000e+00
0.000000000000e+00
0.000000000000e+00
0.000000000000e+00
0.000000000000e+00
0.000000000000e+00
0.000000000000e+00
0.000000000000e+00
0.000000000000e+00
0.000000000000e+00
0.000000000000e+00
0.000000000000e+00
0.000000000000e+00
0.000000000000e+00
0.000000000000e+00
0.000000000000e+00
0.000000000000e+00
0.000000000000e+00
0.000000000000e+00
0.000000000000e+00
1.000000000009e-01
3.000000000026e-01
7.000000000060e-01
9.999999999982e-01
1.000000000000e+00
1.000000000000e+00
1.000000000000e+00
1.000000000000e+00
1.000000000000e+00
1.000000000000e+00
1.000000000000e+00
1.000000000000e+00
1.000000000000e+00
1.000000000000e+00
1.000000000000e+00
1.000000000000e+00
1.000000000000e+00
1.000000000000e+00
1.000000000000e+00
1.000000000000e+00
1.000000000000e+00
1.000000000000e+00
1.000000000000e+00
1.000000000000e+00
1.000000000000e+00
1.000000000000e+00
1.000000000000e+00
1.000000000000e+00
1.000000000000e+00
1.000000000000e+00
1.000000000000e+00
1.000000000000e+00
1.000000000000e+00
1.000000000000e+00
1.000000000000e+00
1.000000000000e+00
1.000000000000e+00
1.000000000000e+00
1.000000000000e+00
1.000000000000e+00
1.000000000000e+00
1.000000000000e+00
1.000000000000e+00
1.000000000000e+00
1.000000000000e+00
1.000000000000e+00
1.000000000000e+00
1.000000000000e+00
1.000000000000e+00
1.000000000000e+00
1.000000000000e+00
1.000000000000e+00
1.000000000000e+00
1.000000000000e+00
1.000000000000e+00
1.000000000000e+00
1.000000000000e+00
1.000000000000e+00
1.000000000000e+00
1.000000000000e+00
0.000000000000e+00
0.000000000000e+00
0.000000000000e+00
0.000000000000e+00
0.000000000000e+00
0.000000000000e+00
0.000000000000e+00
0.000000000000e+00
0.000000000000e+00
0.000000000000e+00
0.000000000000e+00
0.000000000000e+00
0.000000000000e+00
0.000000000000e+00
0.000000000000e+00
0.000000000000e+00
0.000000000000e+00
0.000000000000e+00
0.000000000000e+00
0.000000000000e+00
0.000000000000e+00
0.000000000000e+00
0.000000000000e+00
0.000000000000e+00
0.000000000000e+00
0.000000000000e+00
0.000000000000e+00
0.000000000000e+00
0.000000000000e+00
0.000000000000e+00
0.000000000000e+00
0.000000000000e+00
0.000000000000e+00
0.000000000000e+00
0.000000000000e+00
0.000000000000e+00
0.000000000000e+00
0.000000000000e+00
0.000000000000e+00
0.000000000000e+00
0.000000000000e+00
0.000000000000e+00
0.000000000000e+00
0.000000000000e+00
0.000000000000e+00
0.000000000000e+00
0.000000000000e+00
0.000000000000e+00
0.000000000000e+00
0.000000000000e+00
0.000000000000e+00
0.000000000000e+00
0.000000000000e+00
9.999999999052e-02
2.999999999922e-01
6.999999999957e-01
1.000000000000e+00
1.000000000000e+00
1.000000000000e+00
1.000000000000e+00
1.000000000000e+00
1.000000000000e+00
1.000000000000e+00
1.000000000000e+00
1.000000000000e+00
1.000000000000e+00
1.000000000000e+00
1.000000000000e+00
1.000000000000e+00
1.000000000000e+00
1.000000000000e+00
1.000000000000e+00
1.000000000000e+00
1.000000000000e+00
1.000000000000e+00
1.000000000000e+00
1.000000000000e+00
1.000000000000e+00
1.000000000000e+00
1.000000000000e+00
1.000000000000e+00
1.000000000000e+00
1.000000000000e+00
1.000000000000e+00
1.000000000000e+00
1.000000000000e+00
1.000000000000e+00
1.000000000000e+00
1.000000000000e+00
1.000000000000e+00
1.000000000000e+00
1.000000000000e+00
1.000000000000e+00
1.000000000000e+00
1.000000000000e+00
1.000000000000e+00
1.000000000000e+00
1.000000000000e+00
1.000000000000e+00
1.000000000000e+00
1.000000000000e+00
1.000000000000e+00
1.000000000000e+00
1.000000000000e+00
1.000000000000e+00
1.000000000000e+00
1.000000000000e+00
1.000000000000e+00
1.000000000000e+00
1.000000000000e+00
1.000000000000e+00
1.000000000000e+00
1.000000000000e+00
</dep>
<dep tran.v(vdiv_4) time>
0.000000000000e+00
8.876080734903e-05
2.627889556116e-04
7.748162654130e-04
2.712486382256e-03
9.677278410557e-03
3.295325390323e-02
1.043878709795e-01
2.124837688694e-01
2.298703835757e-01
2.613215386362e-01
3.097386032836e-01
3.791792218662e-01
4.404885630609e-01
5.236719800113e-01
6.092975758228e-01
6.864806152575e-01
7.083485906320e-01
7.128984122652e-01
7.130825378381e-01
7.131056896251e-01
7.130246421463e-01
7.129364392544e-01
7.126975336697e-01
7.122815420268e-01
7.114040506657e-01
7.097538707850e-01
7.079993866092e-01
7.063655697455e-01
7.047788525497e-01
7.033108559307e-01
7.018863879137e-01
7.005748082484e-01
6.993009122505e-01
6.981327592535e-01
6.969957692616e-01
6.959571627255e-01
6.949432738989e-01
6.940207032214e-01
6.931168178545e-01
6.922976965520e-01
6.914917732536e-01
6.907646431890e-01
6.900457993172e-01
6.894003619882e-01
6.887588558558e-01
6.881859213169e-01
6.876130791998e-01
6.871044793279e-01
6.865926008025e-01
6.861410908711e-01
6.856833495123e-01
6.852825100568e-01
6.848728578080e-01
6.845170024133e-01
6.841500813146e-01
6.838341726094e-01
6.835052351657e-01
6.832248095865e-01
6.829296478325e-01
6.826807488701e-01
6.824156316144e-01
6.821947508771e-01
6.819563683732e-01
6.817706023662e-01
6.736770208349e-01
6.453254892121e-01
5.407929714738e-01
4.377236271175e-01
4.123069179698e-01
3.680439393367e-01
3.062776485825e-01
2.294814511355e-01
1.792426368705e-01
1.085910757871e-01
3.139213088514e-02
-8.337265136256e-03
-2.541986902281e-02
-2.948208097196e-02
-3.008454434946e-02
-3.003308286210e-02
-3.005103129302e-02
-3.004171180123e-02
-3.004735596200e-02
-3.004242399921e-02
-3.004523541004e-02
-3.003986445107e-02
-3.004116688448e-02
-3.003620368484e-02
-3.003709237704e-02
-3.003253826435e-02
-3.003302395048e-02
-3.002886831616e-02
-3.002896146800e-02
-3.002519397487e-02
-3.002490479627e-02
-3.002151537165e-02
-3.002085380533e-02
-3.001783263426e-02
-3.001680836858e-02
-3.001414588720e-02
-3.001276836260e-02
-3.001045525175e-02
-3.000873366714e-02
-3.000676084609e-02
-3.000470416504e-02
-3.000306278536e-02
-3.000067974208e-02
-2.999936118174e-02
-2.999666028700e-02
-2.999565614450e-02
-2.999264569133e-02
-2.999194778013e-02
-2.998863584940e-02
-2.998823619235e-02
-2.998463065823e-02
-2.998452148223e-02
-2.998063001746e-02
-2.998080374824e-02
-2.997663382930e-02
-2.997708308631e-02
-2.997264199846e-02
-2.997335958991e-02
-2.996865443207e-02
-2.997002677113e-02
-2.325199703963e-02
4.608571493451e-04
9.009724093101e-02
1.819340964410e-01
2.046691050551e-01
2.448115862619e-01
3.035104958173e-01
3.853925183649e-01
4.430648563976e-01
5.298390072067e-01
6.207853100555e-01
6.724047194792e-01
6.802651372774e-01
6.817101809907e-01
6.817279395390e-01
6.817447418282e-01
6.817239157606e-01
6.817169706825e-01
6.816758444505e-01
6.816187861000e-01
6.814851493173e-01
6.813019262476e-01
6.811145430870e-01
6.809511863902e-01
6.807829966561e-01
6.806373228270e-01
6.804862335381e-01
6.803562762439e-01
6.802204288825e-01
6.801044426530e-01
6.799821864869e-01
6.798786216016e-01
6.797684901106e-01
6.796759704123e-01
6.795766604527e-01
6.794939637287e-01
6.794043171006e-01
6.793303577190e-01
6.792493448463e-01
6.791831583777e-01
6.791098638511e-01
6.790505934419e-01
6.789842032034e-01
6.789310874941e-01
6.788708774729e-01
6.788232398830e-01
6.787685659159e-01
6.787258051381e-01
6.786760940244e-01
6.786376755886e-01
6.785924171528e-01
6.785578659399e-01
6.785166059852e-01
6.784854995816e-01
6.784478336359e-01
6.784197964339e-01
6.783853641963e-01
6.783600621573e-01
6.783285425687e-01
6.783181203409e-01
8.693500092417e-02
-9.225276362710e-02
-1.552724157572e-02
-4.053644229850e-02
-2.941046057498e-02
-3.679100334988e-02
-3.063501719393e-02
-3.629366692248e-02
-3.091948940089e-02
-3.614117796096e-02
-3.101625818057e-02
-3.609026517350e-02
-3.104575675342e-02
-3.607837220303e-02
-3.105248354608e-02
-3.607025026011e-02
-3.105709225660e-02
-3.606173754561e-02
-3.106163901664e-02
-3.605325288522e-02
-3.106612483474e-02
-3.604479563775e-02
-3.107055069697e-02
-3.603636517728e-02
-3.107491756759e-02
-3.602796089295e-02
-3.107922638949e-02
-3.601958218853e-02
-3.108347808475e-02
-3.601122848210e-02
-3.108767355508e-02
-3.600289920571e-02
-3.109181368236e-02
-3.599459380512e-02
-3.109589932907e-02
-3.598631173940e-02
-3.109993133877e-02
-3.597805248067e-02
-3.110391053654e-02
-3.596981551379e-02
-3.110783772945e-02
-3.596160033608e-02
-3.111171370694e-02
-3.595340645701e-02
-3.111553924124e-02
-3.594523339794e-02
-3.111931508783e-02
-3.593708069183e-02
-3.112304198578e-02
-3.592894788296e-02
-3.112672065817e-02
-3.592083452671e-02
-3.114647014974e-02
-2.509439689308e-02
-2.337930264461e-03
8.659730179804e-02
1.783089905468e-01
2.010302453170e-01
2.411544686546e-01
2.998445229874e-01
3.817185160149e-01
4.393987015618e-01
5.261895734527e-01
6.170757205950e-01
6.689530602586e-01
6.767740525050e-01
6.782226297359e-01
6.782397157435e-01
6.782597919285e-01
6.782459127371e-01
6.782534546330e-01
6.782403066333e-01
6.782392969151e-01
6.782139363491e-01
6.781947543359e-01
6.781617598135e-01
6.781447526419e-01
6.781142565915e-01
6.780991798340e-01
6.780709436664e-01
6.780575797926e-01
6.780313908001e-01
6.780195465678e-01
6.779952150113e-01
6.779847187210e-01
6.779620752487e-01
6.779527743113e-01
6.779316676701e-01
6.779234264502e-01
6.779037214578e-01
6.778964193630e-01
6.778779951098e-01
6.778715248967e-01
6.778542731525e-01
6.778485394255e-01
6.778323632260e-01
6.778272811065e-01
6.778120935013e-01
6.778075874479e-01
6.777933103889e-01
6.777893131519e-01
6.777758765100e-01
6.777723282037e-01
6.777596688936e-01
6.777565161750e-01
6.777445773823e-01
6.777417727216e-01
6.777305032151e-01
6.777280042497e-01
6.777173577722e-01
6.777151267335e-01
6.777050614610e-01
6.777058487366e-01
</dep>
<dep tran.v(vout) time>
0.000000000000e+00
2.979777634184e-04
8.618071956538e-04
2.463760292607e-03
7.954726316432e-03
2.435787181320e-02
6.542959169529e-02
1.547569772314e-01
2.625359493749e-01
2.737637463288e-01
2.885585525151e-01
3.024093583143e-01
3.373323440340e-01
3.828172612771e-01
4.478154159159e-01
5.206436530703e-01
5.966539665213e-01
6.269382587442e-01
6.368830850661e-01
6.384094226022e-01
6.383037317908e-01
6.383828767500e-01
6.382332797016e-01
6.382346389200e-01
6.379433265022e-01
6.376643538692e-01
6.368469144192e-01
6.362126343621e-01
6.354322968087e-01
6.348931763300e-01
6.342017279788e-01
6.337448233077e-01
6.331300446060e-01
6.327439743215e-01
6.321952731650e-01
6.318702046152e-01
6.313784605588e-01
6.311059526846e-01
6.306633542332e-01
6.304361911137e-01
6.300360683628e-01
6.298480940393e-01
6.294847581739e-01
6.293307227103e-01
6.289993199450e-01
6.288747420021e-01
6.285711252167e-01
6.284721727801e-01
6.281927912396e-01
6.281161799808e-01
6.278579859632e-01
6.278008936121e-01
6.275612640461e-01
6.275212587324e-01
6.272979297481e-01
6.272729102282e-01
6.270639225989e-01
6.270520684391e-01
6.268557220984e-01
6.268554521182e-01
6.266702681822e-01
6.266802057170e-01
6.265048946935e-01
6.265238384709e-01
6.263607488520e-01
6.095596628208e-01
5.615466659826e-01
4.385902437805e-01
3.430838896814e-01
3.271966026506e-01
3.044536828675e-01
2.751714807884e-01
2.277973608060e-01
1.890801551283e-01
1.310715111926e-01
6.320139208563e-02
2.107907635634e-02
-8.253664280001e-04
-8.766013023383e-03
-1.023048951468e-02
-1.049175370403e-02
-1.016120678274e-02
-1.050654229302e-02
-1.015600177616e-02
-1.050799667368e-02
-1.015398784415e-02
-1.050617394809e-02
-1.015069460514e-02
-1.050340701825e-02
-1.014739997601e-02
-1.050062928342e-02
-1.014411739857e-02
-1.049784110061e-02
-1.014084654287e-02
-1.049504279182e-02
-1.013758708829e-02
-1.049223466985e-02
-1.013433872329e-02
-1.048941703854e-02
-1.013110114522e-02
-1.048659019304e-02
-1.012787405998e-02
-1.048375442006e-02
-1.012465718184e-02
-1.048090999809e-02
-1.012145023319e-02
-1.047805719768e-02
-1.011825294432e-02
-1.047519628158e-02
-1.011506505319e-02
-1.047232750506e-02
-1.011188630521e-02
-1.046945111603e-02
-1.010871645304e-02
-1.046656735532e-02
-1.010555525638e-02
-1.046367645685e-02
-1.010240248180e-02
-1.046077864782e-02
-1.009925790251e-02
-1.045787414892e-02
-1.009612129817e-02
-1.045496317450e-02
-1.009299245475e-02
-1.045235508479e-02
4.703730135952e-03
4.866464072781e-02
1.628717179843e-01
2.524898262912e-01
2.660525464164e-01
2.827529094635e-01
3.008098893443e-01
3.524386159219e-01
3.981994907823e-01
4.679156773558e-01
5.493631563457e-01
6.067787595422e-01
6.218601334976e-01
6.263330848157e-01
6.266816546383e-01
6.265828392606e-01
6.266694271740e-01
6.265770969435e-01
