<Qucs Dataset 25.1.1>
<indep time 306>
0.000000000000e+00
1.000000000000e-16
2.000000000000e-16
4.000000000000e-16
8.000000000000e-16
1.600000000000e-15
3.200000000000e-15
6.400000000000e-15
1.000000000000e-14
1.064000000000e-14
1.192000000000e-14
1.448000000000e-14
1.960000000000e-14
2.984000000000e-14
4.628360047436e-14
7.337156682506e-14
1.275474995265e-13
2.008517393293e-13
2.819951327842e-13
3.905170058707e-13
5.305051043279e-13
7.258539728740e-13
9.927144000234e-13
1.422156657564e-12
2.213079146713e-12
3.794924125013e-12
6.958614081613e-12
1.328599399481e-11
2.333629399481e-11
3.338659399481e-11
4.343689399481e-11
5.348719399481e-11
6.353749399481e-11
7.358779399481e-11
8.363809399481e-11
9.368839399481e-11
1.037386939948e-10
1.137889939948e-10
1.238392939948e-10
1.338895939948e-10
1.439398939948e-10
1.539901939948e-10
1.640404939948e-10
1.740907939948e-10
1.841410939948e-10
1.941913939948e-10
2.042416939948e-10
2.142919939948e-10
2.243422939948e-10
2.343925939948e-10
2.444428939948e-10
2.544931939948e-10
2.645434939948e-10
2.745937939948e-10
2.846440939948e-10
2.946943939948e-10
3.047446939948e-10
3.147949939948e-10
3.248452939948e-10
3.348955939948e-10
3.449458939948e-10
3.549961939948e-10
3.650464939948e-10
3.750967939948e-10
3.851470939948e-10
3.951973939948e-10
4.000100000000e-10
4.000110000000e-10
4.000130000000e-10
4.000170000000e-10
4.000200000000e-10
4.000208000000e-10
4.000224000000e-10
4.000256000000e-10
4.000320000000e-10
4.000448000000e-10
4.000704000000e-10
4.001216000000e-10
4.002113382460e-10
4.002604761406e-10
4.002932579887e-10
4.003346119872e-10
4.003794573829e-10
4.004685956656e-10
4.005800938905e-10
4.008030903403e-10
4.012490832400e-10
4.021410690393e-10
4.039250406380e-10
4.074929838353e-10
4.146288702298e-10
4.246791702298e-10
4.347294702298e-10
4.447797702298e-10
4.548300702298e-10
4.648803702298e-10
4.749306702298e-10
4.849809702298e-10
4.950312702298e-10
5.050815702298e-10
5.151318702298e-10
5.251821702298e-10
5.352324702298e-10
5.452827702298e-10
5.553330702298e-10
5.653833702298e-10
5.754336702298e-10
5.854839702298e-10
5.955342702298e-10
6.055845702298e-10
6.156348702298e-10
6.256851702298e-10
6.357354702298e-10
6.457857702298e-10
6.558360702298e-10
6.658863702298e-10
6.759366702298e-10
6.859869702298e-10
6.960372702298e-10
7.060875702298e-10
7.161378702298e-10
7.261881702298e-10
7.362384702298e-10
7.462887702298e-10
7.563390702298e-10
7.663893702298e-10
7.764396702298e-10
7.864899702298e-10
7.965402702298e-10
8.000200000000e-10
8.000210000000e-10
8.000230000000e-10
8.000270000000e-10
8.000300000000e-10
8.000305871480e-10
8.000317614441e-10
8.000341100362e-10
8.000388072205e-10
8.000482015891e-10
8.000645012084e-10
8.000892754901e-10
8.001388240536e-10
8.002100545801e-10
8.002910515696e-10
8.003946035427e-10
8.005307099603e-10
8.007164281717e-10
8.009732300874e-10
8.013718558490e-10
8.020965205852e-10
8.035458500575e-10
8.064445090022e-10
8.122418268915e-10
8.222921268915e-10
8.323424268915e-10
8.423927268915e-10
8.524430268915e-10
8.624933268915e-10
8.725436268915e-10
8.825939268915e-10
8.926442268915e-10
9.026945268915e-10
9.127448268915e-10
9.227951268915e-10
9.328454268915e-10
9.428957268915e-10
9.529460268915e-10
9.629963268915e-10
9.730466268915e-10
9.830969268915e-10
9.931472268915e-10
1.003197526892e-09
1.013247826892e-09
1.023298126892e-09
1.033348426892e-09
1.043398726892e-09
1.053449026892e-09
1.063499326892e-09
1.073549626892e-09
1.083599926892e-09
1.093650226892e-09
1.103700526892e-09
1.113750826892e-09
1.123801126892e-09
1.133851426892e-09
1.143901726892e-09
1.153952026892e-09
1.164002326892e-09
1.174052626892e-09
1.184102926892e-09
1.194153226892e-09
1.200030000000e-09
1.200113623658e-09
1.200280870975e-09
1.200314095723e-09
1.200340233498e-09
1.200378320746e-09
1.200454495243e-09
1.200596344397e-09
1.200810658064e-09
1.201239285397e-09
1.202096540064e-09
1.203811049396e-09
1.207240068062e-09
1.214098105394e-09
1.224148405394e-09
1.234198705394e-09
1.244249005394e-09
1.254299305394e-09
1.264349605394e-09
1.274399905394e-09
1.284450205394e-09
1.294500505394e-09
1.304550805394e-09
1.314601105394e-09
1.324651405394e-09
1.334701705394e-09
1.344752005394e-09
1.354802305394e-09
1.364852605394e-09
1.374902905394e-09
1.384953205394e-09
1.395003505394e-09
1.405053805394e-09
1.415104105394e-09
1.425154405394e-09
1.435204705394e-09
1.445255005394e-09
1.455305305394e-09
1.465355605394e-09
1.475405905394e-09
1.485456205394e-09
1.495506505394e-09
1.505556805394e-09
1.515607105394e-09
1.525657405394e-09
1.535707705394e-09
1.545758005394e-09
1.555808305394e-09
1.565858605394e-09
1.575908905394e-09
1.585959205394e-09
1.596009505394e-09
1.600040000000e-09
1.600041000000e-09
1.600043000000e-09
1.600047000000e-09
1.600050000000e-09
1.600050587141e-09
1.600051761423e-09
1.600054109987e-09
1.600058807116e-09
1.600068201373e-09
1.600084513959e-09
1.600109305807e-09
1.600158889505e-09
1.600230133820e-09
1.600311137443e-09
1.600414756904e-09
1.600550914498e-09
1.600736749732e-09
1.600993678000e-09
1.601392678601e-09
1.602118141483e-09
1.603569067249e-09
1.606470918779e-09
1.612274621840e-09
1.622324921840e-09
1.632375221840e-09
1.642425521840e-09
1.652475821840e-09
1.662526121840e-09
1.672576421840e-09
1.682626721840e-09
1.692677021840e-09
1.702727321840e-09
1.712777621840e-09
1.722827921840e-09
1.732878221840e-09
1.742928521840e-09
1.752978821840e-09
1.763029121840e-09
1.773079421840e-09
1.783129721840e-09
1.793180021840e-09
1.803230321840e-09
1.813280621840e-09
1.823330921840e-09
1.833381221840e-09
1.843431521840e-09
1.853481821840e-09
1.863532121840e-09
1.873582421840e-09
1.883632721840e-09
1.893683021840e-09
1.903733321840e-09
1.913783621840e-09
1.923833921840e-09
1.933884221840e-09
1.943934521840e-09
1.953984821840e-09
1.964035121840e-09
1.974085421840e-09
1.984135721840e-09
1.994186021840e-09
2.000000000000e-09
</indep>
<dep tran.v(clock) time>
0.000000000000e+00
1.000000000000e-02
2.000000000000e-02
4.000000000000e-02
8.000000000000e-02
1.600000000000e-01
3.200000000000e-01
6.400000000000e-01
1.000000000000e+00
1.000000000000e+00
1.000000000000e+00
1.000000000000e+00
1.000000000000e+00
1.000000000000e+00
1.000000000000e+00
1.000000000000e+00
1.000000000000e+00
1.000000000000e+00
1.000000000000e+00
1.000000000000e+00
1.000000000000e+00
1.000000000000e+00
1.000000000000e+00
1.000000000000e+00
1.000000000000e+00
1.000000000000e+00
1.000000000000e+00
1.000000000000e+00
1.000000000000e+00
1.000000000000e+00
1.000000000000e+00
1.000000000000e+00
1.000000000000e+00
1.000000000000e+00
1.000000000000e+00
1.000000000000e+00
1.000000000000e+00
1.000000000000e+00
1.000000000000e+00
1.000000000000e+00
1.000000000000e+00
1.000000000000e+00
1.000000000000e+00
1.000000000000e+00
1.000000000000e+00
1.000000000000e+00
1.000000000000e+00
1.000000000000e+00
1.000000000000e+00
1.000000000000e+00
1.000000000000e+00
1.000000000000e+00
1.000000000000e+00
1.000000000000e+00
1.000000000000e+00
1.000000000000e+00
1.000000000000e+00
1.000000000000e+00
1.000000000000e+00
1.000000000000e+00
1.000000000000e+00
1.000000000000e+00
1.000000000000e+00
1.000000000000e+00
1.000000000000e+00
1.000000000000e+00
1.000000000000e+00
8.999999999991e-01
6.999999999974e-01
2.999999999992e-01
0.000000000000e+00
0.000000000000e+00
0.000000000000e+00
0.000000000000e+00
0.000000000000e+00
0.000000000000e+00
0.000000000000e+00
0.000000000000e+00
0.000000000000e+00
0.000000000000e+00
0.000000000000e+00
0.000000000000e+00
0.000000000000e+00
0.000000000000e+00
0.000000000000e+00
0.000000000000e+00
0.000000000000e+00
0.000000000000e+00
0.000000000000e+00
0.000000000000e+00
0.000000000000e+00
0.000000000000e+00
0.000000000000e+00
0.000000000000e+00
0.000000000000e+00
0.000000000000e+00
0.000000000000e+00
0.000000000000e+00
0.000000000000e+00
0.000000000000e+00
0.000000000000e+00
0.000000000000e+00
0.000000000000e+00
0.000000000000e+00
0.000000000000e+00
0.000000000000e+00
0.000000000000e+00
0.000000000000e+00
0.000000000000e+00
0.000000000000e+00
0.000000000000e+00
0.000000000000e+00
0.000000000000e+00
0.000000000000e+00
0.000000000000e+00
0.000000000000e+00
0.000000000000e+00
0.000000000000e+00
0.000000000000e+00
0.000000000000e+00
0.000000000000e+00
0.000000000000e+00
0.000000000000e+00
0.000000000000e+00
0.000000000000e+00
0.000000000000e+00
0.000000000000e+00
0.000000000000e+00
0.000000000000e+00
0.000000000000e+00
1.000000000009e-01
3.000000000026e-01
7.000000000060e-01
9.999999999982e-01
1.000000000000e+00
1.000000000000e+00
1.000000000000e+00
1.000000000000e+00
1.000000000000e+00
1.000000000000e+00
1.000000000000e+00
1.000000000000e+00
1.000000000000e+00
1.000000000000e+00
1.000000000000e+00
1.000000000000e+00
1.000000000000e+00
1.000000000000e+00
1.000000000000e+00
1.000000000000e+00
1.000000000000e+00
1.000000000000e+00
1.000000000000e+00
1.000000000000e+00
1.000000000000e+00
1.000000000000e+00
1.000000000000e+00
1.000000000000e+00
1.000000000000e+00
1.000000000000e+00
1.000000000000e+00
1.000000000000e+00
1.000000000000e+00
1.000000000000e+00
1.000000000000e+00
1.000000000000e+00
1.000000000000e+00
1.000000000000e+00
1.000000000000e+00
1.000000000000e+00
1.000000000000e+00
1.000000000000e+00
1.000000000000e+00
1.000000000000e+00
1.000000000000e+00
1.000000000000e+00
1.000000000000e+00
1.000000000000e+00
1.000000000000e+00
1.000000000000e+00
1.000000000000e+00
1.000000000000e+00
1.000000000000e+00
1.000000000000e+00
1.000000000000e+00
1.000000000000e+00
1.000000000000e+00
1.000000000000e+00
1.000000000000e+00
1.000000000000e+00
1.000000000000e+00
1.000000000000e+00
0.000000000000e+00
0.000000000000e+00
0.000000000000e+00
0.000000000000e+00
0.000000000000e+00
0.000000000000e+00
0.000000000000e+00
0.000000000000e+00
0.000000000000e+00
0.000000000000e+00
0.000000000000e+00
0.000000000000e+00
0.000000000000e+00
0.000000000000e+00
0.000000000000e+00
0.000000000000e+00
0.000000000000e+00
0.000000000000e+00
0.000000000000e+00
0.000000000000e+00
0.000000000000e+00
0.000000000000e+00
0.000000000000e+00
0.000000000000e+00
0.000000000000e+00
0.000000000000e+00
0.000000000000e+00
0.000000000000e+00
0.000000000000e+00
0.000000000000e+00
0.000000000000e+00
0.000000000000e+00
0.000000000000e+00
0.000000000000e+00
0.000000000000e+00
0.000000000000e+00
0.000000000000e+00
0.000000000000e+00
0.000000000000e+00
0.000000000000e+00
0.000000000000e+00
0.000000000000e+00
0.000000000000e+00
0.000000000000e+00
0.000000000000e+00
0.000000000000e+00
0.000000000000e+00
0.000000000000e+00
0.000000000000e+00
0.000000000000e+00
0.000000000000e+00
0.000000000000e+00
9.999999999052e-02
2.999999999922e-01
6.999999999957e-01
1.000000000000e+00
1.000000000000e+00
1.000000000000e+00
1.000000000000e+00
1.000000000000e+00
1.000000000000e+00
1.000000000000e+00
1.000000000000e+00
1.000000000000e+00
1.000000000000e+00
1.000000000000e+00
1.000000000000e+00
1.000000000000e+00
1.000000000000e+00
1.000000000000e+00
1.000000000000e+00
1.000000000000e+00
1.000000000000e+00
1.000000000000e+00
1.000000000000e+00
1.000000000000e+00
1.000000000000e+00
1.000000000000e+00
1.000000000000e+00
1.000000000000e+00
1.000000000000e+00
1.000000000000e+00
1.000000000000e+00
1.000000000000e+00
1.000000000000e+00
1.000000000000e+00
1.000000000000e+00
1.000000000000e+00
1.000000000000e+00
1.000000000000e+00
1.000000000000e+00
1.000000000000e+00
1.000000000000e+00
1.000000000000e+00
1.000000000000e+00
1.000000000000e+00
1.000000000000e+00
1.000000000000e+00
1.000000000000e+00
1.000000000000e+00
1.000000000000e+00
1.000000000000e+00
1.000000000000e+00
1.000000000000e+00
1.000000000000e+00
1.000000000000e+00
1.000000000000e+00
1.000000000000e+00
1.000000000000e+00
1.000000000000e+00
1.000000000000e+00
1.000000000000e+00
1.000000000000e+00
1.000000000000e+00
</dep>
<dep tran.v(test) time>
2.683467532240e-01
2.683584844227e-01
2.683819173923e-01
2.684521275430e-01
2.687319078403e-01
2.698417917434e-01
2.742052491348e-01
2.908526773542e-01
3.201467600449e-01
3.258728031819e-01
3.364202106738e-01
3.531748674123e-01
3.740373689424e-01
3.971060491162e-01
4.195419180650e-01
4.433761377841e-01
4.711100315414e-01
4.900517008917e-01
5.002504664484e-01
5.064906554460e-01
5.094607119832e-01
5.105538578908e-01
5.107433393861e-01
5.107416576468e-01
5.107421404002e-01
5.107418505636e-01
5.107420443366e-01
5.107418128098e-01
5.107419222797e-01
5.107416873546e-01
5.107417792548e-01
5.107415610044e-01
5.107416370820e-01
5.107414338483e-01
5.107414956767e-01
5.107413059666e-01
5.107413549628e-01
5.107411774317e-01
5.107412148716e-01
5.107410483086e-01
5.107410753414e-01
5.107409186560e-01
5.107409363166e-01
5.107407885266e-01
5.107407977470e-01
5.107406579681e-01
5.107406595876e-01
5.107405270232e-01
5.107405217976e-01
5.107403957306e-01
5.107403843406e-01
5.107402641248e-01
5.107402471835e-01
5.107401322373e-01
5.107401102966e-01
5.107400000961e-01
5.107399736534e-01
5.107398677267e-01
5.107398372296e-01
5.107397351519e-01
5.107397010036e-01
5.107396023922e-01
5.107395649558e-01
5.107394694662e-01
5.107394290688e-01
5.107393363906e-01
5.107393277064e-01
5.106411956125e-01
5.102499443718e-01
5.083118347607e-01
5.058267190875e-01
5.050467044441e-01
5.034829097022e-01
5.003630620340e-01
4.941684339012e-01
4.819519809712e-01
4.581821024241e-01
4.131631846821e-01
3.147895737993e-01
2.805432507118e-01
2.738118318895e-01
2.704708275714e-01
2.693392603018e-01
2.688638859798e-01
2.688909537364e-01
2.688854046203e-01
2.688884116077e-01
2.688861504536e-01
2.688881191211e-01
2.688862806011e-01
2.688880576839e-01
2.688863145689e-01
2.688880300222e-01
2.688863417965e-01
2.688880032308e-01
2.688863681664e-01
2.688879772828e-01
2.688863937058e-01
2.688879521517e-01
2.688864184407e-01
2.688879278117e-01
2.688864423965e-01
2.688879042380e-01
2.688864655977e-01
2.688878814064e-01
2.688864880682e-01
2.688878592936e-01
2.688865098308e-01
2.688878378769e-01
2.688865309080e-01
2.688878171345e-01
2.688865513213e-01
2.688877970450e-01
2.688865710917e-01
2.688877775880e-01
2.688865902393e-01
2.688877587435e-01
2.688866087837e-01
2.688877404922e-01
2.688866267441e-01
2.688877228155e-01
2.688866441388e-01
2.688877056953e-01
2.688866609855e-01
2.688876891141e-01
2.688866773017e-01
2.688876730548e-01
2.688866931038e-01
2.688876575011e-01
2.688867224201e-01
2.700341718191e-01
2.745630780753e-01
2.959958134991e-01
3.210475970798e-01
3.262969810468e-01
3.360364639635e-01
3.518492828759e-01
3.721486735131e-01
3.947455771769e-01
4.180743106351e-01
4.409164702373e-01
4.682333097575e-01
4.885189607024e-01
4.997457746555e-01
5.063650635554e-01
5.097011776947e-01
5.109635043812e-01
5.112211736030e-01
5.112249353725e-01
5.112239913336e-01
5.112244874935e-01
5.112240874693e-01
5.112243775428e-01
5.112240002870e-01
5.112242220604e-01
5.112238753667e-01
5.112240681383e-01
5.112237489681e-01
5.112239156219e-01
5.112236212384e-01
5.112237643715e-01
5.112234923102e-01
5.112236142613e-01
5.112233623027e-01
5.112234651782e-01
5.112232313235e-01
5.112233170202e-01
5.112230994693e-01
5.112231696955e-01
5.112229668273e-01
5.112230231214e-01
5.112228334760e-01
5.112228772233e-01
5.112226994861e-01
5.112227319343e-01
5.112225649212e-01
5.112225871939e-01
5.112224298386e-01
5.112224429477e-01
5.112222942901e-01
5.112222991468e-01
5.112221583220e-01
5.112221557470e-01
5.112220219763e-01
5.112220127087e-01
5.112218852906e-01
5.112218699959e-01
5.112217482990e-01
5.112217275765e-01
5.112216110320e-01
5.112215854216e-01
5.112215032861e-01
4.513996456654e-01
2.627609918692e-01
2.667142576323e-01
2.680862410104e-01
2.690011211812e-01
2.694948117279e-01
2.695120639297e-01
2.695066292999e-01
2.695094888941e-01
2.695073649161e-01
2.695092034886e-01
2.695074912861e-01
2.695091439726e-01
2.695075236246e-01
2.695091182527e-01
2.695075489334e-01
2.695090933419e-01
2.695075734448e-01
2.695090692154e-01
2.695075971840e-01
2.695090458484e-01
2.695076201752e-01
2.695090232169e-01
2.695076424421e-01
2.695090012979e-01
2.695076640075e-01
2.695089800689e-01
2.695076848934e-01
2.695089595082e-01
2.695077051213e-01
2.695089395947e-01
2.695077247119e-01
2.695089203081e-01
2.695077436852e-01
2.695089016286e-01
2.695077620608e-01
2.695088835371e-01
2.695077798574e-01
2.695088660151e-01
2.695077970933e-01
2.695088490447e-01
2.695078137861e-01
2.695088326085e-01
2.695078299530e-01
2.695088166897e-01
2.695078456105e-01
2.695088012719e-01
2.695078607747e-01
2.695087863395e-01
2.695078754610e-01
2.695087718770e-01
2.695079000205e-01
2.706552901845e-01
2.751839629892e-01
2.966150540259e-01
3.216625594331e-01
3.269103608293e-01
3.366460751568e-01
3.524508755785e-01
3.727405316040e-01
3.953309835693e-01
4.186706548050e-01
4.415166573717e-01
4.688314107002e-01
4.891015917713e-01
5.003187230076e-01
5.069350380388e-01
5.102670338541e-01
5.115273461318e-01
5.117841311183e-01
5.117878058943e-01
5.117868813753e-01
5.117873668045e-01
5.117869734191e-01
5.117872550769e-01
5.117868807179e-01
5.117870935608e-01
5.117867491611e-01
5.117869335746e-01
5.117866161553e-01
5.117867749663e-01
5.117864818447e-01
5.117866175992e-01
5.117863463594e-01
5.117864613500e-01
5.117862098162e-01
5.117863061078e-01
5.117860723206e-01
5.117861517726e-01
5.117859339675e-01
5.117859982543e-01
5.117857948422e-01
5.117858454720e-01
5.117856550217e-01
5.117856933525e-01
5.117855145753e-01
5.117855418302e-01
5.117853735654e-01
5.117853908459e-01
5.117852320483e-01
5.117852403461e-01
5.117850900744e-01
5.117850902830e-01
5.117849476895e-01
5.117849406132e-01
5.117848049345e-01
5.117847912978e-01
5.117846618464e-01
5.117846423017e-01
5.117845184585e-01
5.117844935934e-01
5.117843748008e-01
5.117843451444e-01
5.117842624463e-01
</dep>
