<Qucs Dataset 25.1.1>
<indep time 207>
0.000000000000e+00
5.025130000000e-08
1.005026000000e-07
2.010052000000e-07
4.020104000000e-07
8.040208000000e-07
1.608041600000e-06
3.216083200000e-06
6.432166400000e-06
1.145729640000e-05
1.648242640000e-05
2.150755640000e-05
2.653268640000e-05
3.155781640000e-05
3.658294640000e-05
4.160807640000e-05
4.663320640000e-05
5.165833640000e-05
5.668346640000e-05
6.170859640000e-05
6.673372640000e-05
7.175885640000e-05
7.678398640000e-05
8.180911640000e-05
8.683424640000e-05
9.185937640000e-05
9.688450640000e-05
1.019096364000e-04
1.069347664000e-04
1.119598964000e-04
1.169850264000e-04
1.220101564000e-04
1.270352864000e-04
1.320604164000e-04
1.370855464000e-04
1.421106764000e-04
1.471358064000e-04
1.521609364000e-04
1.571860664000e-04
1.622111964000e-04
1.672363264000e-04
1.722614564000e-04
1.772865864000e-04
1.823117164000e-04
1.873368464000e-04
1.923619764000e-04
1.973871064000e-04
2.024122364000e-04
2.074373664000e-04
2.124624964000e-04
2.174876264000e-04
2.225127564000e-04
2.275378864000e-04
2.325630164000e-04
2.375881464000e-04
2.426132764000e-04
2.476384064000e-04
2.526635364000e-04
2.576886664000e-04
2.627137964000e-04
2.677389264000e-04
2.727640564000e-04
2.777891864000e-04
2.828143164000e-04
2.878394464000e-04
2.928645764000e-04
2.978897064000e-04
3.029148364000e-04
3.079399664000e-04
3.129650964000e-04
3.179902264000e-04
3.230153564000e-04
3.280404864000e-04
3.330656164000e-04
3.380907464000e-04
3.431158764000e-04
3.481410064000e-04
3.531661364000e-04
3.581912664000e-04
3.632163964000e-04
3.682415264000e-04
3.732666564000e-04
3.782917864000e-04
3.833169164000e-04
3.883420464000e-04
3.933671764000e-04
3.983923064000e-04
4.034174364000e-04
4.084425664000e-04
4.134676964000e-04
4.184928264000e-04
4.235179564000e-04
4.285430864000e-04
4.335682164000e-04
4.385933464000e-04
4.436184764000e-04
4.486436064000e-04
4.536687364000e-04
4.586938664000e-04
4.637189964000e-04
4.687441264000e-04
4.737692564000e-04
4.787943864000e-04
4.838195164000e-04
4.888446464000e-04
4.938697764000e-04
4.988949064000e-04
5.039200364000e-04
5.089451664000e-04
5.139702964000e-04
5.189954264000e-04
5.240205564000e-04
5.290456864000e-04
5.340708164000e-04
5.390959464000e-04
5.441210764000e-04
5.491462064000e-04
5.541713364000e-04
5.591964664000e-04
5.642215964000e-04
5.692467264000e-04
5.742718564000e-04
5.792969864000e-04
5.843221164000e-04
5.893472464000e-04
5.943723764000e-04
5.993975064000e-04
6.044226364000e-04
6.094477664000e-04
6.144728964000e-04
6.194980264000e-04
6.245231564000e-04
6.295482864000e-04
6.345734164000e-04
6.395985464000e-04
6.446236764000e-04
6.496488064000e-04
6.546739364000e-04
6.596990664000e-04
6.647241964000e-04
6.697493264000e-04
6.747744564000e-04
6.797995864000e-04
6.848247164000e-04
6.898498464000e-04
6.948749764000e-04
6.999001064000e-04
7.049252364000e-04
7.099503664000e-04
7.149754964000e-04
7.200006264000e-04
7.250257564000e-04
7.300508864000e-04
7.350760164000e-04
7.401011464000e-04
7.451262764000e-04
7.501514064000e-04
7.551765364000e-04
7.602016664000e-04
7.652267964000e-04
7.702519264000e-04
7.752770564000e-04
7.803021864000e-04
7.853273164000e-04
7.903524464000e-04
7.953775764000e-04
8.004027064000e-04
8.054278364000e-04
8.104529664000e-04
8.154780964000e-04
8.205032264000e-04
8.255283564000e-04
8.305534864000e-04
8.355786164000e-04
8.406037464000e-04
8.456288764000e-04
8.506540064000e-04
8.556791364000e-04
8.607042664000e-04
8.657293964000e-04
8.707545264000e-04
8.757796564000e-04
8.808047864000e-04
8.858299164000e-04
8.908550464000e-04
8.958801764000e-04
9.009053064000e-04
9.059304364000e-04
9.109555664000e-04
9.159806964000e-04
9.210058264000e-04
9.260309564000e-04
9.310560864000e-04
9.360812164000e-04
9.411063464000e-04
9.461314764000e-04
9.511566064000e-04
9.561817364000e-04
9.612068664000e-04
9.662319964000e-04
9.712571264000e-04
9.762822564000e-04
9.813073864000e-04
9.863325164000e-04
9.913576464000e-04
9.963827764000e-04
1.000000000000e-03
</indep>
<dep tran.i(pr1) time>
1.208044832765e-03
1.208044835853e-03
1.208044835752e-03
1.208044835669e-03
1.208044835383e-03
1.208044835951e-03
1.208044835199e-03
1.208044836077e-03
1.208044835106e-03
1.208044836152e-03
1.208044835042e-03
1.208044836208e-03
1.208044834992e-03
1.208044836250e-03
1.208044834955e-03
1.208044836283e-03
1.208044834926e-03
1.208044836309e-03
1.208044834904e-03
1.208044836328e-03
1.208044834887e-03
1.208044836343e-03
1.208044834874e-03
1.208044836354e-03
1.208044834865e-03
1.208044836362e-03
1.208044834858e-03
1.208044836368e-03
1.208044834853e-03
1.208044836372e-03
1.208044834849e-03
1.208044836375e-03
1.208044834847e-03
1.208044836377e-03
1.208044834845e-03
1.208044836378e-03
1.208044834844e-03
1.208044836379e-03
1.208044834844e-03
1.208044836379e-03
1.208044834844e-03
1.208044836379e-03
1.208044834845e-03
1.208044836378e-03
1.208044834845e-03
1.208044836377e-03
1.208044834846e-03
1.208044836376e-03
1.208044834847e-03
1.208044836375e-03
1.208044834848e-03
1.208044836374e-03
1.208044834849e-03
1.208044836373e-03
1.208044834850e-03
1.208044836372e-03
1.208044834852e-03
1.208044836370e-03
1.208044834853e-03
1.208044836369e-03
1.208044834855e-03
1.208044836368e-03
1.208044834856e-03
1.208044836366e-03
1.208044834857e-03
1.208044836365e-03
1.208044834859e-03
1.208044836363e-03
1.208044834860e-03
1.208044836362e-03
1.208044834862e-03
1.208044836360e-03
1.208044834863e-03
1.208044836359e-03
1.208044834865e-03
1.208044836357e-03
1.208044834866e-03
1.208044836356e-03
1.208044834868e-03
1.208044836355e-03
1.208044834869e-03
1.208044836353e-03
1.208044834870e-03
1.208044836352e-03
1.208044834872e-03
1.208044836350e-03
1.208044834873e-03
1.208044836349e-03
1.208044834875e-03
1.208044836347e-03
1.208044834876e-03
1.208044836346e-03
1.208044834878e-03
1.208044836344e-03
1.208044834879e-03
1.208044836343e-03
1.208044834881e-03
1.208044836341e-03
1.208044834882e-03
1.208044836340e-03
1.208044834884e-03
1.208044836339e-03
1.208044834885e-03
1.208044836337e-03
1.208044834886e-03
1.208044836336e-03
1.208044834888e-03
1.208044836334e-03
1.208044834889e-03
1.208044836333e-03
1.208044834891e-03
1.208044836331e-03
1.208044834892e-03
1.208044836330e-03
1.208044834894e-03
1.208044836328e-03
1.208044834895e-03
1.208044836327e-03
1.208044834896e-03
1.208044836326e-03
1.208044834898e-03
1.208044836324e-03
1.208044834899e-03
1.208044836323e-03
1.208044834901e-03
1.208044836322e-03
1.208044834902e-03
1.208044836320e-03
1.208044834903e-03
1.208044836319e-03
1.208044834905e-03
1.208044836317e-03
1.208044834906e-03
1.208044836316e-03
1.208044834908e-03
1.208044836314e-03
1.208044834909e-03
1.208044836313e-03
1.208044834911e-03
1.208044836312e-03
1.208044834912e-03
1.208044836310e-03
1.208044834913e-03
1.208044836309e-03
1.208044834915e-03
1.208044836307e-03
1.208044834916e-03
1.208044836306e-03
1.208044834917e-03
1.208044836305e-03
1.208044834919e-03
1.208044836303e-03
1.208044834920e-03
1.208044836302e-03
1.208044834921e-03
1.208044836301e-03
1.208044834923e-03
1.208044836299e-03
1.208044834924e-03
1.208044836298e-03
1.208044834926e-03
1.208044836296e-03
1.208044834927e-03
1.208044836295e-03
1.208044834928e-03
1.208044836294e-03
1.208044834930e-03
1.208044836293e-03
1.208044834931e-03
1.208044836291e-03
1.208044834932e-03
1.208044836290e-03
1.208044834934e-03
1.208044836288e-03
1.208044834935e-03
1.208044836287e-03
1.208044834936e-03
1.208044836286e-03
1.208044834938e-03
1.208044836284e-03
1.208044834939e-03
1.208044836283e-03
1.208044834940e-03
1.208044836282e-03
1.208044834942e-03
1.208044836280e-03
1.208044834943e-03
1.208044836279e-03
1.208044834945e-03
1.208044836278e-03
1.208044834946e-03
1.208044836276e-03
1.208044834947e-03
1.208044836275e-03
1.208044834948e-03
1.208044836274e-03
1.208044834950e-03
1.208044836272e-03
1.208044834951e-03
1.208044836271e-03
1.208044834952e-03
1.208044836270e-03
1.208044834954e-03
1.208044836268e-03
1.208044834955e-03
1.208044836267e-03
1.208044834957e-03
</dep>
<dep tran.i(pr2) time>
1.206092035963e-03
1.206092035943e-03
1.206092035980e-03
1.206092035931e-03
1.206092036001e-03
1.206092035922e-03
1.206092036005e-03
1.206092035920e-03
1.206092036006e-03
1.206092035920e-03
1.206092036006e-03
1.206092035919e-03
1.206092036006e-03
1.206092035919e-03
1.206092036006e-03
1.206092035919e-03
1.206092036006e-03
1.206092035919e-03
1.206092036006e-03
1.206092035919e-03
1.206092036006e-03
1.206092035919e-03
1.206092036006e-03
1.206092035919e-03
1.206092036006e-03
1.206092035919e-03
1.206092036006e-03
1.206092035919e-03
1.206092036006e-03
1.206092035919e-03
1.206092036006e-03
1.206092035919e-03
1.206092036006e-03
1.206092035919e-03
1.206092036006e-03
1.206092035920e-03
1.206092036006e-03
1.206092035920e-03
1.206092036006e-03
1.206092035920e-03
1.206092036006e-03
1.206092035920e-03
1.206092036006e-03
1.206092035920e-03
1.206092036006e-03
1.206092035920e-03
1.206092036006e-03
1.206092035920e-03
1.206092036005e-03
1.206092035920e-03
1.206092036005e-03
1.206092035920e-03
1.206092036005e-03
1.206092035920e-03
1.206092036005e-03
1.206092035920e-03
1.206092036005e-03
1.206092035920e-03
1.206092036005e-03
1.206092035920e-03
1.206092036005e-03
1.206092035921e-03
1.206092036005e-03
1.206092035921e-03
1.206092036005e-03
1.206092035921e-03
1.206092036005e-03
1.206092035921e-03
1.206092036005e-03
1.206092035921e-03
1.206092036005e-03
1.206092035921e-03
1.206092036005e-03
1.206092035921e-03
1.206092036004e-03
1.206092035921e-03
1.206092036004e-03
1.206092035921e-03
1.206092036004e-03
1.206092035921e-03
1.206092036004e-03
1.206092035921e-03
1.206092036004e-03
1.206092035921e-03
1.206092036004e-03
1.206092035922e-03
1.206092036004e-03
1.206092035922e-03
1.206092036004e-03
1.206092035922e-03
1.206092036004e-03
1.206092035922e-03
1.206092036004e-03
1.206092035922e-03
1.206092036004e-03
1.206092035922e-03
1.206092036004e-03
1.206092035922e-03
1.206092036003e-03
1.206092035922e-03
1.206092036003e-03
1.206092035922e-03
1.206092036003e-03
1.206092035922e-03
1.206092036003e-03
1.206092035922e-03
1.206092036003e-03
1.206092035922e-03
1.206092036003e-03
1.206092035922e-03
1.206092036003e-03
1.206092035923e-03
1.206092036003e-03
1.206092035923e-03
1.206092036003e-03
1.206092035923e-03
1.206092036003e-03
1.206092035923e-03
1.206092036003e-03
1.206092035923e-03
1.206092036003e-03
1.206092035923e-03
1.206092036003e-03
1.206092035923e-03
1.206092036003e-03
1.206092035923e-03
1.206092036002e-03
1.206092035923e-03
1.206092036002e-03
1.206092035923e-03
1.206092036002e-03
1.206092035923e-03
1.206092036002e-03
1.206092035923e-03
1.206092036002e-03
1.206092035923e-03
1.206092036002e-03
1.206092035923e-03
1.206092036002e-03
1.206092035924e-03
1.206092036002e-03
1.206092035924e-03
1.206092036002e-03
1.206092035924e-03
1.206092036002e-03
1.206092035924e-03
1.206092036002e-03
1.206092035924e-03
1.206092036002e-03
1.206092035924e-03
1.206092036002e-03
1.206092035924e-03
1.206092036002e-03
1.206092035924e-03
1.206092036001e-03
1.206092035924e-03
1.206092036001e-03
1.206092035924e-03
1.206092036001e-03
1.206092035924e-03
1.206092036001e-03
1.206092035924e-03
1.206092036001e-03
1.206092035924e-03
1.206092036001e-03
1.206092035925e-03
1.206092036001e-03
1.206092035925e-03
1.206092036001e-03
1.206092035925e-03
1.206092036001e-03
1.206092035925e-03
1.206092036001e-03
1.206092035925e-03
1.206092036001e-03
1.206092035925e-03
1.206092036001e-03
1.206092035925e-03
1.206092036001e-03
1.206092035925e-03
1.206092036001e-03
1.206092035925e-03
1.206092036000e-03
1.206092035925e-03
1.206092036000e-03
1.206092035925e-03
1.206092036000e-03
1.206092035925e-03
1.206092036000e-03
1.206092035925e-03
1.206092036000e-03
1.206092035925e-03
1.206092036000e-03
1.206092035926e-03
1.206092036000e-03
1.206092035926e-03
1.206092036000e-03
1.206092035926e-03
1.206092036000e-03
1.206092035926e-03
1.206092036000e-03
1.206092035926e-03
1.206092036000e-03
1.206092035926e-03
1.206092036000e-03
1.206092035926e-03
1.206092036000e-03
</dep>
