<Qucs Dataset 25.1.1>
<indep time 207>
0.000000000000e+00
5.025130000000e-08
1.005026000000e-07
2.010052000000e-07
4.020104000000e-07
8.040208000000e-07
1.608041600000e-06
3.216083200000e-06
6.432166400000e-06
1.145729640000e-05
1.648242640000e-05
2.150755640000e-05
2.653268640000e-05
3.155781640000e-05
3.658294640000e-05
4.160807640000e-05
4.663320640000e-05
5.165833640000e-05
5.668346640000e-05
6.170859640000e-05
6.673372640000e-05
7.175885640000e-05
7.678398640000e-05
8.180911640000e-05
8.683424640000e-05
9.185937640000e-05
9.688450640000e-05
1.019096364000e-04
1.069347664000e-04
1.119598964000e-04
1.169850264000e-04
1.220101564000e-04
1.270352864000e-04
1.320604164000e-04
1.370855464000e-04
1.421106764000e-04
1.471358064000e-04
1.521609364000e-04
1.571860664000e-04
1.622111964000e-04
1.672363264000e-04
1.722614564000e-04
1.772865864000e-04
1.823117164000e-04
1.873368464000e-04
1.923619764000e-04
1.973871064000e-04
2.024122364000e-04
2.074373664000e-04
2.124624964000e-04
2.174876264000e-04
2.225127564000e-04
2.275378864000e-04
2.325630164000e-04
2.375881464000e-04
2.426132764000e-04
2.476384064000e-04
2.526635364000e-04
2.576886664000e-04
2.627137964000e-04
2.677389264000e-04
2.727640564000e-04
2.777891864000e-04
2.828143164000e-04
2.878394464000e-04
2.928645764000e-04
2.978897064000e-04
3.029148364000e-04
3.079399664000e-04
3.129650964000e-04
3.179902264000e-04
3.230153564000e-04
3.280404864000e-04
3.330656164000e-04
3.380907464000e-04
3.431158764000e-04
3.481410064000e-04
3.531661364000e-04
3.581912664000e-04
3.632163964000e-04
3.682415264000e-04
3.732666564000e-04
3.782917864000e-04
3.833169164000e-04
3.883420464000e-04
3.933671764000e-04
3.983923064000e-04
4.034174364000e-04
4.084425664000e-04
4.134676964000e-04
4.184928264000e-04
4.235179564000e-04
4.285430864000e-04
4.335682164000e-04
4.385933464000e-04
4.436184764000e-04
4.486436064000e-04
4.536687364000e-04
4.586938664000e-04
4.637189964000e-04
4.687441264000e-04
4.737692564000e-04
4.787943864000e-04
4.838195164000e-04
4.888446464000e-04
4.938697764000e-04
4.988949064000e-04
5.039200364000e-04
5.089451664000e-04
5.139702964000e-04
5.189954264000e-04
5.240205564000e-04
5.290456864000e-04
5.340708164000e-04
5.390959464000e-04
5.441210764000e-04
5.491462064000e-04
5.541713364000e-04
5.591964664000e-04
5.642215964000e-04
5.692467264000e-04
5.742718564000e-04
5.792969864000e-04
5.843221164000e-04
5.893472464000e-04
5.943723764000e-04
5.993975064000e-04
6.044226364000e-04
6.094477664000e-04
6.144728964000e-04
6.194980264000e-04
6.245231564000e-04
6.295482864000e-04
6.345734164000e-04
6.395985464000e-04
6.446236764000e-04
6.496488064000e-04
6.546739364000e-04
6.596990664000e-04
6.647241964000e-04
6.697493264000e-04
6.747744564000e-04
6.797995864000e-04
6.848247164000e-04
6.898498464000e-04
6.948749764000e-04
6.999001064000e-04
7.049252364000e-04
7.099503664000e-04
7.149754964000e-04
7.200006264000e-04
7.250257564000e-04
7.300508864000e-04
7.350760164000e-04
7.401011464000e-04
7.451262764000e-04
7.501514064000e-04
7.551765364000e-04
7.602016664000e-04
7.652267964000e-04
7.702519264000e-04
7.752770564000e-04
7.803021864000e-04
7.853273164000e-04
7.903524464000e-04
7.953775764000e-04
8.004027064000e-04
8.054278364000e-04
8.104529664000e-04
8.154780964000e-04
8.205032264000e-04
8.255283564000e-04
8.305534864000e-04
8.355786164000e-04
8.406037464000e-04
8.456288764000e-04
8.506540064000e-04
8.556791364000e-04
8.607042664000e-04
8.657293964000e-04
8.707545264000e-04
8.757796564000e-04
8.808047864000e-04
8.858299164000e-04
8.908550464000e-04
8.958801764000e-04
9.009053064000e-04
9.059304364000e-04
9.109555664000e-04
9.159806964000e-04
9.210058264000e-04
9.260309564000e-04
9.310560864000e-04
9.360812164000e-04
9.411063464000e-04
9.461314764000e-04
9.511566064000e-04
9.561817364000e-04
9.612068664000e-04
9.662319964000e-04
9.712571264000e-04
9.762822564000e-04
9.813073864000e-04
9.863325164000e-04
9.913576464000e-04
9.963827764000e-04
1.000000000000e-03
</indep>
<dep tran.v(vn) time>
0.000000000000e+00
1.578690493380e-03
3.157377052246e-03
6.314722628427e-03
1.262919345022e-02
2.525637250762e-02
5.049663180042e-02
1.008644195558e-01
2.007000584146e-01
3.522195594556e-01
4.949790293701e-01
6.254279061109e-01
7.403218036410e-01
8.368032028602e-01
9.124725207878e-01
9.654477904446e-01
9.944114671381e-01
9.986431970363e-01
9.780377330436e-01
9.331075523950e-01
8.649701108663e-01
7.753200505993e-01
6.663870527613e-01
5.408803832807e-01
4.019215108599e-01
2.529664731183e-01
9.771992169149e-02
-5.995701593253e-02
-2.161427662794e-01
-3.669528431023e-01
-5.086364582020e-01
-6.376698070506e-01
-7.508437091187e-01
-8.453434232081e-01
-9.188186527080e-01
-9.694419996780e-01
-9.959544139511e-01
-9.976965068931e-01
-9.746249510169e-01
-9.273135575779e-01
-8.569390053496e-01
-7.652515755172e-01
-6.545316205420e-01
-5.275328496539e-01
-3.874138415184e-01
-2.376594874191e-01
-8.199431874010e-02
7.571012562673e-02
2.315315880884e-01
3.815946425799e-01
5.221670800486e-01
6.497527319977e-01
7.611784234787e-01
8.536728929321e-01
9.249357160637e-01
9.731945195568e-01
9.972490616606e-01
9.965010833292e-01
9.709691874860e-01
9.212883763512e-01
8.486942583410e-01
7.549923173255e-01
6.425130085502e-01
5.140537980261e-01
3.728095869234e-01
2.222932513800e-01
6.624827397374e-02
-9.144436020369e-02
-2.468626872899e-01
-3.961413075751e-01
-5.355675216219e-01
-6.616736685860e-01
-7.713233701972e-01
-8.617895354312e-01
-9.308221858241e-01
-9.767044145490e-01
-9.982950875009e-01
-9.950572243729e-01
-9.670713538608e-01
-9.150335108390e-01
-8.402379253194e-01
-7.445448337360e-01
-6.303342131184e-01
-5.004465888285e-01
-3.581123880279e-01
-2.068715959217e-01
-5.048571300262e-02
1.071557969976e-01
2.621322417228e-01
4.105892114923e-01
5.488344420885e-01
6.734296448344e-01
7.812760200608e-01
8.696913271639e-01
9.364765944468e-01
9.799708096107e-01
9.990922306897e-01
9.933652899892e-01
9.629324219013e-01
9.085505204274e-01
8.315721145138e-01
7.339117293871e-01
6.179982705142e-01
4.867146144433e-01
3.433259089570e-01
1.913983657819e-01
3.471056555454e-02
-1.228405190263e-01
-2.773364445695e-01
-4.249347523578e-01
-5.619645339031e-01
-6.850177298873e-01
-7.910338917973e-01
-8.773762981527e-01
-9.418975322443e-01
-9.829928904044e-01
-9.996402924930e-01
-9.914257019905e-01
-9.585534234751e-01
-9.018410213758e-01
-8.226989863775e-01
-7.230956551933e-01
-6.055082561830e-01
-4.728612983573e-01
-3.284538360935e-01
-1.758774185557e-01
-1.892676449522e-02
1.384946159678e-01
2.924715053054e-01
4.391743537179e-01
5.749545236326e-01
6.964350347460e-01
8.005945526942e-01
8.848425324751e-01
9.470836477351e-01
9.857699035022e-01
9.999391362748e-01
9.892389439310e-01
9.539354503002e-01
8.949066864140e-01
8.136207530496e-01
7.120993076854e-01
5.928672839815e-01
4.588900943089e-01
3.134998771598e-01
1.603126237351e-01
3.138244847791e-03
-1.541141851352e-01
-3.075336506431e-01
-4.533044655302e-01
-5.878011727726e-01
-7.076787129885e-01
-8.099556192050e-01
-8.920881687415e-01
-9.520336479805e-01
-9.883011565733e-01
-9.999886875311e-01
-9.868055609863e-01
-9.490796536729e-01
-8.877492443251e-01
-8.043396778037e-01
-7.009254283374e-01
-5.800785054014e-01
-4.448044854268e-01
-2.984677602930e-01
-1.447078617430e-01
1.265105718825e-02
1.696953324497e-01
3.225191254739e-01
4.673215650491e-01
6.005012785546e-01
7.187459614791e-01
8.191147575439e-01
8.991114005590e-01
9.567462989075e-01
9.905860185567e-01
9.997889339084e-01
9.841261598175e-01
9.439872441807e-01
8.803704795146e-01
7.948580744832e-01
6.895768028834e-01
5.671451087837e-01
4.306079833619e-01
2.833612331156e-01
1.290670229668e-01
-2.843720521832e-02
-1.852341734113e-01
-3.374241938036e-01
-4.812221577038e-01
-6.130516747443e-01
-7.296340210677e-01
-8.280696842671e-01
-9.059104769818e-01
-9.612204256159e-01
-9.926239198190e-01
-9.993399252067e-01
-9.812014084199e-01
-9.386594914004e-01
-8.727722315652e-01
-7.851783069249e-01
-6.780562606233e-01
-5.540703185238e-01
-4.163041274113e-01
-2.681840618011e-01
-1.133940067881e-01
-1.224646799147e-15
</dep>
<dep tran.v(vp) time>
0.000000000000e+00
1.578690493380e-03
3.157377052246e-03
6.314722628427e-03
1.262919345022e-02
2.525637250762e-02
5.049663180042e-02
1.008644195558e-01
2.007000584146e-01
3.522195594556e-01
4.949790293701e-01
6.254279061109e-01
7.403218036410e-01
8.368032028602e-01
9.124725207878e-01
9.654477904446e-01
9.944114671381e-01
9.986431970363e-01
9.780377330436e-01
9.331075523950e-01
8.649701108663e-01
7.753200505993e-01
6.663870527613e-01
5.408803832807e-01
4.019215108599e-01
2.529664731183e-01
9.771992169149e-02
-5.995701593253e-02
-2.161427662794e-01
-3.669528431023e-01
-5.086364582020e-01
-6.376698070506e-01
-7.508437091187e-01
-8.453434232081e-01
-9.188186527080e-01
-9.694419996780e-01
-9.959544139511e-01
-9.976965068931e-01
-9.746249510169e-01
-9.273135575779e-01
-8.569390053496e-01
-7.652515755172e-01
-6.545316205420e-01
-5.275328496539e-01
-3.874138415184e-01
-2.376594874191e-01
-8.199431874010e-02
7.571012562673e-02
2.315315880884e-01
3.815946425799e-01
5.221670800486e-01
6.497527319977e-01
7.611784234787e-01
8.536728929321e-01
9.249357160637e-01
9.731945195568e-01
9.972490616606e-01
9.965010833292e-01
9.709691874860e-01
9.212883763512e-01
8.486942583410e-01
7.549923173255e-01
6.425130085502e-01
5.140537980261e-01
3.728095869234e-01
2.222932513800e-01
6.624827397374e-02
-9.144436020369e-02
-2.468626872899e-01
-3.961413075751e-01
-5.355675216219e-01
-6.616736685860e-01
-7.713233701972e-01
-8.617895354312e-01
-9.308221858241e-01
-9.767044145490e-01
-9.982950875009e-01
-9.950572243729e-01
-9.670713538608e-01
-9.150335108390e-01
-8.402379253194e-01
-7.445448337360e-01
-6.303342131184e-01
-5.004465888285e-01
-3.581123880279e-01
-2.068715959217e-01
-5.048571300262e-02
1.071557969976e-01
2.621322417228e-01
4.105892114923e-01
5.488344420885e-01
6.734296448344e-01
7.812760200608e-01
8.696913271639e-01
9.364765944468e-01
9.799708096107e-01
9.990922306897e-01
9.933652899892e-01
9.629324219013e-01
9.085505204274e-01
8.315721145138e-01
7.339117293871e-01
6.179982705142e-01
4.867146144433e-01
3.433259089570e-01
1.913983657819e-01
3.471056555454e-02
-1.228405190263e-01
-2.773364445695e-01
-4.249347523578e-01
-5.619645339031e-01
-6.850177298873e-01
-7.910338917973e-01
-8.773762981527e-01
-9.418975322443e-01
-9.829928904044e-01
-9.996402924930e-01
-9.914257019905e-01
-9.585534234751e-01
-9.018410213758e-01
-8.226989863775e-01
-7.230956551933e-01
-6.055082561830e-01
-4.728612983573e-01
-3.284538360935e-01
-1.758774185557e-01
-1.892676449522e-02
1.384946159678e-01
2.924715053054e-01
4.391743537179e-01
5.749545236326e-01
6.964350347460e-01
8.005945526942e-01
8.848425324751e-01
9.470836477351e-01
9.857699035022e-01
9.999391362748e-01
9.892389439310e-01
9.539354503002e-01
8.949066864140e-01
8.136207530496e-01
7.120993076854e-01
5.928672839815e-01
4.588900943089e-01
3.134998771598e-01
1.603126237351e-01
3.138244847791e-03
-1.541141851352e-01
-3.075336506431e-01
-4.533044655302e-01
-5.878011727726e-01
-7.076787129885e-01
-8.099556192050e-01
-8.920881687415e-01
-9.520336479805e-01
-9.883011565733e-01
-9.999886875311e-01
-9.868055609863e-01
-9.490796536729e-01
-8.877492443251e-01
-8.043396778037e-01
-7.009254283374e-01
-5.800785054014e-01
-4.448044854268e-01
-2.984677602930e-01
-1.447078617430e-01
1.265105718825e-02
1.696953324497e-01
3.225191254739e-01
4.673215650491e-01
6.005012785546e-01
7.187459614791e-01
8.191147575439e-01
8.991114005590e-01
9.567462989075e-01
9.905860185567e-01
9.997889339084e-01
9.841261598175e-01
9.439872441807e-01
8.803704795146e-01
7.948580744832e-01
6.895768028834e-01
5.671451087837e-01
4.306079833619e-01
2.833612331156e-01
1.290670229668e-01
-2.843720521832e-02
-1.852341734113e-01
-3.374241938036e-01
-4.812221577038e-01
-6.130516747443e-01
-7.296340210677e-01
-8.280696842671e-01
-9.059104769818e-01
-9.612204256159e-01
-9.926239198190e-01
-9.993399252067e-01
-9.812014084199e-01
-9.386594914004e-01
-8.727722315652e-01
-7.851783069249e-01
-6.780562606233e-01
-5.540703185238e-01
-4.163041274113e-01
-2.681840618011e-01
-1.133940067881e-01
-1.224646799147e-15
</dep>
