#   Hz   S  RI   R   50
!
0.0 -0.9330299334671296 0.0
50000000.0 -0.9328418730660509 0.01936323140878893
100000000.0 -0.9322775334412273 0.03871959618458883
150000000.0 -0.9313364445011266 0.05806214591926078
200000000.0 -0.9300178400190382 0.07738376945474204
250000000.0 -0.9283206835714639 0.09667711353642623
300000000.0 -0.9262437049395597 0.1159345059764604
350000000.0 -0.9237854470343901 0.13514788228760477
400000000.0 -0.9209443233854714 0.15430871684939562
450000000.0 -0.9177186861817375 0.17340795978785759
500000000.0 -0.9141069047682628 0.19243598088277092
550000000.0 -0.9101074543747179 0.21138252195584603
600000000.0 -0.9057190146772022 0.2302366593306464
650000000.0 -0.9009405775693355 0.2489867780804343
700000000.0 -0.8957715632384156 0.2676205598809464
750000000.0 -0.890211943307473 0.2861249863471805
800000000.0 -0.884262369416431 0.304486359740549
850000000.0 -0.8779243051814221 0.3226903428679307
900000000.0 -0.8712001590013807 0.3407220198393029
950000000.0 -0.8640934146912576 0.3585659790884015
1000000000.0 -0.8566087564335766 0.37620641967571883
1050000000.0 -0.8487521840825047 0.39362728137332914
1100000000.0 -0.8405311144609162 0.4108123983703828
1150000000.0 -0.8319544639997345 0.4277456756385084
1200000000.0 -0.8230327079219225 0.4444112860696274
1250000000.0 -0.8137779112133415 0.4607938854687802
1300000000.0 -0.8042037268889496 0.4768788413885325
1350000000.0 -0.7943253575883197 0.49265247068018125
1400000000.0 -0.7841594773406169 0.5081022795736021
1450000000.0 -0.7737241114313017 0.5232171991556701
1500000000.0 -0.7630384736661404 0.5379878083761195
1550000000.0 -0.7521227619246972 0.5524065362488384
1600000000.0 -0.7409979146630824 0.5664678348083236
1650000000.0 -0.7296853328791448 0.5801683146826344
1700000000.0 -0.7182065738880105 0.5935068358903728
1750000000.0 -0.7065830249549818 0.6064845476653415
1800000000.0 -0.694835566275941 0.6191048727301632
1850000000.0 -0.6829842338694183 0.6313734334157656
1900000000.0 -0.6710478935546242 0.6432979192609471
1950000000.0 -0.6590439372697946 0.6548878981021157
2000000000.0 -0.6469880125055989 0.6661545750375845
2050000000.0 -0.6348937946004106 0.6771105058779566
2100000000.0 -0.6227728101206131 0.687769273636541
2150000000.0 -0.6106343176194113 0.6981451381540015
2200000000.0 -0.598485249850335 0.70825267000304
2250000000.0 -0.586330219142893 0.7181063803329881
2300000000.0 -0.5741715852688023 0.7277203582825893
2350000000.0 -0.5620095828714164 0.7371079270428449
2400000000.0 -0.5498425035132494 0.7462813286550133
2450000000.0 -0.5376669257049018 0.7552514462712243
2500000000.0 -0.5254779849697205 0.7640275709908765
2550000000.0 -0.5132696750961417 0.7726172186235343
2600000000.0 -0.5010351712278508 0.7810259999212369
2650000000.0 -0.48876716530954145 0.7892575460594465
2700000000.0 -0.47645820459405247 0.7973134894971313
2750000000.0 -0.4641010243652208 0.8051934988621394
2800000000.0 -0.4516888666769536 0.8128953652163032
2850000000.0 -0.43921577769282943 0.8204151359646839
2900000000.0 -0.4266768770800591 0.8277472917785542
2950000000.0 -0.4140685938259817 0.8348849611848576
3000000000.0 -0.40138886377595256 0.8418201669127328
3050000000.0 -0.38863728512231266 0.8485440976556683
3100000000.0 -0.37581522899941316 0.8550473985840057
3150000000.0 -0.36292590326184176 0.8613204737106886
3200000000.0 -0.3499743684493294 0.8673537930645568
3250000000.0 -0.3369675058809794 0.8731381975599024
3300000000.0 -0.32391393878019586 0.8786651944758868
3350000000.0 -0.3108239083119068 0.8839272365887755
3400000000.0 -0.29770910740999157 0.8889179782520313
3450000000.0 -0.2845824762713728 0.8936325021134737
3500000000.0 -0.27145796437096426 0.8980675107124824
3550000000.0 -0.25835026477725564 0.9022214779257774
3600000000.0 -0.24527452738362285 0.9060947561315016
3650000000.0 -0.2322460583734162 0.9096896360314659
3700000000.0 -0.21928001376464307 0.9130103572914842
3750000000.0 -0.2063910951931229 0.9160630694982906
3800000000.0 -0.19359325615869336 0.9188557443453516
3850000000.0 -0.18089942675565573 0.9213980413961543
3900000000.0 -0.16832126442764572 0.9237011311729902
3950000000.0 -0.15586893753554956 0.9257774806200918
4000000000.0 -0.14355094752759234 0.9276406071325263
4050000000.0 -0.13137399429095217 0.9293048082731985
4100000000.0 -0.11934288789454357 0.9307848749769043
4150000000.0 -0.1074605084624799 0.9320957964335777
4200000000.0 -0.09572781441203734 0.9332524649391944
4250000000.0 -0.08414389781396073 0.934269388805383
4300000000.0 -0.07270608424832291 0.935160420946033
4350000000.0 -0.06141007328955932 0.935938510043619
4400000000.0 -0.05025011470271186 0.9366154802822974
4450000000.0 -0.03921921459937174 0.9372018445693079
4500000000.0 -0.02830936520276414 0.9377066550039869
4550000000.0 -0.01751179151002609 0.9381373931474547
4600000000.0 -0.0068172080072475254 0.9384999014447125
4650000000.0 0.0037839213291692934 0.9387983559968669
4700000000.0 0.014301126248551689 0.9390352798088899
4750000000.0 0.024743682745628572 0.9392115946731188
4800000000.0 0.03512038042956884 0.9393267090070472
4850000000.0 0.045439309655760436 0.9393786382542099
4900000000.0 0.05570767263802477 0.9393641538804188
4950000000.0 0.06593162202483852 0.9392789565503095
5000000000.0 0.07611612967094959 0.9391178687435563
5050000000.0 0.08626488758125143 0.9388750418566242
5100000000.0 0.0963802422586 0.9385441727246762
5150000000.0 0.10646316295939126 0.9381187244799003
5200000000.0 0.11651324365580872 0.9375921467294925
5250000000.0 0.1265287378257556 0.9369580901828369
5300000000.0 0.13650662454434476 0.9362106110793827
5350000000.0 0.1464427037386911 0.9353443610638937
5400000000.0 0.15633171789617703 0.9343547585229026
5450000000.0 0.16616749699252445 0.9332381378340863
5500000000.0 0.17594312293899025 0.9319918734870514
5550000000.0 0.18565110944837707 0.930614476605993
5600000000.0 0.19528359289904015 0.9291056620359084
5650000000.0 0.2048325295466396 0.9274663848354012
5700000000.0 0.21428989430630369 0.9256988457382234
5750000000.0 0.22364787631268035 0.9238064658867787
5800000000.0 0.2328990665687082 0.9217938318851508
5850000000.0 0.24203663321884836 0.9196666129457531
5900000000.0 0.2510544803272617 0.9174314525900489
5950000000.0 0.2599473864996155 0.9150958379874073
6000000000.0 0.2687111202471524 0.9126679505556726
6050000000.0 0.27734252963713946 0.9101565018834449
6100000000.0 0.28583960448436313 0.9075705593520809
6150000000.0 0.2942015100904605 0.9049193660243846
6200000000.0 0.30242859230616936 0.9022121594213256
6250000000.0 0.31052235444998955 0.8994579937282372
6300000000.0 0.31848540734024267 0.8966655697634407
6350000000.0 0.32632139436301033 0.893843076716021
6400000000.0 0.33403489408617515 0.8909980492307426
6450000000.0 0.3416313034241857 0.8881372429054647
6500000000.0 0.34911670474809564 0.8852665306906354
6550000000.0 0.35649772061478485 0.8823908220633805
6600000000.0 0.36378135995654065 0.8795140062119319
6650000000.0 0.3709748596301958 0.8766389198301725
6700000000.0 0.378085525180312 0.8737673395052007
6750000000.0 0.38512057453287135 0.8708999980988528
6800000000.0 0.3920869881160322 0.868036623989692
6850000000.0 0.3989913686154026 0.8651760015647041
6900000000.0 0.405839813226034 0.8623160509363369
6950000000.0 0.41263780087474505 0.8594539245144038
7000000000.0 0.4193900964665585 0.8565861177852272
7050000000.0 0.4261006737688977 0.853708591441823
7100000000.0 0.43277265809644316 0.8508169018672318
7150000000.0 0.4394082895066176 0.847906336895644
7200000000.0 0.4460089067677496 0.8449720537596968
7250000000.0 0.45257495192526787 0.8420092161739225
7300000000.0 0.4591059948713468 0.8390131276005638
7350000000.0 0.4656007769251991 0.8359793578916654
7400000000.0 0.47205727205955145 0.8329038606973859
7450000000.0 0.47847276406843753 0.8297830792715929
7500000000.0 0.48484393766717604 0.8266140385887413
7550000000.0 0.49116698125215935 0.8233944220066677
7600000000.0 0.4974376988308855 0.8201226310639036
7650000000.0 0.5036516284662763 0.816797827381759
7700000000.0 0.5098041644683201 0.813419956044429
7750000000.0 0.5158906805141091 0.8099897502470857
7800000000.0 0.5219066508873764 0.8065087174238187
7850000000.0 0.5278477671019738 0.8029791074849247
7900000000.0 0.5337100473104132 0.7994038641963904
7950000000.0 0.5394899360964983 0.7957865611130974
8000000000.0 0.5451843925063887 0.7921313238211874
8050000000.0 0.5507909644791723 0.7884427405444553
8100000000.0 0.5563078481884269 0.7847257634162058
8150000000.0 0.5617339311908781 0.7809856029044957
8200000000.0 0.5670688186863146 0.7772276180000254
8250000000.0 0.5723128426127847 0.7734572048289999
8300000000.0 0.5774670537206912 0.769679686337337
8350000000.0 0.5825331971767408 0.7659002056091935
8400000000.0 0.5875136726325239 0.7621236252357995
8450000000.0 0.5924114800424053 0.7583544349458455
8500000000.0 0.5972301528227754 0.7545966694538098
8550000000.0 0.6019736802023781 0.7508538381865694
8600000000.0 0.6066464208164267 0.7471288682212354
8650000000.0 0.6112530097424954 0.7434240614186912
8700000000.0 0.6157982612627318 0.7397410663780878
8750000000.0 0.620287069665569 0.736080865477403
8800000000.0 0.6247243103733828 0.7324437769133233
8850000000.0 0.6291147436042583 0.7288294713182213
8900000000.0 0.6334629226511234 0.7252370022199458
8950000000.0 0.6377731086957289 0.72166484932717
9000000000.0 0.6420491938743554 0.7181109733736615
9050000000.0 0.6462946340831174 0.7145728810422357
9100000000.0 0.6505123927595776 0.7110476983155184
9150000000.0 0.6547048966101895 0.7075322504670878
9200000000.0 0.6588740039756792 0.7040231468134902
9250000000.0 0.6630209862442494 0.7005168682946982
9300000000.0 0.6671465224405285 0.6970098559369586
9350000000.0 0.6712507068411764 0.693498598276492
9400000000.0 0.6753330692003882 0.689979715883462
9450000000.0 0.6793926069142876 0.6864500412213025
9500000000.0 0.6834278282163313 0.6829066922045774
9550000000.0 0.6874368052800063 0.6793471379767178
9600000000.0 0.6914172359138708 0.675769255614333
9650000000.0 0.6953665123706922 0.6721713766741767
9700000000.0 0.6992817956601439 0.668552322728614
9750000000.0 0.7031600936560043 0.6649114292814384
9800000000.0 0.7069983412263694 0.6612485577135688
9850000000.0 0.7107934805907643 0.6575640951723751
9900000000.0 0.7145425401222715 0.6538589425837439
9950000000.0 0.7182427098661663 0.6501344912266623
10000000000.0 0.7218914121382842 0.6463925885601621
10050000000.0 0.7254863656948531 0.6426354942259819
10100000000.0 0.7290256421280161 0.638865827361573
10150000000.0 0.7325077133341379 0.6350865065417546
10200000000.0 0.7359314891204346 0.6313006838187796
10250000000.0 0.7392963442541877 0.6275116744459257
10300000000.0 0.7426021345114924 0.6237228839461157
10350000000.0 0.7458492015427354 0.6199377342227963
10400000000.0 0.7490383666328357 0.6161595904047764
10450000000.0 0.7521709136890674 0.6123916900706794
10500000000.0 0.7552485620314233 0.6086370764139489
10550000000.0 0.7582734297840001 0.6048985367889778
10600000000.0 0.7612479888654915 0.6011785479268383
10650000000.0 0.7641750127480893 0.5974792289300691
10700000000.0 0.7670575182935236 0.5938023029553346
10750000000.0 0.769898703080136 0.5901490682762778
10800000000.0 0.7727018797045081 0.5865203791924167
10850000000.0 0.7754704085749224 0.5829166370193286
10900000000.0 0.778207630712466 0.5793377911662609
10950000000.0 0.780916802040443 0.5757833500849032
11000000000.0 0.7836010305761729 0.5722524016621049
11050000000.0 0.7862632178440231 0.5687436424339262
11100000000.0 0.7889060057080046 0.5652554148221002
11150000000.0 0.7915317296799474 0.5617857514395468
11200000000.0 0.7941423795990108 0.5583324253812711
11250000000.0 0.7967395684038981 0.5548930053123763
11300000000.0 0.7993245095344771 0.5514649140870288
11350000000.0 0.8018980033083549 0.5480454895816527
11400000000.0 0.8044604324240234 0.544632046402401
11450000000.0 0.8070117665489851 0.541221937130815
11500000000.0 0.8095515757622544 0.5378126118018295
11550000000.0 0.8120790524390239 0.5344016743639326
11600000000.0 0.8145930409942697 0.5309869349510167
11650000000.0 0.8170920747445233 0.5275664568976023
11700000000.0 0.8195744190058242 0.5241385975517736
11750000000.0 0.8220381194235005 0.5207020420809995
11800000000.0 0.8244810544283191 0.5172558296224503
11850000000.0 0.8269009906356889 0.5137993712985037
11900000000.0 0.829295639951745 0.5103324597965941
11950000000.0 0.8316627171235599 0.5068552703968677
12000000000.0 0.8339999964712034 0.5033683535174466
12050000000.0 0.8363053665671826 0.4998726190315127
12100000000.0 0.8385768816835786 0.4963693127888473
12150000000.0 0.8408128089079369 0.49285998594281155
12200000000.0 0.8430116699340477 0.4893464578381457
12250000000.0 0.8451722766608359 0.48583077335169217
12300000000.0 0.8472937598787585 0.48231515569391326
12350000000.0 0.8493755904849235 0.47880195577106194
12400000000.0 0.8514175928416449 0.47529359927389586
12450000000.0 0.8534199500740883 0.47179253269732035
12500000000.0 0.8553832012865586 0.4683011695055671
12550000000.0 0.8573082308592312 0.4648218376394565
12600000000.0 0.8591962501633843 0.4613567295166873
12650000000.0 0.8610487721990445 0.4579078556045141
12700000000.0 0.8628675798106664 0.4544770025487624
12750000000.0 0.864654688270557 0.45106569672670527
12800000000.0 0.8664123031333468 0.4476751739571602
12850000000.0 0.8681427743557798 0.44430635595288653
12900000000.0 0.8698485477427953 0.4409598339418468
12950000000.0 0.8715321148225208 0.43763585971913344
13000000000.0 0.8731959622691221 0.4343343442242709
13050000000.0 0.8748425219839217 0.4310548635730803
13100000000.0 0.8764741229127323 0.4277966723128458
13150000000.0 0.8780929456224832 0.42455872351756097
13200000000.0 0.8797009805847402 0.4213396951994174
13250000000.0 0.8812999910199412 0.4181380223860292
13300000000.0 0.8828914810464655 0.41495193410230435
13350000000.0 0.8844766697557195 0.4117794944030902
13400000000.0 0.8860564717009605 0.4086186465290753
13450000000.0 0.8876314841464757 0.40546725920485666
13500000000.0 0.8892019812777416 0.4023231740651419
13550000000.0 0.8907679154251524 0.3991842531829546
13600000000.0 0.8923289252066483 0.396048425682395
13650000000.0 0.8938843503506703 0.39291373244746375
13700000000.0 0.8954332528230987 0.38977836798705634
13750000000.0 0.8969744437525732 0.38664071858341137
13800000000.0 0.8985065155303361 0.38349939593574506
13850000000.0 0.9000278783556662 0.38035326561095645
13900000000.0 0.9015368004081711 0.3772014697272382
13950000000.0 0.9030314507555144 0.37404344342203755
14000000000.0 0.9045099440511118 0.37087892479063767
14050000000.0 0.9059703860422292 0.36770795812302276
14100000000.0 0.9074109188956458 0.3645308904117636
14150000000.0 0.9088297653560479 0.3613483612493581
14200000000.0 0.9102252707817017 0.35816128637669375
14250000000.0 0.9115959421522163 0.35497083528180967
14300000000.0 0.912940483213423 0.3517784033768722
14350000000.0 0.9142578250131336 0.3485855793982013
14400000000.0 0.9155471511868563 0.3453941087765339
14450000000.0 0.9168079174720639 0.3422058538100513
14500000000.0 0.9180398650605737 0.3390227515389632
14550000000.0 0.9192430275378711 0.3358467702660424
14600000000.0 0.9204177313025252 0.3326798656913904
14650000000.0 0.9215645895046735 0.32952393763142257
14700000000.0 0.9226844896864219 0.32638078827161426
14750000000.0 0.9237785754455157 0.32325208286071233
14800000000.0 0.9248482225734758 0.3201393136920313
14850000000.0 0.9258950102376673 0.31704376813691176
14900000000.0 0.9269206878807936 0.31396650139855825
14950000000.0 0.9279271385989493 0.3109083145438622
15000000000.0 0.9289163398288298 0.30786973824924735
15050000000.0 0.9298903222248619 0.3048510225670683
15100000000.0 0.930851127637059 0.30185213288474005
15150000000.0 0.9318007671101762 0.2988727521126643
15200000000.0 0.9327411798145101 0.2959122890021831
15250000000.0 0.9336741937890727 0.2929698923640934
15300000000.0 0.9346014893300568 0.2900444708343574
15350000000.0 0.9355245657928227 0.2871347177189795
15400000000.0 0.936444712495869 0.2842391403466935
15450000000.0 0.9373629843222276 0.28135609326796146
15500000000.0 0.938280182509636 0.27848381456332477
15550000000.0 0.9391968410078495 0.2756204644645966
15600000000.0 0.9401132186619002 0.27276416544959337
15650000000.0 0.9410292973563368 0.2699130429456773
15700000000.0 0.9419447861298859 0.2670652657696475
15750000000.0 0.9428591311449054 0.26421908544137374
15800000000.0 0.9437715312738162 0.261372873535884
15850000000.0 0.9446809589477372 0.258525156282705
15900000000.0 0.9455861858029019 0.2556746456813627
15950000000.0 0.946485812560418 0.2528202664769774
16000000000.0 0.94737830248633 0.24996117842839372
16050000000.0 0.9482620177037597 0.24709679340174637
16100000000.0 0.9491352575686318 0.24422678693274974
16150000000.0 0.9499962982766207 0.24135110401930301
16200000000.0 0.9508434328425092 0.2384699590297703
16250000000.0 0.9516750105849486 0.235583829739042
16300000000.0 0.9524894752600495 0.23269344563152713
16350000000.0 0.9532854010162982 0.2297997707347726
16400000000.0 0.9540615253905965 0.22690398136670917
16450000000.0 0.9548167786298967 0.2240074392908176
16500000000.0 0.9555503087036302 0.22111166087420925
16550000000.0 0.9562615014672473 0.21821828293127318
16600000000.0 0.9569499955445362 0.21532902600809983
16650000000.0 0.9576156916135762 0.21244565591847836
16700000000.0 0.9582587559054603 0.20956994437961826
16750000000.0 0.9588796178533834 0.20670362961383912
16800000000.0 0.9594789619593 0.20384837778101614
16850000000.0 0.9600577140730259 0.2010057460855142
16900000000.0 0.9606170224014186 0.19817714836139974
16950000000.0 0.9611582336802542 0.19536382388185175
17000000000.0 0.9616828650459673 0.19256681006449133
17050000000.0 0.9621925722362977 0.18978691965564015
17100000000.0 0.9626891148260721 0.18702472287557995
17150000000.0 0.96317431926528 0.18428053489613314
17200000000.0 0.9636500405302375 0.18155440890399485
17250000000.0 0.9641181232241479 0.1788461348809412
17300000000.0 0.9645803629706757 0.17615524410805777
17350000000.0 0.9650384689332502 0.17348101927817924
17400000000.0 0.9654940282643931 0.1708225099814353
17450000000.0 0.9659484732442319 0.16817855321547967
17500000000.0 0.9664030518067607 0.16554779846700257
17550000000.0 0.9668588020778341 0.16292873681633335
17600000000.0 0.967316531461945 0.16031973343417238
17650000000.0 0.9677768007174964 0.1577190627701319
17700000000.0 0.9682399133544687 0.1551249456780646
17750000000.0 0.9687059105762069 0.15253558768397898
17800000000.0 0.9691745718707352 0.14994921757936172
17850000000.0 0.9696454212386866 0.1473641255163003
17900000000.0 0.9701177389269117 0.14477869979101726
17950000000.0 0.9705905784212921 0.14219146152915318
18000000000.0 0.9710627883414635 0.13960109652888017
18050000000.0 0.9715330387761876 0.13700648357603265
18100000000.0 0.9719998515030801 0.13440671861788664
18150000000.0 0.9724616334522806 0.13180113426776016
18200000000.0 0.9729167127022357 0.12918931420970306
18250000000.0 0.9733633762387152 0.12657110217942583
18300000000.0 0.9737999086668776 0.12394660531220064
18350000000.0 0.9742246310417709 0.1213161917685174
18400000000.0 0.9746359389759398 0.1186804826713181
18450000000.0 0.9750323391941893 0.11604033851204036
18500000000.0 0.9754124837351908 0.11339684030379638
18550000000.0 0.9757752010470165 0.11075126587601698
18600000000.0 0.9761195232881692 0.10810506181315324
18650000000.0 0.9764447092259356 0.10545981163791224
18700000000.0 0.976750262218293 0.10281720092465164
18750000000.0 0.9770359428721022 0.10017898009884199
18800000000.0 0.9773017760865699 0.09754692573212027
18850000000.0 0.9775480523142231 0.09492280117804996
18900000000.0 0.9777753229991086 0.09230831741030297
18950000000.0 0.9779843902805794 0.08970509492217132
19000000000.0 0.9781762911778114 0.08711462752411532
19050000000.0 0.9783522765921493 0.08453824883501355
19100000000.0 0.9785137855786583 0.08197710220392623
19150000000.0 0.9786624154422296 0.07943211472397094
