#   Hz   S  RI   R   50
!
0.0 -0.8942009132319357 0.0
75000000.0 -0.8929521408230571 0.048473008633326944
150000000.0 -0.8892132366892501 0.09677256881602847
225000000.0 -0.8830063702877536 0.14472664639467916
300000000.0 -0.874368258398695 0.19216602294446258
375000000.0 -0.8633498181462989 0.2389256714307751
450000000.0 -0.8500156842745584 0.2848460931294588
525000000.0 -0.8344435938548218 0.32977460275473264
600000000.0 -0.8167236426900255 0.3735665486783903
675000000.0 -0.7969574188874098 0.4160864551050932
750000000.0 -0.7752570204090001 0.4572090731358028
825000000.0 -0.751743964877764 0.4968203278482401
900000000.0 -0.7265480015072646 0.5348181488963327
975000000.0 -0.6998058367118486 0.5711131727268076
1050000000.0 -0.6716597867083276 0.6056293053751591
1125000000.0 -0.6422563721913324 0.638304135974563
1200000000.0 -0.6117448718933823 0.6690891926208581
1275000000.0 -0.5802758534567125 0.697950034103491
1350000000.0 -0.5479997014678631 0.7248661732402939
1425000000.0 -0.5150651636533893 0.7498308301292486
1500000000.0 -0.4816179370198052 0.7728505165188883
1575000000.0 -0.44779931606053236 0.7939444556454185
1650000000.0 -0.413744924973541 0.8131438452121212
1725000000.0 -0.37958355507636554 0.8304909745983434
1800000000.0 -0.34543612723114786 0.846038210767277
1875000000.0 -0.31141479708697906 0.8598468705671118
1950000000.0 -0.27762221832462336 0.8719860000553253
2025000000.0 -0.2441509758952462 0.8825310839876156
2100000000.0 -0.2110831975571884 0.8915627105759498
2175000000.0 -0.17849034794009805 0.8991652179252421
2250000000.0 -0.14643320503702195 0.9054253491199741
2325000000.0 -0.1149620145954246 0.9104309426954247
2400000000.0 -0.08411681351323319 0.9142696841735821
2475000000.0 -0.053927909214871596 0.917027942489506
2550000000.0 -0.02441649824766673 0.9187897125368473
2625000000.0 0.004404595851720323 0.9196356818145025
2700000000.0 0.03253008789519194 0.9196424353844282
2775000000.0 0.059961323825346254 0.9188818092025408
2850000000.0 0.08670532613342795 0.9174203975254267
2925000000.0 0.1127738172258091 0.9153192156968288
3000000000.0 0.13818224536409632 0.9126335153481329
3075000000.0 0.16294883636549268 0.9094127450625682
3150000000.0 0.18709369214963634 0.9057006459899105
3225000000.0 0.2106379545693943 0.9015354688670721
3300000000.0 0.2336030498965189 0.8969502964799764
3375000000.0 0.2560100259882352 0.8919734538411153
3450000000.0 0.27787899067806804 0.8866289872710378
3525000000.0 0.2992286564480325 0.8809371931467939
3600000000.0 0.32007599307163914 0.8749151772762492
3675000000.0 0.3404359867735108 0.8685774266131236
3750000000.0 0.36032150161717563 0.861936376266825
3825000000.0 0.3797432363719742 0.8550029563965693
3900000000.0 0.39870976806589886 0.8477871055190315
3975000000.0 0.4172276718258151 0.840298238910727
4050000000.0 0.4353017054443032 0.8325456630622922
4125000000.0 0.45293504638161636 0.8245389294604856
4200000000.0 0.47012956858783944 0.8162881232628368
4275000000.0 0.486886146580336 0.8078040846276634
4350000000.0 0.503204974594185 0.7990985625176524
4425000000.0 0.519085889293691 0.790184302668341
4500000000.0 0.5345286854442316 0.7810750730736609
4575000000.0 0.5495334150485313 0.7717856317687074
4650000000.0 0.564100661704024 0.7623316428726925
4725000000.0 0.5782317832943653 0.7527295477874498
4800000000.0 0.5919291175473074 0.7429963991296753
4875000000.0 0.6051961464350502 0.7331496654141477
4950000000.0 0.618037616827093 0.7232070147105852
5025000000.0 0.6304596161981513 0.7131860854820273
5100000000.0 0.6424696035168129 0.7031042525942379
5175000000.0 0.654076396669507 0.6929783960825988
5250000000.0 0.6652901188876594 0.6828246796964007
5325000000.0 0.6761221076255478 0.6726583455333633
5400000000.0 0.686584790167761 0.6624935302540432
5475000000.0 0.6966915309173513 0.6523431074522111
5550000000.0 0.7064564558214635 0.6422185597797374
5625000000.0 0.7158942597270158 0.6321298834097443
5700000000.0 0.7250200026253485 0.6220855263965167
5775000000.0 0.733848900746054 0.6120923614807278
5850000000.0 0.7423961183045558 0.6021556929186371
5925000000.0 0.7506765654071769 0.5922792960068122
6000000000.0 0.7587047071864131 0.5824654871498997
6075000000.0 0.7664943886956007 0.5727152215954243
6150000000.0 0.7740586794562218 0.5630282153504858
6225000000.0 0.7814097408443046 0.5534030873108526
6300000000.0 0.7885587187473003 0.5438375172797478
6375000000.0 0.7955156631422603 0.53432841533404
6450000000.0 0.8022894754624059 0.5248720979082954
6525000000.0 0.8088878838534364 0.5154644660072172
6600000000.0 0.8153174456927219 0.5061011811162281
6675000000.0 0.8215835760710787 0.49677783464728165
6750000000.0 0.8276906003329215 0.48749010711908614
6825000000.0 0.8336418282480571 0.4782339137127114
6900000000.0 0.839439646956115 0.46900553334874345
6975000000.0 0.845085629488496 0.45980171898390415
7050000000.0 0.8505806554356375 0.4506197874063724
7125000000.0 0.8559250401895392 0.441457687403415
7200000000.0 0.8611186691503868 0.4323140457666043
7275000000.0 0.8661611333371472 0.42318819117430356
7350000000.0 0.8710518629785096 0.4140801565351182
7425000000.0 0.8757902558743286 0.40499066087815294
7500000000.0 0.8803757975992496 0.3959210723264277
7575000000.0 0.8848081709590573 0.38687335408086054
7650000000.0 0.889087352495384 0.37784999566771754
7725000000.0 0.8932136942543022 0.36885393195823607
7800000000.0 0.8971879894775369 0.3598884526527768
7875000000.0 0.9010115213301106 0.3509571050326604
7950000000.0 0.9046860942342208 0.3420635928216793
8025000000.0 0.9082140478254405 0.3332116739685154
8100000000.0 0.9115982539742242 0.32440506006467934
8175000000.0 0.9148420977140838 0.3156473199551202
8250000000.0 0.917949443279767 0.3069417898863937
8325000000.0 0.9209245867773078 0.29829149227728224
8400000000.0 0.9237721972772354 0.28969906489683833
8475000000.0 0.9264972483379762 0.28116670190343274
8550000000.0 0.929104942125463 0.2726961078444274
8625000000.0 0.9316006283953684 0.26428846534867173
8700000000.0 0.9339897206457874 0.2559444168723724
8775000000.0 0.9362776117316711 0.24766406049199394
8850000000.0 0.9384695911600879 0.23944695938444807
8925000000.0 0.9405707661611415 0.23129216430298458
9000000000.0 0.9425859884578172 0.22319824805432822
9075000000.0 0.9445197884449142 0.21516335071516168
9150000000.0 0.9463763182392586 0.2071852340994232
9225000000.0 0.9481593047878102 0.19926134380632235
9300000000.0 0.9498720139248977 0.19138887704543564
9375000000.0 0.9515172259626553 0.18356485435137587
9450000000.0 0.9530972230878496 0.1757861932667191
9525000000.0 0.9546137885315387 0.16804978208717047
9600000000.0 0.9560682171829311 0.16035255182523822
9675000000.0 0.9574613370422728 0.15269154465468907
9750000000.0 0.9587935406558391 0.1450639772435941
9825000000.0 0.9600648254544316 0.13746729756374013
9900000000.0 0.9612748417295506 0.12989923397288178
9975000000.0 0.9624229468320055 0.12235783559755481
10050000000.0 0.9635082640683251 0.11484150329142147
10125000000.0 0.9645297447022078 0.10734901070078343
10200000000.0 0.9654862314415 0.09987951522837597
10275000000.0 0.966376521804955 0.09243255894247493
10350000000.0 0.967199429815529 0.08500805972467863
10425000000.0 0.9679538445555856 0.07760629318090465
10500000000.0 0.9686387842406948 0.07022786605119054
10575000000.0 0.9692534446187985 0.06287368204047007
10650000000.0 0.9697972406757893 0.05554490115102457
10725000000.0 0.9702698408221802 0.048242893724946424
10800000000.0 0.9706711929433149 0.04096919049967201
10875000000.0 0.9710015419122131 0.033725430040221806
10950000000.0 0.9712614383842777 0.02651330493782101
11025000000.0 0.9714517389114921 0.019334508156424613
11100000000.0 0.9715735976253003 0.012190680867499684
11175000000.0 0.9716284499373176 0.005083363041030648
11250000000.0 0.9716179888909721 -0.001986052040354538
11325000000.0 0.9715441349611708 -0.00901635830390602
11400000000.0 0.9714090002397452 -0.016006571554349456
11475000000.0 0.9712148480589592 -0.022955957561599984
11550000000.0 0.9709640491916287 -0.029864053023836278
11625000000.0 0.9706590358229833 -0.03673067905034867
11700000000.0 0.9703022545155833 -0.04355594700203385
11775000000.0 0.9698961193844009 -0.050340256720346636
11850000000.0 0.969442966665357 -0.05708428736336854
11925000000.0 0.9689450117985621 -0.06378898124589696
12000000000.0 0.968404310059409 -0.07045552124504369
12075000000.0 0.9678227216591186 -0.07708530247996116
12150000000.0 0.9672018821046225 -0.083679899100828
12225000000.0 0.9665431784593947 -0.09024102712540055
12300000000.0 0.9658477319860005 -0.09677050433929053
12375000000.0 0.9651163874819536 -0.103270208327237
12450000000.0 0.9643497094472421 -0.10974203372637177
12525000000.0 0.9635479850490385 -0.1161878497887987
12600000000.0 0.962711233680739 -0.1226094593104307
12675000000.0 0.961839222752785 -0.1290085599272756
12750000000.0 0.9609314892052696 -0.13538670870115363
12825000000.0 0.9599873661005879 -0.14174529081663845
12900000000.0 0.9590060135411094 -0.14808549309272148
12975000000.0 0.9579864530645003 -0.15440828287962452
13050000000.0 0.9569276045995696 -0.16071439276685423
13125000000.0 0.9558283250196524 -0.16700431137676405
13200000000.0 0.9546874473090874 -0.17327828036240175
13275000000.0 0.953503819361366 -0.17953629757308143
13350000000.0 0.9522763414543586 -0.18577812619966827
13425000000.0 0.9510040014975978 -0.1920033095675566
13500000000.0 0.9496859072172424 -0.19821119111203922
13575000000.0 0.9483213145339694 -0.2044009389511823
13650000000.0 0.9469096514951374 -0.21057157436803522
13725000000.0 0.9454505372423633 -0.21672200342915238
13800000000.0 0.943943795625982 -0.22285105090169632
13875000000.0 0.9423894632155397 -0.22895749558802095
13950000000.0 0.9407877915970546 -0.23504010617526072
14025000000.0 0.9391392439898669 -0.24109767669828558
14100000000.0 0.9374444863551296 -0.24712906073703364
14175000000.0 0.935704373301058 -0.2531332035128846
14250000000.0 0.933919929213919 -0.259109171112057
14325000000.0 0.9320923251555093 -0.26505617614525206
14400000000.0 0.930222852165098 -0.27097359924973724
14475000000.0 0.9283128916842465 -0.2768610059503121
14550000000.0 0.9263638838849109 -0.2827181585162595
14625000000.0 0.9243772947234123 -0.2885450225795184
14700000000.0 0.9223545825644789 -0.29434176841167825
14775000000.0 0.9202971652202592 -0.3001087668908039
14850000000.0 0.9182063882292097 -0.3058465803202631
14925000000.0 0.9160834951597187 -0.3115559483874982
15000000000.0 0.9139296006644694 -0.31723776966805745
15075000000.0 0.9117456669354235 -0.3228930791863673
15150000000.0 0.9095324841180049 -0.32852302263721805
15225000000.0 0.9072906551389261 -0.33412882794862286
15300000000.0 0.9050205852878377 -0.33971177492583654
15375000000.0 0.9027224767714603 -0.3452731637566518
15450000000.0 0.9003963283331665 -0.35081428317878094
15525000000.0 0.8980419399042209 -0.356336379110909
15600000000.0 0.8956589221281833 -0.3618406245299981
15675000000.0 0.8932467104803753 -0.3673280913393611
15750000000.0 0.8908045835926737 -0.3727997249159764
15825000000.0 0.8883316852928725 -0.3782563219530526
15900000000.0 0.8858270497798199 -0.3836985121269302
15975000000.0 0.8832896292824716 -0.3891267440182474
16050000000.0 0.8807183234945969 -0.3945412756084588
16125000000.0 0.8781120100382501 -0.39994216955699524
16200000000.0 0.8754695751891394 -0.4053292933444919
16275000000.0 0.8727899440959177 -0.4107023242464583
16350000000.0 0.8700721097431263 -0.416060758982528
16425000000.0 0.8673151599433672 -0.4214039277717906
16500000000.0 0.8645183016973719 -0.42673101241744266
16575000000.0 0.8616808823294607 -0.43204106794658087
16650000000.0 0.858802406888777 -0.4373330472456881
16725000000.0 0.8558825514015113 -0.442605828061192
16800000000.0 0.8529211716638071 -0.447858241679022
16875000000.0 0.8499183073765465 -0.45308910255860435
16950000000.0 0.8468741815391644 -0.458297238176075
17025000000.0 0.8437891951371055 -0.4634815183290545
17100000000.0 0.8406639172738238 -0.46864088317115976
17175000000.0 0.8374990710104633 -0.47377436927803934
17250000000.0 0.834295515281887 -0.47888113309734376
17325000000.0 0.8310542233540459 -0.48396047120135194
17400000000.0 0.8277762583723973 -0.4890118368414319
17475000000.0 0.8244627466222771 -0.4940348523961025
17550000000.0 0.8211148491779567 -0.49902931740698364
17625000000.0 0.8177337326563117 -0.5039952120068663
17700000000.0 0.814320539812578 -0.5089326956588193
17775000000.0 0.8108763607190613 -0.5138421012419107
17850000000.0 0.8074022052528005 -0.5187239246348919
17925000000.0 0.8038989775853869 -0.5235788100612202
18000000000.0 0.8003674533182438 -0.5284075315643686
18075000000.0 0.79680825984083 -0.5332109710788513
18150000000.0 0.7932218604090818 -0.5379900936474161
18225000000.0 0.7896085423489134 -0.5427459204063055
18300000000.0 0.7859684096870042 -0.5474795000166086
18375000000.0 0.7823013804009379 -0.5521918792591012
18450000000.0 0.778607188365749 -0.5568840735316166
18525000000.0 0.77488538995689 -0.5615570379913823
18600000000.0 0.7711353751534358 -0.5662116400697672
18675000000.0 0.7673563828728776 -0.5708486340538849
18750000000.0 0.763547520162848 -0.5754686383793037
18825000000.0 0.7597077847782331 -0.5800721162118931
18900000000.0 0.7558360905866526 -0.5846593598162666
18975000000.0 0.7519312951734536 -0.5892304791152538
19050000000.0 0.7479922289607953 -0.5937853947416621
19125000000.0 0.7440177251156198 -0.5983238357727254
19200000000.0 0.740006649499225 -0.6028453422218
19275000000.0 0.7359579299073746 -0.6073492722438407
19350000000.0 0.7318705838645578 -0.6118348138938345
19425000000.0 0.7277437442687622 -0.6163010011635123
19500000000.0 0.7235766822333379 -0.6207467339140842
19575000000.0 0.7193688265389235 -0.6251708012240396
19650000000.0 0.7151197791895684 -0.6295719075836755
19725000000.0 0.7108293266611471 -0.6339487012940647
19800000000.0 0.7064974465347785 -0.6382998043695828
19875000000.0 0.7021243093207614 -0.6426238432012992
19950000000.0 0.6977102753968575 -0.6469194792146971
20025000000.0 0.6932558871057626 -0.6511854387499648
20100000000.0 0.6887618561774715 -0.655420541406814
20175000000.0 0.6842290467599086 -0.659623726128238
20250000000.0 0.6796584544529392 -0.6637940743481762
20325000000.0 0.6750511818438022 -0.6679308295957327
20400000000.0 0.6704084111335974 -0.6720334130318077
20475000000.0 0.665731374522306 -0.6761014344909626
20550000000.0 0.6610213230819503 -0.6801346987098065
20625000000.0 0.6562794948921371 -0.6841332065405834
20700000000.0 0.6515070832381139 -0.6880971510722483
20775000000.0 0.6467052056777948 -0.6920269087080942
20850000000.0 0.641874874770501 -0.6959230253758849
20925000000.0 0.6370169712266456 -0.6997861981703232
21000000000.0 0.632132220184756 -0.7036172528453846
21075000000.0 0.6272211712512404 -0.7074171176826701
21150000000.0 0.6222841828507185 -0.7111867943585649
21225000000.0 0.6173214113324608 -0.7149273265152152
21300000000.0 0.6123328051640268 -0.7186397668058282
21375000000.0 0.6073181044191377 -0.7223251432318424
21450000000.0 0.6022768456362333 -0.725984425616675
21525000000.0 0.5972083719902074 -0.7296184930671455
21600000000.0 0.5921118485856967 -0.7332281032589544
21675000000.0 0.5869862825494954 -0.7368138643468468
21750000000.0 0.5818305474752824 -0.7403762102440035
21825000000.0 0.5766434116591451 -0.7439153799399418
21900000000.0 0.5714235694622558 -0.7474314014334038
21975000000.0 0.566169675050123 -0.7509240807484836
22050000000.0 0.5608803776884703 -0.7543929963810209
22125000000.0 0.5555543577258377 -0.7578374993909737
22200000000.0 0.5501903623639007 -0.7612567192180955
22275000000.0 0.544787240309281 -0.764649575156065
22350000000.0 0.5393439744156758 -0.7680147932777598
22425000000.0 0.5338597114623655 -0.7713509284649674
22500000000.0 0.5283337882740763 -0.7746563910629363
22575000000.0 0.5227657534665316 -0.7779294775572373
22650000000.0 0.5171553842002693 -0.7811684045602804
22725000000.0 0.5115026974403593 -0.7843713453007083
22800000000.0 0.5058079553489714 -0.7875364677330013
22875000000.0 0.5000716645784268 -0.7906619733293673
22950000000.0 0.49429456938125527 -0.7937461355828809
23025000000.0 0.48847763860734444 -0.7967873372412053
23100000000.0 0.4826220468128736 -0.7997841053046791
23175000000.0 0.47672914985766013 -0.8027351428612564
23250000000.0 0.4708004555129848 -0.8056393568932183
23325000000.0 0.464837589737192 -0.8084958812757664
23400000000.0 0.4588422593979875 -0.8113040942938725
23475000000.0 0.4528162123247937 -0.8140636301289557
23550000000.0 0.44676119565919015 -0.8167743839083873
23625000000.0 0.4406789135334409 -0.819436510065347
23700000000.0 0.43457098514471204 -0.8220504139205489
23775000000.0 0.42843890430400133 -0.8246167365670235
23850000000.0 0.42228400152347184 -0.8271363333102864
23925000000.0 0.41610740966332965 -0.8296102460845796
24000000000.0 0.40991003409035964 -0.8320396704272411
24075000000.0 0.40369252820556956 -0.8344259177432691
24150000000.0 0.39745527508031675 -0.8367703737269048
24225000000.0 0.3911983758008485 -0.8390744539228039
24300000000.0 0.3849216449638873 -0.8413395575026961
24375000000.0 0.3786246135938836 -0.8435670204016946
24450000000.0 0.3723065395703178 -0.8457580689991748
24525000000.0 0.36596642546490105 -0.847913775540991
24600000000.0 0.3596030434986777 -0.8500350164817174
24675000000.0 0.3532149671423485 -0.8521224348775275
24750000000.0 0.34680060870446294 -0.8541764078828287
24825000000.0 0.3403582620860365 -0.8561970202981916
24900000000.0 0.33388614973106395 -0.8581840449854818
24975000000.0 0.3273824726742613 -0.8601369308112778
25050000000.0 0.32084546248388623 -0.8620547986047628
25125000000.0 0.3142734338216037 -0.8639364454254725
25200000000.0 0.3076648362956434 -0.8657803572336458
25275000000.0 0.3010183042695511 -0.8675847298463633
25350000000.0 0.2943327033078973 -0.869347497851019
25425000000.0 0.28760717199252406 -0.8710663709390772
25500000000.0 0.2808411579278191 -0.8727388769226957
25575000000.0 0.27403444686993406 -0.8743624105096667
25650000000.0 0.26718718406065056 -0.8759342867431857
25725000000.0 0.26029988701905743 -0.8774517978666361
25800000000.0 0.2533734492398246 -0.8789122722542592
25875000000.0 0.24640913446155505 -0.8803131339597271
25950000000.0 0.23940856139774302 -0.8816519613793579
26025000000.0 0.232373679061103 -0.8829265435074148
26100000000.0 0.22530673305389665 -0.8841349322791008
26175000000.0 0.21821022343656327 -0.8852754895532031
26250000000.0 0.21108685501823837 -0.8863469273807584
26325000000.0 0.20393948113008015 -0.8873483403374534
26400000000.0 0.19677104213916233 -0.888279228863534
26475000000.0 0.1895845001321317 -0.8891395127529877
26550000000.0 0.1823827713380542 -0.8899295341596034
26625000000.0 0.17516865796484168 -0.8906500497363806
26700000000.0 0.1679447811891102 -0.8913022117912124
26775000000.0 0.1607135170625084 -0.8918875386195423
26850000000.0 0.15347693707652957 -0.8924078744570069
26925000000.0 0.14623675506130931 -0.8928653397748489
27000000000.0 0.13899428198280855 -0.8932622729109606
27075000000.0 0.1317503900477952 -0.8936011642822383
27150000000.0 0.124505487330337 -0.8938845846528556
27225000000.0 0.1172595039007456 -0.8941151091309758
27300000000.0 0.11001189017263249 -0.8942952387278241
27375000000.0 0.10276162789250087 -0.8944273214320646
27450000000.0 0.09550725388490622 -0.8945134748255594
27525000000.0 0.08824689634296476 -0.8945555122897799
27600000000.0 0.08097832312609157 -0.8945548748241771
27675000000.0 0.07369900120286801 -0.8945125704174239
27750000000.0 0.06640616606501328 -0.8944291227805221
27825000000.0 0.059096899646869205 -0.89430453106899
27900000000.0 0.051768215021123776 -0.8941382419931245
27975000000.0 0.04441714591360622 -0.893929135444784
28050000000.0 0.03704083889378517 -0.8936755244619415
28125000000.0 0.029636645959511137 -0.8933751700149059
28200000000.0 0.022202215148943105 -0.8930253107378674
28275000000.0 0.01473557678321161 -0.8926227073544043
28350000000.0 0.007235222972877192 -0.8921637011646582
28425000000.0 -0.00029982188971501 -0.8916442855835837
