<Qucs Dataset 25.1.1>
<indep frequency 201>
1.000000000000e+00
1.122018454302e+00
1.258925411794e+00
1.412537544623e+00
1.584893192461e+00
1.778279410039e+00
1.995262314969e+00
2.238721138568e+00
2.511886431510e+00
2.818382931264e+00
3.162277660168e+00
3.548133892336e+00
3.981071705535e+00
4.466835921510e+00
5.011872336273e+00
5.623413251903e+00
6.309573444802e+00
7.079457843841e+00
7.943282347243e+00
8.912509381337e+00
1.000000000000e+01
1.122018454302e+01
1.258925411794e+01
1.412537544623e+01
1.584893192461e+01
1.778279410039e+01
1.995262314969e+01
2.238721138568e+01
2.511886431510e+01
2.818382931264e+01
3.162277660168e+01
3.548133892336e+01
3.981071705535e+01
4.466835921510e+01
5.011872336273e+01
5.623413251903e+01
6.309573444802e+01
7.079457843841e+01
7.943282347243e+01
8.912509381337e+01
1.000000000000e+02
1.122018454302e+02
1.258925411794e+02
1.412537544623e+02
1.584893192461e+02
1.778279410039e+02
1.995262314969e+02
2.238721138568e+02
2.511886431510e+02
2.818382931264e+02
3.162277660168e+02
3.548133892336e+02
3.981071705535e+02
4.466835921510e+02
5.011872336273e+02
5.623413251903e+02
6.309573444802e+02
7.079457843841e+02
7.943282347243e+02
8.912509381337e+02
1.000000000000e+03
1.122018454302e+03
1.258925411794e+03
1.412537544623e+03
1.584893192461e+03
1.778279410039e+03
1.995262314969e+03
2.238721138568e+03
2.511886431510e+03
2.818382931264e+03
3.162277660168e+03
3.548133892336e+03
3.981071705535e+03
4.466835921510e+03
5.011872336273e+03
5.623413251903e+03
6.309573444802e+03
7.079457843841e+03
7.943282347243e+03
8.912509381337e+03
1.000000000000e+04
1.122018454302e+04
1.258925411794e+04
1.412537544623e+04
1.584893192461e+04
1.778279410039e+04
1.995262314969e+04
2.238721138568e+04
2.511886431510e+04
2.818382931264e+04
3.162277660168e+04
3.548133892336e+04
3.981071705535e+04
4.466835921510e+04
5.011872336273e+04
5.623413251903e+04
6.309573444802e+04
7.079457843841e+04
7.943282347243e+04
8.912509381337e+04
1.000000000000e+05
1.122018454302e+05
1.258925411794e+05
1.412537544623e+05
1.584893192461e+05
1.778279410039e+05
1.995262314969e+05
2.238721138568e+05
2.511886431510e+05
2.818382931264e+05
3.162277660168e+05
3.548133892336e+05
3.981071705535e+05
4.466835921510e+05
5.011872336273e+05
5.623413251903e+05
6.309573444802e+05
7.079457843841e+05
7.943282347243e+05
8.912509381337e+05
1.000000000000e+06
1.122018454302e+06
1.258925411794e+06
1.412537544623e+06
1.584893192461e+06
1.778279410039e+06
1.995262314969e+06
2.238721138568e+06
2.511886431510e+06
2.818382931264e+06
3.162277660168e+06
3.548133892336e+06
3.981071705535e+06
4.466835921510e+06
5.011872336273e+06
5.623413251903e+06
6.309573444802e+06
7.079457843841e+06
7.943282347243e+06
8.912509381337e+06
1.000000000000e+07
1.122018454302e+07
1.258925411794e+07
1.412537544623e+07
1.584893192461e+07
1.778279410039e+07
1.995262314969e+07
2.238721138568e+07
2.511886431510e+07
2.818382931264e+07
3.162277660168e+07
3.548133892336e+07
3.981071705535e+07
4.466835921510e+07
5.011872336273e+07
5.623413251903e+07
6.309573444802e+07
7.079457843841e+07
7.943282347243e+07
8.912509381337e+07
1.000000000000e+08
1.122018454302e+08
1.258925411794e+08
1.412537544623e+08
1.584893192461e+08
1.778279410039e+08
1.995262314969e+08
2.238721138568e+08
2.511886431510e+08
2.818382931264e+08
3.162277660168e+08
3.548133892336e+08
3.981071705535e+08
4.466835921510e+08
5.011872336273e+08
5.623413251903e+08
6.309573444802e+08
7.079457843841e+08
7.943282347243e+08
8.912509381337e+08
1.000000000000e+09
1.122018454302e+09
1.258925411794e+09
1.412537544623e+09
1.584893192461e+09
1.778279410039e+09
1.995262314969e+09
2.238721138568e+09
2.511886431510e+09
2.818382931264e+09
3.162277660168e+09
3.548133892336e+09
3.981071705535e+09
4.466835921510e+09
5.011872336273e+09
5.623413251903e+09
6.309573444802e+09
7.079457843841e+09
7.943282347243e+09
8.912509381337e+09
1.000000000000e+10
</indep>
<dep ac.v(s_1_1) frequency>
-1.665334536938e-16-j1.929566207835e-09
-1.665334536938e-16-j2.165008893988e-09
-1.665334536938e-16-j2.429179932783e-09
-1.665334536938e-16-j2.725584713402e-09
-1.665334536938e-16-j3.058156347200e-09
-4.440892098501e-16-j3.431307857699e-09
-4.440892098501e-16-j3.849990738730e-09
-4.440892098501e-16-j4.319760657747e-09
-4.440892098501e-16-j4.846851176159e-09
-6.661338147751e-16-j5.438256464905e-09
-6.661338147751e-16-j6.101824112850e-09
-1.054711873394e-15-j6.846359259523e-09
-1.276756478319e-15-j7.681741433965e-09
-1.554312234475e-15-j8.619055650084e-09
-2.220446049250e-15-j9.670739498048e-09
-2.831068712794e-15-j1.085074818356e-08
-3.497202527569e-15-j1.217473970493e-08
-4.163336342344e-15-j1.366028262525e-08
-5.273559366969e-15-j1.532708919651e-08
-6.827871601445e-15-j1.719727692921e-08
-8.382183835920e-15-j1.929566207830e-08
-1.060262988517e-14-j2.165008893982e-08
-1.315614284181e-14-j2.429179932773e-08
-1.665334536938e-14-j2.725584713389e-08
-2.103872631665e-14-j3.058156347182e-08
-2.658984143977e-14-j3.431307857673e-08
-3.347322419245e-14-j3.849990738693e-08
-4.218847493576e-14-j4.319760657695e-08
-5.329070518201e-14-j4.846851176086e-08
-6.661338147751e-14-j5.438256464802e-08
-8.393286066166e-14-j6.101824112704e-08
-1.056377207931e-13-j6.846359259316e-08
-1.330047183501e-13-j7.681741433673e-08
-1.675881655672e-13-j8.619055649672e-08
-2.111089081325e-13-j9.670739497467e-08
-2.653433028854e-13-j1.085074818273e-07
-3.341216192609e-13-j1.217473970377e-07
-4.207745263329e-13-j1.366028262361e-07
-5.295763827462e-13-j1.532708919419e-07
-6.665779039849e-13-j1.719727692594e-07
-8.394951400703e-13-j1.929566207368e-07
-1.056654763687e-12-j2.165008893329e-07
-1.330435761560e-12-j2.429179931852e-07
-1.674660410345e-12-j2.725584712087e-07
-2.108313523763e-12-j3.058156345343e-07
-2.654321207274e-12-j3.431307855076e-07
-3.341271703761e-12-j3.849990735025e-07
-4.206635040305e-12-j4.319760652513e-07
-5.295930360916e-12-j4.846851168766e-07
-6.667333352084e-12-j5.438256454463e-07
-8.393452599620e-12-j6.101824098100e-07
-1.056665865917e-11-j6.846359238686e-07
-1.330291432566e-11-j7.681741404533e-07
-1.674721472611e-11-j8.619055608510e-07
-2.108352381569e-11-j9.670739439324e-07
-2.654249042777e-11-j1.085074810060e-06
-3.341504850596e-11-j1.217473958776e-06
-4.206723858147e-11-j1.366028245974e-06
-5.295935912031e-11-j1.532708896272e-06
-6.667200125321e-11-j1.719727659898e-06
-8.393491457426e-11-j1.929566161184e-06
-1.056676968147e-10-j2.165008828092e-06
-1.330278109890e-10-j2.429179839701e-06
-1.674720362388e-10-j2.725584581922e-06
-2.108346830454e-10-j3.058156161479e-06
-2.654254038781e-10-j3.431307595362e-06
-3.341504295484e-10-j3.849990368168e-06
-4.206703319021e-10-j4.319760134314e-06
-5.295923699578e-10-j4.846850436791e-06
-6.667170704411e-10-j5.438255420522e-06
-8.393463146739e-10-j6.101822637620e-06
-1.056673637478e-09-j6.846357175706e-06
-1.330271837130e-09-j7.681738490499e-06
-1.674710758959e-09-j8.619051492333e-06
-2.108332619599e-09-j9.670733625080e-06
-2.654227893029e-09-j1.085073988779e-05
-3.341466159323e-09-j1.217472798688e-05
-4.206642645332e-09-j1.366026607312e-05
-5.295827332219e-09-j1.532706581610e-05
-6.667016438922e-09-j1.719724390368e-05
-8.393221173630e-09-j1.929561542882e-05
-1.056635157148e-08-j2.165002304624e-05
-1.330210919193e-08-j2.429170625160e-05
-1.674614247271e-08-j2.725571566216e-05
-2.108179475435e-08-j3.058137776627e-05
-2.653985314849e-08-j3.431281626637e-05
-3.341081716846e-08-j3.849953687382e-05
-4.206033471510e-08-j4.319708323126e-05
-5.294861837868e-08-j4.846777254745e-05
-6.665486512736e-08-j5.438152053825e-05
-8.390796391033e-08-j6.101676638401e-05
-1.056250893416e-07-j6.846150964323e-05
-1.329601987954e-07-j7.681447241172e-05
-1.673649318579e-07-j8.618640148605e-05
-2.106650435763e-07-j9.670152687737e-05
-2.651562504563e-07-j1.084991947172e-04
-3.337242986401e-07-j1.217356943787e-04
-4.199951808559e-07-j1.365863014692e-04
-5.285227622220e-07-j1.532475601780e-04
-6.650226478389e-07-j1.719398301919e-04
-8.366629056233e-07-j1.929101249039e-04
-1.052424257075e-06-j2.164352687500e-04
-1.323544400467e-06-j2.428254019733e-04
-1.664063067952e-06-j2.724278606163e-04
-2.091485853228e-06-j3.056314576789e-04
-2.627585102999e-06-j3.428711876868e-04
-3.299354224884e-06-j3.846333709076e-04
-4.140125970498e-06-j4.314612447734e-04
-5.190853181014e-06-j4.839609986858e-04
-6.501528696690e-06-j5.428082351176e-04
-8.132685035134e-06-j6.087548271398e-04
-1.015685852090e-05-j6.826361353646e-04
-1.265982118775e-05-j7.653785553490e-04
-1.574127344250e-05-j8.580074057459e-04
-1.951455417148e-05-j9.616552618591e-04
-2.410477938092e-05-j1.077571020296e-03
-2.964470636435e-05-j1.207130281674e-03
-3.626761286024e-05-j1.351848080257e-03
-4.409669199185e-05-j1.513395550386e-03
-5.323102368160e-05-j1.693622695286e-03
-6.372917872843e-05-j1.894589790463e-03
-7.559287997272e-05-j2.118609776794e-03
-8.875455371826e-05-j2.368302939181e-03
-1.030734189857e-04-j2.646663116386e-03
-1.183442310455e-04-j2.957132043506e-03
-1.343204981699e-04-j3.303676188334e-03
-1.507503342495e-04-j3.690859870145e-03
-1.674194422265e-04-j4.123910326498e-03
-1.841937452314e-04-j4.608774334402e-03
-2.010549236746e-04-j5.152170450242e-03
-2.181252438485e-04-j5.761644057132e-03
-2.356821127689e-04-j6.445633137671e-03
-2.541661244870e-04-j7.213551241523e-03
-2.741880521349e-04-j8.075891603668e-03
-2.965403307704e-04-j9.044354000814e-03
-3.222177269524e-04-j1.013199443388e-02
-3.524508569344e-04-j1.135339721844e-02
-3.887555170172e-04-j1.272486929364e-02
-4.330006459814e-04-j1.426465715501e-02
-4.874981592053e-04-j1.599318747437e-02
-5.551187982991e-04-j1.793333300474e-02
-6.394394500897e-04-j2.011070568802e-02
-7.449290662247e-04-j2.255397894581e-02
-8.771823695437e-04-j2.529524090391e-02
-1.043213016950e-03-j2.837037971982e-02
-1.251820881893e-03-j3.181950114895e-02
-1.514051722153e-03-j3.568737683542e-02
-1.843771815852e-03-j4.002391930577e-02
-2.258385276419e-03-j4.488467593107e-02
-2.779727757296e-03-j5.033132872319e-02
-3.435177117190e-03-j5.643217908396e-02
-4.259029184167e-03-j6.326258564588e-02
-5.294194634015e-03-j7.090530796141e-02
-6.594280375613e-03-j7.945068751223e-02
-8.226124240355e-03-j8.899656845860e-02
-1.027285269387e-02-j9.964782154540e-02
-1.283752365012e-02-j1.115152832919e-01
-1.604739391762e-02-j1.247138569743e-01
-2.005880383865e-02-j1.393594411257e-01
-2.506258671630e-02-j1.555642573853e-01
-3.128976938379e-02-j1.734300503791e-01
-3.901711021430e-02-j1.930385461268e-01
-4.857169811659e-02-j2.144385173301e-01
-6.033339322172e-02-j2.376288738337e-01
-7.473333226575e-02-j2.625374666903e-01
-9.224610489000e-02-j2.889958893500e-01
-1.133726779808e-01-j3.167116189169e-01
-1.386109859330e-01-j3.452404640000e-01
-1.684117534408e-01-j3.739644251187e-01
-2.031191087714e-01-j4.020823693930e-01
-2.428992959594e-01-j4.286225400163e-01
-2.876661899341e-01-j4.524855403660e-01
-3.370182074904e-01-j4.725225984016e-01
-3.902051588697e-01-j4.876459217422e-01
-4.461424668800e-01-j4.969570010380e-01
-5.034818414393e-01-j4.998685339852e-01
-5.607329046455e-01-j4.961914423011e-01
-6.164143804315e-01-j4.861640738046e-01
-6.692033482036e-01-j4.704154844589e-01
-7.180517400928e-01-j4.498729589145e-01
-7.622503879006e-01-j4.256378702643e-01
-8.014370129723e-01-j3.988583800145e-01
-8.355585992046e-01-j3.706223237901e-01
-8.648060584717e-01-j3.418830926176e-01
-8.895394735465e-01-j3.134205672112e-01
-9.102178662403e-01-j2.858316378235e-01
-9.273415053306e-01-j2.595414726939e-01
-9.414095300985e-01-j2.348266294182e-01
-9.528921292265e-01-j2.118428615841e-01
-9.622147070224e-01-j1.906527833402e-01
-9.697509415086e-01-j1.712506446504e-01
-9.758218610593e-01-j1.535830260270e-01
-9.806986172064e-01-j1.375652600634e-01
-9.846072465229e-01-j1.230939370002e-01
-9.877342603600e-01-j1.100560924479e-01
-9.902323296627e-01-j9.833572860523e-02
-9.922256417132e-01-j8.781827402738e-02
-9.938147152538e-01-j7.839349787400e-02
-9.950805940072e-01-j6.995729534692e-02
-9.960884182930e-01-j6.241266840548e-02
-9.968904179379e-01-j5.567014680682e-02
</dep>
<dep ac.v(y_1_1) frequency>
nan+jnan
2.956107948458e+12+j2.967801963279e+05
2.634633982288e+12+j2.344245901525e+05
nan+jnan
4.185528320590e+12+j2.911000877764e+05
nan+jnan
6.649366644566e+12+j6.455179732974e+05
5.926254259965e+12+j5.074879550211e+05
nan+jnan
nan+jnan
nan+jnan
nan+jnan
nan+jnan
nan+jnan
-5.294321081685e+12-j1.149205346718e+06
nan+jnan
nan+jnan
nan+jnan
nan+jnan
nan+jnan
nan+jnan
-4.729772717546e+12-j2.213896699959e+06
nan+jnan
nan+jnan
nan+jnan
nan+jnan
nan+jnan
nan+jnan
nan+jnan
nan+jnan
nan+jnan
-5.982741841098e+12-j8.831332384616e+06
nan+jnan
nan+jnan
nan+jnan
nan+jnan
nan+jnan
nan+jnan
nan+jnan
nan+jnan
nan+jnan
3.783818175087e+12+j1.764811212953e+07
nan+jnan
nan+jnan
nan+jnan
-4.774855737523e+12-j3.529718352479e+07
nan+jnan
nan+jnan
nan+jnan
nan+jnan
nan+jnan
nan+jnan
nan+jnan
nan+jnan
nan+jnan
nan+jnan
nan+jnan
nan+jnan
nan+jnan
nan+jnan
nan+jnan
nan+jnan
nan+jnan
nan+jnan
nan+jnan
nan+jnan
6.808952048107e+12+j5.647518682399e+08
nan+jnan
nan+jnan
nan+jnan
nan+jnan
nan+jnan
nan+jnan
nan+jnan
nan+jnan
nan+jnan
nan+jnan
nan+jnan
nan+jnan
nan+jnan
nan+jnan
nan+jnan
nan+jnan
nan+jnan
nan+jnan
nan+jnan
nan+jnan
nan+jnan
nan+jnan
nan+jnan
nan+jnan
nan+jnan
nan+jnan
nan+jnan
nan+jnan
nan+jnan
nan+jnan
nan+jnan
nan+jnan
nan+jnan
nan+jnan
nan+jnan
nan+jnan
nan+jnan
nan+jnan
-4.892866870562e+12-j3.581864602029e+10
nan+jnan
nan+jnan
nan+jnan
nan+jnan
nan+jnan
nan+jnan
nan+jnan
7.818846686334e+12+j1.367361315047e+11
nan+jnan
nan+jnan
nan+jnan
nan+jnan
nan+jnan
nan+jnan
nan+jnan
nan+jnan
nan+jnan
nan+jnan
nan+jnan
nan+jnan
nan+jnan
6.498535232216e+12+j2.369791512410e+11
nan+jnan
nan+jnan
nan+jnan
nan+jnan
-2.973321794057e+13-j8.328877466589e+11
nan+jnan
nan+jnan
nan+jnan
nan+jnan
nan+jnan
nan+jnan
-1.073202056701e+14-j1.553306111431e+12
nan+jnan
-4.267010422457e+13-j4.977440120703e+11
-7.608922661009e+13-j7.951428785460e+11
nan+jnan
8.063184889990e+13+j6.742809309251e+11
nan+jnan
-2.562848670228e+14-j1.710394581933e+12
-8.566621414632e+13-j5.103900864092e+11
1.527156930232e+14+j8.119859952417e+11
1.555645826103e+14+j7.379563337143e+11
nan+jnan
nan+jnan
-1.468646675092e+14-j4.942142683385e+11
-1.527137618159e+14-j4.582028571791e+11
nan+jnan
nan+jnan
nan+jnan
nan+jnan
nan+jnan
nan+jnan
nan+jnan
-1.606534078485e+14-j1.921588968741e+11
-5.623643287565e+12-j2.940044434212e+13
-1.580654509888e+14-j1.501926265770e+11
nan+jnan
nan+jnan
1.594723459657e+14+j1.072832935016e+11
nan+jnan
nan+jnan
nan+jnan
nan+jnan
-1.593563609824e+14-j6.028929491844e+10
nan+jnan
-2.499962229625e+13-j5.793276127149e+13
nan+jnan
nan+jnan
6.352935563668e+13+j7.795846831764e+13
nan+jnan
1.592442950697e+14+j2.691185294195e+10
-2.122893661149e+14-j3.197484262953e+10
nan+jnan
-1.592243276789e+14-j1.904979255618e+10
-6.369778098068e+14-j6.792120142688e+10
-1.214103636780e+14-j4.942443385879e+13
-1.259869265035e+14+j6.471635068152e+13
-9.798627223790e+13-j7.396848663646e+09
-1.273812495515e+14-j8.570123759336e+09
-1.959706174908e+14-j1.175094036421e+10
-1.592279333616e+14-j8.509439935043e+09
1.498586291869e+14+j7.137785950245e+09
-1.698212527921e+15-j7.208980340415e+10
-2.681744107470e+14-j1.014610061258e+10
-2.744216180585e+14+j8.331548251806e+13
1.998126360652e+14+j6.004886734849e+09
-1.998134995730e+14-j5.351884242197e+09
-1.242745463090e+14-j2.966634773097e+09
-7.899597137370e+13-j1.680687033420e+09
2.009196057118e+14-j3.763502812709e+13
-4.632043579718e+14-j7.828067385300e+09
-2.277206790432e+14-j3.429923181762e+09
-3.639462124124e+14-j4.885613769425e+09
</dep>
<dep ac.v(z_1_1) frequency>
1.465942396523e+03-j1.295627996515e+10
1.159297641906e+03-j1.154729667366e+10
9.157210552834e+02-j1.029153899331e+10
7.222412952112e+02-j9.172343782629e+09
5.685548589382e+02-j8.174860001153e+09
8.000854207967e+02-j7.285851645140e+09
6.303886457982e+02-j6.493522113834e+09
4.955937060753e+02-j5.787357675747e+09
3.885222795554e+02-j5.157987957825e+09
4.911709493889e+02-j4.597061606295e+09
3.850091590441e+02-j4.097135469269e+09
5.375413799057e+02-j3.651575830647e+09
5.041555935972e+02-j3.254470384731e+09
5.074094228384e+02-j2.900549783520e+09
5.611354232021e+02-j2.585117715666e+09
5.702401964327e+02-j2.303988589274e+09
5.695311286894e+02-j2.053431991640e+09
5.327789707961e+02-j1.830123188944e+09
5.362088079695e+02-j1.631099009047e+09
5.592116654467e+02-j1.453718522003e+09
5.322397207032e+02-j1.295627996518e+09
5.405021240134e+02-j1.154729667370e+09
5.288495213021e+02-j1.029153899335e+09
5.363650230326e+02-j9.172343782669e+08
5.373932288505e+02-j8.174860001198e+08
5.390048197957e+02-j7.285851645191e+08
5.400386396378e+02-j6.493522113891e+08
5.405878763991e+02-j5.787357675811e+08
5.424116421778e+02-j5.157987957897e+08
5.378609580133e+02-j4.597061606375e+08
5.385762259120e+02-j4.097135469359e+08
5.390217519907e+02-j3.651575830749e+08
5.383743220243e+02-j3.254470384845e+08
5.390737727748e+02-j2.900549783648e+08
5.391738934866e+02-j2.585117715810e+08
5.384154731411e+02-j2.303988589435e+08
5.384469815918e+02-j2.053431991821e+08
5.387286132812e+02-j1.830123189146e+08
5.385127179763e+02-j1.631099009274e+08
5.384240537816e+02-j1.453718522257e+08
5.386321364876e+02-j1.295627996804e+08
5.385776406716e+02-j1.154729667690e+08
5.386565387144e+02-j1.029153899695e+08
5.385600448545e+02-j9.172343786707e+07
5.385655003480e+02-j8.174860005729e+07
5.385922779051e+02-j7.285851650274e+07
5.385546535218e+02-j6.493522119595e+07
5.385835919299e+02-j5.787357682210e+07
5.385895164580e+02-j5.157987965077e+07
5.386023692544e+02-j4.597061614431e+07
5.385911379283e+02-j4.097135478398e+07
5.385835651267e+02-j3.651575840891e+07
5.385965714822e+02-j3.254470396224e+07
5.385890051569e+02-j2.900549796416e+07
5.385892484621e+02-j2.585117730136e+07
5.385893386239e+02-j2.303988605509e+07
5.385897730100e+02-j2.053432009856e+07
5.385917844996e+02-j1.830123209382e+07
5.385907128200e+02-j1.631099031979e+07
5.385911260626e+02-j1.453718547733e+07
5.385900432884e+02-j1.295628025388e+07
5.385890721722e+02-j1.154729699762e+07
5.385899061956e+02-j1.029153935680e+07
5.385895192047e+02-j9.172344190467e+06
5.385893076592e+02-j8.174860458755e+06
5.385897667567e+02-j7.285852158578e+06
5.385893518828e+02-j6.493522689921e+06
5.385891137183e+02-j5.787358322127e+06
5.385890006658e+02-j5.157988683075e+06
5.385888497165e+02-j4.597062420038e+06
5.385883780037e+02-j4.097136382303e+06
5.385880217202e+02-j3.651576855088e+06
5.385875163329e+02-j3.254471534171e+06
5.385868229838e+02-j2.900551073212e+06
5.385861082901e+02-j2.585119162722e+06
5.385850723197e+02-j2.303990212894e+06
5.385838157674e+02-j2.053433813368e+06
5.385821847127e+02-j1.830125232949e+06
5.385801967732e+02-j1.631101302450e+06
5.385776624730e+02-j1.453721095232e+06
5.385744795310e+02-j1.295630883711e+06
5.385704778055e+02-j1.154732906830e+06
5.385654294129e+02-j1.029157534035e+06
5.385590709363e+02-j9.172384564191e+05
5.385510828628e+02-j8.174905758140e+05
5.385410214016e+02-j7.285902984364e+05
5.385283484367e+02-j6.493579716036e+05
5.385123972711e+02-j5.787422304566e+05
5.384923187873e+02-j5.158060469849e+05
5.384670403076e+02-j4.597142962304e+05
5.384352230556e+02-j4.097226746819e+05
5.383951723534e+02-j3.651678238125e+05
5.383447602347e+02-j3.254585277052e+05
5.382813080344e+02-j2.900678679630e+05
5.382014470236e+02-j2.585262318024e+05
5.381009426288e+02-j2.304150805489e+05
5.379744681366e+02-j2.053613958448e+05
5.378153309718e+02-j1.830327298665e+05
5.376151222878e+02-j1.631327938667e+05
5.373632869612e+02-j1.453975264939e+05
5.370465802121e+02-j1.295915897050e+05
5.366484002673e+02-j1.155052457577e+05
5.361479603726e+02-j1.029515738164e+05
5.355192694230e+02-j9.176398920446e+04
5.347298878094e+02-j8.179403233786e+04
5.337394180937e+02-j7.290939793828e+04
5.324976958281e+02-j6.499217828821e+04
5.309426514101e+02-j5.793729710422e+04
5.289978334095e+02-j5.165111309891e+04
5.265696183607e+02-j4.605017451307e+04
5.235441919297e+02-j4.106010786033e+04
5.197844839743e+02-j3.661462586905e+04
5.151273856863e+02-j3.265464116967e+04
5.093817841436e+02-j2.912747370576e+04
5.023282228661e+02-j2.598614120461e+04
4.937213197382e+02-j2.318872340328e+04
