<Qucs Dataset 25.1.1>
<indep dc1.i(pr1) 1>
1.305467000000e-03+j0.000000000000e+00
</indep>
<indep dc1.i(pr2) 1>
1.323920000000e-03+j0.000000000000e+00
</indep>
<indep sw1.res-sweep 20>
5.000000000000e+00
5.736840000000e+01
1.097368000000e+02
1.621052000000e+02
2.144736000000e+02
2.668420000000e+02
3.192104000000e+02
3.715788000000e+02
4.239472000000e+02
4.763156000000e+02
5.286840000000e+02
5.810524000000e+02
6.334208000000e+02
6.857892000000e+02
7.381576000000e+02
7.905260000000e+02
8.428944000000e+02
8.952628000000e+02
9.476312000000e+02
9.999996000000e+02
</indep>
<dep sw1.i(pr1) sw1.res-sweep>
1.799394132913e-03
1.246009958404e-03
9.261275211179e-04
7.204940609952e-04
5.788055938991e-04
4.762324406347e-04
3.991678516770e-04
3.395706550505e-04
2.924061015982e-04
2.543727656240e-04
2.232218270900e-04
1.973717421376e-04
1.756796565834e-04
1.573003030602e-04
1.415958509785e-04
1.280765480280e-04
1.163605829041e-04
1.061462966182e-04
9.719253320029e-05
8.930448024444e-05
</dep>
<dep sw1.i(pr2) sw1.res-sweep>
1.563665676912e-03
1.292792787280e-03
1.113476173787e-03
9.839799469814e-04
8.851299292778e-04
8.066966862476e-04
7.426549434217e-04
6.891947990323e-04
6.437745875498e-04
6.046259775834e-04
5.704762907424e-04
5.403836326269e-04
5.136343835084e-04
4.896769675618e-04
4.680776485908e-04
4.484901931141e-04
4.306345407933e-04
4.142814865593e-04
3.992414719727e-04
3.853562454314e-04
</dep>
