<Qucs Dataset 25.1.1>
<indep time 265>
0.000000000000e+00
5.025130000000e-13
1.005026000000e-12
2.010052000000e-12
4.020104000000e-12
8.040208000000e-12
1.608041600000e-11
3.216083200000e-11
5.500912204793e-11
7.844559234168e-11
1.024386822283e-10
1.256205469282e-10
1.439428166584e-10
1.631495589034e-10
1.848210078203e-10
2.281639056542e-10
2.762030349130e-10
3.201727090056e-10
3.642539128397e-10
4.053946747709e-10
4.528043241071e-10
5.030556241071e-10
5.469079032958e-10
5.931925843367e-10
6.434438843367e-10
6.889588642683e-10
7.297963566448e-10
7.746666693297e-10
8.082649099735e-10
8.444792532832e-10
8.883722687327e-10
9.338520913075e-10
9.771849245687e-10
1.021279181434e-09
1.071530481434e-09
1.113133268422e-09
1.157503212969e-09
1.195854444949e-09
1.236022838129e-09
1.286274138129e-09
1.336525438129e-09
1.380728157162e-09
1.427233348060e-09
1.477484648060e-09
1.523475619787e-09
1.565494358033e-09
1.604227351124e-09
1.643413676555e-09
1.670301406000e-09
1.695344160252e-09
1.721593248306e-09
1.749880182886e-09
1.774662446251e-09
1.803428047791e-09
1.819157826360e-09
1.836093252713e-09
1.849584628390e-09
1.867785742949e-09
1.904187972068e-09
1.954439272068e-09
2.000589065999e-09
2.046139690308e-09
2.096390990308e-09
2.146642290308e-09
2.196893590308e-09
2.247144890308e-09
2.290438632504e-09
2.335935645588e-09
2.386186945588e-09
2.436438245588e-09
2.477755135718e-09
2.507502921754e-09
2.540208415454e-09
2.573105541794e-09
2.612640693819e-09
2.654008576659e-09
2.695804399072e-09
2.739324684715e-09
2.779232948123e-09
2.822753057938e-09
2.862234181079e-09
2.902888345008e-09
2.953139645008e-09
3.003390945008e-09
3.047580980736e-09
3.094073450564e-09
3.138268937424e-09
3.176849185131e-09
3.218683687813e-09
3.250318824605e-09
3.285947401988e-09
3.319845784654e-09
3.360546307238e-09
3.385812295882e-09
3.414864026481e-09
3.440439328989e-09
3.467079428894e-09
3.483628148753e-09
3.500212481320e-09
3.513417583237e-09
3.531237022149e-09
3.566875899972e-09
3.606368842933e-09
3.648607099747e-09
3.686610380482e-09
3.725809934221e-09
3.763425357669e-09
3.813676657669e-09
3.863927957669e-09
3.914179257669e-09
3.957516737509e-09
4.003032741504e-09
4.053284041504e-09
4.103535341504e-09
4.143086108228e-09
4.171832000011e-09
4.203976658987e-09
4.236130629827e-09
4.275477054492e-09
4.318582755535e-09
4.361687426625e-09
4.406342460535e-09
4.446649732080e-09
4.490370882256e-09
4.530014938404e-09
4.570725544754e-09
4.620976844754e-09
4.671228144754e-09
4.715060289829e-09
4.761264883667e-09
4.811516183667e-09
4.852688536018e-09
4.891438106343e-09
4.926231571144e-09
4.963322426298e-09
4.998778198566e-09
5.036184850686e-09
5.064707966109e-09
5.091930283899e-09
5.118009130005e-09
5.138772152483e-09
5.153206644580e-09
5.168962519005e-09
5.186616426301e-09
5.208434340672e-09
5.252070169415e-09
5.298998358773e-09
5.341048173119e-09
5.385702926693e-09
5.435079819204e-09
5.482635194505e-09
5.532886494505e-09
5.583137794505e-09
5.626347877455e-09
5.671688131224e-09
5.721939431224e-09
5.768406234792e-09
5.804899104007e-09
5.836640558458e-09
5.869285729573e-09
5.902400708098e-09
5.946059761708e-09
5.987733448599e-09
6.033561103558e-09
6.076200443353e-09
6.114451976378e-09
6.156061166929e-09
6.192696222562e-09
6.230513786666e-09
6.280765086666e-09
6.330611812006e-09
6.380863112006e-09
6.427443354599e-09
6.477694654599e-09
6.523708124896e-09
6.566971849688e-09
6.607651591102e-09
6.644441289320e-09
6.683881839274e-09
6.712768824208e-09
6.740815440361e-09
6.769138127352e-09
6.798645260514e-09
6.816279648284e-09
6.834788128288e-09
6.848096965925e-09
6.865439921967e-09
6.900125834052e-09
6.941145780594e-09
6.985039610446e-09
7.028651544263e-09
7.069658512694e-09
7.111315515121e-09
7.161566815121e-09
7.211818115121e-09
7.258234029218e-09
7.303165989995e-09
7.349488384894e-09
7.392734234217e-09
7.435930091444e-09
7.471253730161e-09
7.502814387093e-09
7.532643794119e-09
7.566383987965e-09
7.602656818272e-09
7.641254097474e-09
7.680897115561e-09
7.731148415561e-09
7.779291193569e-09
7.826692137537e-09
7.872961292539e-09
7.920925660564e-09
7.971176960564e-09
8.021428260564e-09
8.071679560564e-09
8.118008901369e-09
8.165375503434e-09
8.215626803434e-09
8.251750122344e-09
8.288901850437e-09
8.319946826689e-09
8.355947196618e-09
8.381370009200e-09
8.403908249622e-09
8.427551642611e-09
8.453444634208e-09
8.473518996892e-09
8.488889100325e-09
8.505025421929e-09
8.521569082706e-09
8.546561786353e-09
8.586894630834e-09
8.625675850911e-09
8.666743552406e-09
8.708646121068e-09
8.758897421068e-09
8.806519256721e-09
8.856770556721e-09
8.907021856721e-09
8.957273156721e-09
9.007524456721e-09
9.057775756721e-09
9.108027056721e-09
9.140859362209e-09
9.176946612086e-09
9.210210921100e-09
9.244787648159e-09
9.283224324694e-09
9.323900990654e-09
9.368953230003e-09
9.413176174586e-09
9.452282223213e-09
9.493926698723e-09
9.534196784218e-09
9.572279694953e-09
9.619584500208e-09
9.669835800208e-09
9.713429981252e-09
9.759525887610e-09
9.809777187610e-09
9.856699944909e-09
9.899935727674e-09
9.940885880588e-09
9.977178012624e-09
1.000000000000e-08
</indep>
<dep tran.v(clock) time>
0.000000000000e+00
9.093173994018e-03
1.818582584409e-02
3.636747471651e-02
7.270153941574e-02
1.451359828234e-01
2.881410816331e-01
5.594223454372e-01
8.851272087586e-01
1.110862537156e+00
1.199592630461e+00
1.137747903890e+00
9.905313156450e-01
7.558155171876e-01
4.166105248253e-01
-3.535212270397e-01
-1.024690888921e+00
-1.191976822806e+00
-8.527327516295e-01
-2.029923656590e-01
6.220432536645e-01
1.157137003484e+00
1.108427451304e+00
5.537566136423e-01
-3.294663873877e-01
-9.861011652318e-01
-1.199945901681e+00
-9.284490148010e-01
-4.429004398785e-01
2.007435334686e-01
8.854913996539e-01
1.198184852710e+00
9.914622179637e-01
3.631390630640e-01
-5.223213661962e-01
-1.057040571650e+00
-1.181467024117e+00
-8.745007932423e-01
-2.510562518027e-01
6.241539124612e-01
1.157788730469e+00
1.105021699073e+00
5.423684792320e-01
-3.417568263684e-01
-9.981466019189e-01
-1.198776885443e+00
-9.701745280764e-01
-4.122064201242e-01
6.573976598748e-02
5.029119124575e-01
8.841179870052e-01
1.140595958963e+00
1.198000095999e+00
1.057941646783e+00
8.952359087587e-01
6.643390001374e-01
4.487293123197e-01
1.302887718257e-01
-5.112839646045e-01
-1.117538291229e+00
-1.137928874024e+00
-6.383046041121e-01
2.347618915708e-01
9.793522649382e-01
1.187980943082e+00
7.464735027505e-01
2.222071260048e-02
-7.428863862755e-01
-1.187326488414e+00
-9.819886298573e-01
-3.950268839699e-01
1.354801947596e-01
6.838252405039e-01
1.070755140634e+00
1.190215872058e+00
8.767181693583e-01
2.253718640645e-01
-5.406142038482e-01
-1.052145306524e+00
-1.185685539987e+00
-8.780480878208e-01
-2.475366274310e-01
6.272242203805e-01
1.158729460914e+00
1.103703877428e+00
5.395670579299e-01
-2.385100574125e-01
-8.455268103384e-01
-1.185037701534e+00
-1.139471820376e+00
-7.863448633051e-01
-2.423857244955e-01
4.787295360996e-01
8.535752815658e-01
1.130767356135e+00
1.198821420824e+00
1.082591233062e+00
9.212062013129e-01
7.022280401730e-01
4.958627939046e-01
1.879533048279e-01
-4.452675752220e-01
-9.937038724634e-01
-1.198950433592e+00
-9.801950235182e-01
-4.280898417223e-01
2.412834324594e-01
9.831822139413e-01
1.187023316932e+00
7.412523732783e-01
1.477639647449e-02
-7.489875564503e-01
-1.188430478540e+00
-9.774912687483e-01
-4.177682190723e-01
9.337518430890e-02
6.400864675897e-01
1.039407040700e+00
1.197059045782e+00
9.021318028332e-01
2.392838692494e-01
-5.462788362267e-01
-1.058605194187e+00
-1.182913109965e+00
-8.641833002687e-01
-2.267732271633e-01
6.451832999159e-01
1.164055908642e+00
1.097849390834e+00
5.310683728953e-01
-3.538488134393e-01
-9.548586808873e-01
-1.197365264029e+00
-1.076116853924e+00
-6.303775074169e-01
-2.210794705115e-02
6.227733904690e-01
9.937626030546e-01
1.179629250922e+00
1.173951499205e+00
1.040285079928e+00
8.865623291563e-01
6.713159301002e-01
3.859932549813e-01
-1.827785035263e-03
-7.353002281363e-01
-1.175214034151e+00
-1.090510489441e+00
-5.401680893587e-01
3.289316130448e-01
1.006368269762e+00
1.180233059031e+00
7.082018477256e-01
-2.438893644594e-02
-7.767632561470e-01
-1.192880524966e+00
-9.959798500901e-01
-4.989117659931e-01
5.982133086439e-02
6.191739956728e-01
1.035802056963e+00
1.190017168329e+00
8.718651471360e-01
1.463098685900e-01
-5.970444087319e-01
-1.068126606052e+00
-1.185755746070e+00
-9.126294709167e-01
-3.475616602221e-01
5.369557138339e-01
1.125092826448e+00
1.104067209047e+00
5.389758780873e-01
-3.453979210114e-01
-1.000475908932e+00
-1.197272634859e+00
-9.324304849340e-01
-3.946938936602e-01
3.080312476263e-01
7.686506759801e-01
1.079144731676e+00
1.199607937981e+00
1.096003059685e+00
9.290642037560e-01
6.838766339812e-01
4.735814277561e-01
1.723964969956e-01
-4.438658043191e-01
-1.008111746999e+00
-1.195297148303e+00
-8.811168590566e-01
-2.457036972265e-01
4.914606768310e-01
1.109405178220e+00
1.120215044509e+00
5.796784525312e-01
-2.070455733775e-01
-9.186871816222e-01
-1.198689836912e+00
-9.872448380405e-01
-5.040416186387e-01
5.091266225616e-02
5.671391433896e-01
1.010443434718e+00
1.199688984959e+00
1.017174186005e+00
4.824311499925e-01
-4.047554740072e-01
-1.052651738248e+00
-1.172623945580e+00
-7.348502234211e-01
7.701596729624e-02
8.790071940190e-01
1.199951709884e+00
8.642089686293e-01
1.262737342741e-01
-6.863076587990e-01
-1.175073990108e+00
-1.131085130241e+00
-7.451935094226e-01
-2.405947175405e-01
4.013258216948e-01
7.952019057210e-01
1.049307258773e+00
1.186522120142e+00
1.165480115942e+00
1.027299599994e+00
8.573645386037e-01
6.298180314322e-01
3.581356472162e-01
-8.849957696854e-02
-7.564364445192e-01
-1.144987733751e+00
-1.140837119851e+00
-7.007553780305e-01
1.605213190609e-01
9.033480009778e-01
1.199075039992e+00
8.385945894827e-01
1.918368680092e-02
-8.107257072476e-01
-1.196956212735e+00
-9.281387810778e-01
-4.552991612804e-01
1.852773710622e-01
7.325431156867e-01
1.108627609307e+00
1.179112731639e+00
8.358402064105e-01
1.092682090553e-01
-6.532895497386e-01
-1.102729941262e+00
-1.170398452511e+00
-8.099973456911e-01
-1.990969831433e-01
6.237988493487e-01
1.157679380562e+00
1.109427274004e+00
5.591012938827e-01
-3.236616643814e-01
-9.970502978243e-01
-1.197704539776e+00
-9.335576140811e-01
-4.048731020251e-01
-7.053965563089e-15
</dep>
<dep tran.v(clock_barre) time>
1.469576158977e-16
-9.093173994018e-03
-1.818582584409e-02
-3.636747471651e-02
-7.270153941574e-02
-1.451359828234e-01
-2.881410816331e-01
-5.594223454372e-01
-8.851272087586e-01
-1.110862537156e+00
-1.199592630461e+00
-1.137747903890e+00
-9.905313156450e-01
-7.558155171876e-01
-4.166105248253e-01
3.535212270397e-01
1.024690888921e+00
1.191976822806e+00
8.527327516295e-01
2.029923656590e-01
-6.220432536645e-01
-1.157137003484e+00
-1.108427451304e+00
-5.537566136423e-01
3.294663873877e-01
9.861011652318e-01
1.199945901681e+00
9.284490148010e-01
4.429004398785e-01
-2.007435334686e-01
-8.854913996539e-01
-1.198184852710e+00
-9.914622179637e-01
-3.631390630640e-01
5.223213661962e-01
1.057040571650e+00
1.181467024117e+00
8.745007932423e-01
2.510562518027e-01
-6.241539124612e-01
-1.157788730469e+00
-1.105021699073e+00
-5.423684792320e-01
3.417568263684e-01
9.981466019189e-01
1.198776885443e+00
9.701745280764e-01
4.122064201242e-01
-6.573976598748e-02
-5.029119124575e-01
-8.841179870052e-01
-1.140595958963e+00
-1.198000095999e+00
-1.057941646783e+00
-8.952359087587e-01
-6.643390001374e-01
-4.487293123197e-01
-1.302887718257e-01
5.112839646045e-01
1.117538291229e+00
1.137928874024e+00
6.383046041121e-01
-2.347618915708e-01
-9.793522649383e-01
-1.187980943082e+00
-7.464735027505e-01
-2.222071260048e-02
7.428863862755e-01
1.187326488414e+00
9.819886298573e-01
3.950268839699e-01
-1.354801947596e-01
-6.838252405039e-01
-1.070755140634e+00
-1.190215872058e+00
-8.767181693583e-01
-2.253718640645e-01
5.406142038482e-01
1.052145306524e+00
1.185685539987e+00
8.780480878208e-01
2.475366274310e-01
-6.272242203805e-01
-1.158729460914e+00
-1.103703877428e+00
-5.395670579299e-01
2.385100574125e-01
8.455268103384e-01
1.185037701534e+00
1.139471820376e+00
7.863448633051e-01
2.423857244955e-01
-4.787295360996e-01
-8.535752815658e-01
-1.130767356135e+00
-1.198821420824e+00
-1.082591233062e+00
-9.212062013129e-01
-7.022280401730e-01
-4.958627939046e-01
-1.879533048279e-01
4.452675752220e-01
9.937038724634e-01
1.198950433592e+00
9.801950235182e-01
4.280898417223e-01
-2.412834324594e-01
-9.831822139412e-01
-1.187023316932e+00
-7.412523732783e-01
-1.477639647449e-02
7.489875564503e-01
1.188430478540e+00
9.774912687483e-01
4.177682190723e-01
-9.337518430890e-02
-6.400864675897e-01
-1.039407040700e+00
-1.197059045782e+00
-9.021318028332e-01
-2.392838692494e-01
5.462788362267e-01
1.058605194187e+00
1.182913109965e+00
8.641833002687e-01
2.267732271633e-01
-6.451832999159e-01
-1.164055908642e+00
-1.097849390834e+00
-5.310683728953e-01
3.538488134393e-01
9.548586808873e-01
1.197365264029e+00
1.076116853924e+00
6.303775074169e-01
2.210794705115e-02
-6.227733904690e-01
-9.937626030546e-01
-1.179629250922e+00
-1.173951499205e+00
-1.040285079928e+00
-8.865623291563e-01
-6.713159301002e-01
-3.859932549813e-01
1.827785035267e-03
7.353002281363e-01
1.175214034151e+00
1.090510489440e+00
5.401680893587e-01
-3.289316130448e-01
-1.006368269762e+00
-1.180233059031e+00
-7.082018477256e-01
2.438893644594e-02
7.767632561470e-01
1.192880524966e+00
9.959798500901e-01
4.989117659931e-01
-5.982133086440e-02
-6.191739956728e-01
-1.035802056963e+00
-1.190017168329e+00
-8.718651471360e-01
-1.463098685900e-01
5.970444087319e-01
1.068126606052e+00
1.185755746070e+00
9.126294709167e-01
3.475616602221e-01
-5.369557138339e-01
-1.125092826448e+00
-1.104067209047e+00
-5.389758780873e-01
3.453979210114e-01
1.000475908932e+00
1.197272634859e+00
9.324304849340e-01
3.946938936602e-01
-3.080312476263e-01
-7.686506759801e-01
-1.079144731676e+00
-1.199607937981e+00
-1.096003059685e+00
-9.290642037560e-01
-6.838766339812e-01
-4.735814277561e-01
-1.723964969956e-01
4.438658043191e-01
1.008111746999e+00
1.195297148303e+00
8.811168590566e-01
2.457036972265e-01
-4.914606768310e-01
-1.109405178220e+00
-1.120215044509e+00
-5.796784525312e-01
2.070455733775e-01
9.186871816222e-01
1.198689836912e+00
9.872448380405e-01
5.040416186387e-01
-5.091266225617e-02
-5.671391433896e-01
-1.010443434718e+00
-1.199688984959e+00
-1.017174186005e+00
-4.824311499925e-01
4.047554740072e-01
1.052651738248e+00
1.172623945580e+00
7.348502234211e-01
-7.701596729624e-02
-8.790071940190e-01
-1.199951709884e+00
-8.642089686293e-01
-1.262737342741e-01
6.863076587990e-01
1.175073990108e+00
1.131085130241e+00
7.451935094226e-01
2.405947175405e-01
-4.013258216948e-01
-7.952019057210e-01
-1.049307258773e+00
-1.186522120142e+00
-1.165480115942e+00
-1.027299599994e+00
-8.573645386037e-01
-6.298180314322e-01
-3.581356472162e-01
8.849957696853e-02
7.564364445192e-01
1.144987733751e+00
1.140837119851e+00
7.007553780305e-01
-1.605213190609e-01
-9.033480009778e-01
-1.199075039992e+00
-8.385945894827e-01
-1.918368680093e-02
8.107257072475e-01
1.196956212735e+00
9.281387810778e-01
4.552991612804e-01
-1.852773710622e-01
-7.325431156867e-01
-1.108627609307e+00
-1.179112731639e+00
-8.358402064105e-01
-1.092682090553e-01
6.532895497386e-01
1.102729941262e+00
1.170398452511e+00
8.099973456911e-01
1.990969831434e-01
-6.237988493487e-01
-1.157679380562e+00
-1.109427274004e+00
-5.591012938827e-01
3.236616643813e-01
9.970502978243e-01
1.197704539776e+00
9.335576140811e-01
4.048731020251e-01
1.999069242267e-14
</dep>
<dep tran.v(vout) time>
4.982888700608e-08
-9.752653006269e-05
-1.947446797723e-04
-3.511179700958e-04
-4.828189742013e-04
-5.158289089479e-04
-4.956586058426e-04
-5.674911855403e-04
-1.623039950482e-03
-2.226520339568e-03
1.409606820588e-03
5.835730223208e-04
-2.016230709913e-04
3.336117868135e-04
6.601591535156e-05
3.263469539111e-04
-2.966860960690e-04
-8.447429997532e-03
-9.584096437825e-03
2.660204269015e-02
6.367148601419e-02
6.662966377083e-02
6.801899703661e-02
6.914200498583e-02
7.246544155760e-02
2.082832929446e-01
6.832213020048e-01
1.158071143548e+00
1.201199345842e+00
1.192426939380e+00
1.204329197470e+00
1.198388229531e+00
1.201957030330e+00
1.198772856763e+00
1.202372456893e+00
1.198785767245e+00
1.193860872486e+00
1.195624076974e+00
1.200005060337e+00
1.201479169389e+00
1.207117178055e+00
1.206015902305e+00
1.203787576125e+00
1.200529791790e+00
1.201372092319e+00
1.207813889231e+00
1.157664770483e+00
5.265454741334e-01
3.304247898864e-02
-1.504819112519e-03
6.688104966701e-03
-4.360913272666e-03
6.391462806047e-03
1.713078206890e-04
1.965567601431e-03
-1.198421511968e-03
9.967629813964e-04
-4.470862749201e-04
6.444918410281e-04
-2.616924704340e-03
-7.545145089662e-03
-6.860140878505e-03
1.686020369140e-03
1.934067810019e-03
2.753284151036e-03
2.285081118170e-03
2.159607421134e-03
5.324298445089e-04
1.098389593456e-01
7.984963312592e-01
1.200387742090e+00
1.192264406094e+00
1.199187193314e+00
1.200229889463e+00
1.200740046527e+00
1.198836172381e+00
1.199856283784e+00
1.200138816006e+00
1.197707361199e+00
1.188067743664e+00
1.192515245666e+00
1.199131323909e+00
1.198461026997e+00
1.201834668485e+00
1.201584050265e+00
1.201339494643e+00
1.200586835727e+00
1.200688141897e+00
1.200990560351e+00
1.207930711874e+00
1.220470995676e+00
1.174229821413e+00
3.815969594904e-01
2.552602150302e-03
1.066703690971e-02
-8.808300667586e-04
6.243050820550e-03
-2.255939536161e-03
1.940407539709e-03
-1.210767321863e-03
1.259026198264e-03
-8.206297245395e-04
9.463208825419e-04
-7.137701891295e-03
-7.873031262842e-03
-4.809968515908e-03
2.031712247102e-03
1.851891608500e-03
3.200535268613e-03
2.181513452589e-03
2.577392869425e-03
5.412123308967e-04
1.113050827203e-01
7.986965228761e-01
1.196517465922e+00
1.193398721660e+00
1.198225880043e+00
1.200286416335e+00
1.200784707302e+00
1.198872833231e+00
1.199705490094e+00
1.200107773660e+00
1.197540333243e+00
1.187906876560e+00
1.192745237868e+00
1.199151583466e+00
1.198512158804e+00
1.201884210904e+00
1.201624230285e+00
1.201299346350e+00
1.200630361434e+00
1.200476412578e+00
1.201719596870e+00
1.210797671732e+00
1.221069267408e+00
1.060822475920e+00
2.247844926552e-01
-2.013671782786e-02
2.307068963249e-02
-9.229819386438e-03
1.116371447104e-02
-6.651575162079e-03
5.028064703876e-03
-3.547038335564e-03
3.143652606356e-03
-2.370780328952e-03
-3.157999567423e-04
-1.225702606827e-02
-1.755220150588e-03
-3.995265106343e-05
8.397117185442e-03
3.034362357662e-03
7.191721783441e-03
3.351891894766e-03
8.047030984790e-03
2.077181699816e-01
9.061205070955e-01
1.208341226563e+00
1.187876089943e+00
1.201867333264e+00
1.199193420574e+00
1.201993846328e+00
1.198937774736e+00
1.200776939325e+00
1.200773208635e+00
1.198744919723e+00
1.189559520053e+00
1.193234580372e+00
1.199216300433e+00
1.198690190966e+00
1.202950482880e+00
1.202657911713e+00
1.201976740466e+00
1.200529824330e+00
1.200822729906e+00
1.205380194848e+00
1.218873919684e+00
1.104531217267e+00
2.075884538914e-01
-2.652764689326e-02
2.664425381800e-02
-1.589452940628e-02
1.766953554152e-02
-1.011351163702e-02
8.012421458746e-03
-5.405138879754e-03
4.448629373925e-03
-3.608351605043e-03
3.129455512101e-03
-9.837918525527e-03
-3.912924893769e-03
-7.395703055079e-03
5.414472333763e-03
-1.343348651080e-03
4.534216535396e-03
4.288860097062e-05
2.491190365118e-03
4.143366233159e-04
1.474300408311e-01
7.689779183744e-01
1.176171622325e+00
1.199846797333e+00
1.194553708337e+00
1.201400103951e+00
1.200118528776e+00
1.199224918689e+00
1.198920106047e+00
1.200056599654e+00
1.196749690652e+00
1.187862888043e+00
1.193766816235e+00
1.199376644419e+00
1.198850615418e+00
1.201776540472e+00
1.200871836816e+00
1.200954705948e+00
1.200463942910e+00
1.200719109141e+00
1.207334380072e+00
1.219610000047e+00
1.206437183127e+00
7.458101086782e-01
1.092815651283e-01
-1.471393885834e-02
1.969423099667e-02
-6.003324257594e-03
8.491399421824e-03
-5.109212882837e-03
3.875587889120e-03
-2.595981224998e-03
2.435040428858e-03
-1.696663020968e-03
-1.246654054341e-04
