<Qucs Dataset 25.1.1>
<indep time 295>
0.000000000000e+00
5.025130000000e-13
1.005026000000e-12
2.010052000000e-12
4.020104000000e-12
8.040208000000e-12
1.608041600000e-11
3.216083200000e-11
6.432166400000e-11
1.117026533666e-10
1.619539533666e-10
2.122052533666e-10
2.624565533666e-10
3.127078533666e-10
3.450401444188e-10
3.845676988995e-10
4.127844410897e-10
4.367661072276e-10
4.618378672838e-10
4.879612925160e-10
5.101987526164e-10
5.362544031160e-10
5.622975550096e-10
5.884044751247e-10
6.239314864107e-10
6.670567865993e-10
7.173080865993e-10
7.660043150829e-10
8.152185312038e-10
8.566749662845e-10
9.023004388270e-10
9.404060100481e-10
9.829420247032e-10
1.033193324703e-09
1.083444624703e-09
1.133695924703e-09
1.174508771131e-09
1.214770099688e-09
1.247951130011e-09
1.280756112139e-09
1.311049647026e-09
1.332547785493e-09
1.355256971802e-09
1.372842562020e-09
1.395787967025e-09
1.441678777035e-09
1.491930077035e-09
1.542181377035e-09
1.585190262319e-09
1.629536702253e-09
1.665617548537e-09
1.707407907484e-09
1.743382644462e-09
1.783939691139e-09
1.834190991139e-09
1.884442291139e-09
1.924824285846e-09
1.971846941786e-09
2.004002658919e-09
2.038815894065e-09
2.061040717798e-09
2.081384436542e-09
2.102732447965e-09
2.145428470813e-09
2.188945494551e-09
2.239196794551e-09
2.289448094551e-09
2.326796864646e-09
2.362828810270e-09
2.403396673143e-09
2.432353402694e-09
2.463786953431e-09
2.496767167824e-09
2.532995988299e-09
2.565888511299e-09
2.597744325754e-09
2.617654995277e-09
2.639750086005e-09
2.664115885731e-09
2.693413858157e-09
2.724590040804e-09
2.753535567273e-09
2.771750368464e-09
2.792408416896e-09
2.812897618778e-09
2.834910275732e-09
2.878935589641e-09
2.929186889641e-09
2.979438189641e-09
3.029689489641e-09
3.079940789641e-09
3.130192089641e-09
3.180443389641e-09
3.217376866615e-09
3.257331385651e-09
3.290768666027e-09
3.329005017281e-09
3.363875175954e-09
3.399710543711e-09
3.435975078461e-09
3.472717584078e-09
3.498553226071e-09
3.523122829214e-09
3.544695691862e-09
3.568608889126e-09
3.594892380387e-09
3.610777537398e-09
3.629079258635e-09
3.646648445458e-09
3.667127944896e-09
3.708086943772e-09
3.758338243772e-09
3.808589543772e-09
3.858840843772e-09
3.909092143772e-09
3.959343443772e-09
4.009594743772e-09
4.045741914478e-09
4.085019907938e-09
4.117507453754e-09
4.152864711541e-09
4.188109789666e-09
4.221817395540e-09
4.258829757761e-09
4.296531617370e-09
4.320460879183e-09
4.343624985152e-09
4.364142157457e-09
4.390210908959e-09
4.415411756897e-09
4.431322383958e-09
4.451068846390e-09
4.465853942278e-09
4.484824509206e-09
4.512313598569e-09
4.562564898569e-09
4.612816198569e-09
4.663067498569e-09
4.713318798569e-09
4.763570098569e-09
4.813821398569e-09
4.849812666727e-09
4.889785417878e-09
4.927937391463e-09
4.957063709400e-09
4.990383215419e-09
5.019810490186e-09
5.053236580158e-09
5.092325304752e-09
5.127739527826e-09
5.154116849185e-09
5.179742736450e-09
5.202674760302e-09
5.226844666822e-09
5.253730485753e-09
5.274608346399e-09
5.293744229472e-09
5.308616204733e-09
5.328385022604e-09
5.367922658346e-09
5.418173958346e-09
5.468425258346e-09
5.518676558346e-09
5.568927858346e-09
5.619179158346e-09
5.669430458346e-09
5.705888505465e-09
5.743393885845e-09
5.780430893480e-09
5.809881145427e-09
5.841833167403e-09
5.872422278539e-09
5.908077133592e-09
5.939470193344e-09
5.970096607004e-09
5.988662037744e-09
6.011468202027e-09
6.034624365279e-09
6.059404944572e-09
6.086715464400e-09
6.101578869703e-09
6.121192635540e-09
6.135257724905e-09
6.154898057405e-09
6.185289884135e-09
6.235541184135e-09
6.285792484135e-09
6.336043784135e-09
6.386295084135e-09
6.436546384135e-09
6.486797684135e-09
6.520020420035e-09
6.558352674636e-09
6.594511818971e-09
6.621923665094e-09
6.653809228363e-09
6.682271427971e-09
6.715039820085e-09
6.755533114573e-09
6.791347461158e-09
6.818958521204e-09
6.846735123285e-09
6.870135030560e-09
6.894839947379e-09
6.922133527825e-09
6.942999159892e-09
6.962336999828e-09
6.978426856133e-09
6.998664554198e-09
7.039139950330e-09
7.089391250330e-09
7.139642550330e-09
7.189893850330e-09
7.240145150330e-09
7.290396450330e-09
7.340647750330e-09
7.375734537513e-09
7.414420170409e-09
7.449669891722e-09
7.481124161100e-09
7.513782159256e-09
7.547283328762e-09
7.582748470937e-09
7.612986234047e-09
7.644118293231e-09
7.665288859892e-09
7.689317007401e-09
7.714243708973e-09
7.740663079144e-09
7.763162607100e-09
7.781492500782e-09
7.800486994709e-09
7.818369769112e-09
7.846969318971e-09
7.895747743514e-09
7.945999043514e-09
7.996250343514e-09
8.046501643514e-09
8.096752943514e-09
8.147004243514e-09
8.190932402860e-09
8.237397992518e-09
8.278138353017e-09
8.307101801692e-09
8.339976396401e-09
8.367022809254e-09
8.401938708386e-09
8.432971627850e-09
8.468762349434e-09
8.489049633628e-09
8.511629509519e-09
8.533286977693e-09
8.557160623790e-09
8.584045164706e-09
8.599303388107e-09
8.619463095322e-09
8.634591851009e-09
8.653098258059e-09
8.679902043311e-09
8.730153343311e-09
8.780404643311e-09
8.830655943311e-09
8.880907243311e-09
8.931158543311e-09
8.981409843311e-09
9.017460160748e-09
9.057096624475e-09
9.094497968313e-09
9.122330142541e-09
9.155527249795e-09
9.184852748404e-09
9.217973500709e-09
9.257600659235e-09
9.294375574994e-09
9.322209820399e-09
9.349751842935e-09
9.372474867424e-09
9.397459840727e-09
9.422536762898e-09
9.442952936114e-09
9.462097993285e-09
9.479026946475e-09
9.499477762039e-09
9.540379393168e-09
9.590630693168e-09
9.640881993168e-09
9.691133293168e-09
9.741384593168e-09
9.791635893168e-09
9.841887193168e-09
9.877193545788e-09
9.915975978048e-09
9.949986658854e-09
9.981938750525e-09
1.000000000000e-08
</indep>
<dep tran.v(vout) time>
1.109283752647e+00
1.109282951409e+00
1.109280806696e+00
1.109274848458e+00
1.109256104912e+00
1.109203962080e+00
1.109144124535e+00
1.110253928109e+00
1.124213093896e+00
1.161490456968e+00
1.186635396052e+00
1.193354007287e+00
1.197611601476e+00
1.193787323588e+00
1.173351468825e+00
7.542657775431e-01
1.034657785021e-01
-1.749641096213e-02
2.128477748083e-02
-1.166749992826e-02
5.376068141460e-03
-1.919471773388e-02
-3.464987149119e-03
-1.236476737995e-02
1.871616238249e-01
6.971704833663e-01
1.154193636168e+00
1.201168482894e+00
1.195907782019e+00
1.204476172734e+00
1.191922697569e+00
1.194188243423e+00
1.194889620930e+00
1.201731238905e+00
1.204676880615e+00
1.214525775446e+00
1.202673277136e+00
5.023603198805e-01
1.059925878786e-03
1.006380529116e-02
-3.794258348767e-03
-6.884649418150e-04
-1.157633819862e-02
-8.014890283577e-03
-1.662242506590e-02
9.914184134020e-02
6.652376947569e-01
1.162874490651e+00
1.199843516075e+00
1.197577948324e+00
1.204092997960e+00
1.195329816471e+00
1.196350783323e+00
1.197729534949e+00
1.210770465886e+00
1.200804708573e+00
7.750783308683e-01
3.455016456584e-02
-9.117212528194e-03
9.919246540207e-03
-6.627262316309e-03
4.810456757551e-03
-3.978352408326e-03
-1.870532340653e-03
-1.719124757602e-02
3.626774097988e-01
1.092074031398e+00
1.218977608817e+00
1.183417090600e+00
1.209633474155e+00
1.191567602990e+00
1.202039731462e+00
1.200024152134e+00
1.245368658984e+00
8.557387471278e-01
5.822880565926e-02
-1.662342460623e-02
1.691660801966e-02
-1.198143988928e-02
1.048079994438e-02
-4.840042499371e-03
7.459455593644e-03
-4.678488338715e-03
3.502663546083e-03
-2.786846987821e-03
2.177059915643e-03
-1.986212413415e-03
1.258943393514e-03
-5.671680323797e-03
-8.690037924899e-03
9.449031500257e-03
5.483870995000e-01
1.148509443932e+00
1.204270006755e+00
1.194249218010e+00
1.205384456216e+00
1.194268433648e+00
1.200825404376e+00
1.217204153188e+00
1.181235267478e+00
4.333885208720e-01
3.804506762145e-03
1.008047717870e-02
-8.961951746184e-04
6.159997477474e-03
-4.776327442952e-04
1.717938007868e-03
-1.381979727071e-03
1.026629911357e-03
-8.323554168600e-04
7.655143418101e-04
-1.038557465773e-03
-2.818222511131e-03
-1.160762916239e-02
1.542665508360e-02
5.479122367813e-01
1.154321893801e+00
1.203443011703e+00
1.195195831009e+00
1.204461703542e+00
1.194673872385e+00
1.201119019589e+00
1.220936754760e+00
1.129395936944e+00
2.111427138503e-01
-2.715840131866e-02
2.746340174699e-02
-1.477623136742e-02
1.514649952890e-02
-6.449342344900e-03
7.291800061591e-03
-5.379725593648e-03
3.743683544433e-03
-2.938880655077e-03
2.457262145569e-03
-2.271430973895e-03
8.984688663161e-04
-8.224263523458e-03
-1.096296518679e-02
1.499784508074e-01
8.710111123058e-01
1.188882438198e+00
1.193029993121e+00
1.203314442975e+00
1.199708986841e+00
1.197323984282e+00
1.197743002611e+00
1.215451085214e+00
1.188835844904e+00
4.819569030043e-01
9.079087589047e-03
7.056562573795e-03
1.747880387572e-04
4.253945593314e-03
1.535991884990e-03
7.553589894380e-04
-7.629171168677e-04
5.065613785112e-04
-4.103904574891e-04
3.508760844579e-04
-5.469970222913e-04
-2.515478005295e-03
-9.746527245191e-03
-3.074917454002e-03
4.464684463861e-01
1.117027631229e+00
1.209322876172e+00
1.189903949878e+00
1.208191988376e+00
1.194063971874e+00
1.198788382768e+00
1.205913542658e+00
1.228284305707e+00
9.623898978517e-01
1.442044006971e-01
-1.943592045535e-02
2.279227922797e-02
-1.117121070760e-02
1.253136876439e-02
-4.845502728382e-03
5.622426470100e-03
-4.223636366666e-03
2.885938520209e-03
-2.298431931417e-03
1.956108778793e-03
-1.845268713370e-03
1.216735333188e-04
-8.759180578443e-03
-1.153152872778e-02
2.398941535036e-01
9.831294228414e-01
1.201982038206e+00
1.188091900306e+00
1.206777786480e+00
1.197841094764e+00
1.198333919929e+00
1.196798193244e+00
1.214086818857e+00
1.195000988782e+00
4.848005921117e-01
5.699157047259e-03
8.057704697517e-03
-1.404538161117e-03
5.372523030312e-03
3.053232963861e-04
1.362269048603e-03
-1.282161725265e-03
9.290633325170e-04
-7.528908882238e-04
6.631175888605e-04
-9.262785048409e-04
-2.665447186065e-03
-1.090451510221e-02
6.135610238038e-03
4.992628960402e-01
1.137729691875e+00
1.205529562559e+00
1.192725812768e+00
1.206389268276e+00
1.194453347110e+00
1.198761785728e+00
1.210970152259e+00
1.220874637972e+00
8.373206221594e-01
7.486840453542e-02
-1.561637699798e-02
1.818487733157e-02
-9.221973532618e-03
1.231982622915e-02
-5.799848051885e-03
4.867012398154e-03
-3.853695065914e-03
2.920899119271e-03
-2.475689840078e-03
2.240651532364e-03
-3.265250439429e-03
-3.699018431580e-03
-1.798276312133e-02
1.709349487400e-01
8.604113300346e-01
1.202120368096e+00
1.190121721631e+00
1.207733545276e+00
1.195337069832e+00
1.198369264769e+00
1.201298341852e+00
1.225291181895e+00
1.144342898746e+00
2.902805353462e-01
-9.268380095173e-03
1.792029871122e-02
-6.483144253375e-03
9.110286421725e-03
-1.703987029683e-03
4.093371032001e-03
-2.890924601720e-03
1.983802393936e-03
-1.580548478610e-03
1.324622741943e-03
-1.242842586754e-03
-9.175621973064e-05
-7.369682787942e-03
-1.263893403008e-02
1.715029531199e-01
8.942479134330e-01
1.193363825213e+00
1.191406528707e+00
1.204511475685e+00
1.199135577077e+00
1.197708667451e+00
1.197358448336e+00
1.214984373206e+00
1.190436996973e+00
4.394247540904e-01
-1.749365408796e-03
1.205554194232e-02
-4.150217880211e-03
7.749681839308e-03
-1.521306659237e-03
2.654089520655e-03
-2.231598426923e-03
1.649248116970e-03
-1.312099668511e-03
1.169893181077e-03
-1.397387001312e-03
-2.340736122745e-03
-1.170208710969e-02
1.052083526890e-02
5.135182955092e-01
1.143257634026e+00
1.204749662845e+00
1.193524932974e+00
1.205821630448e+00
1.194670611040e+00
1.197744885227e+00
</dep>
<dep tran.v(clock) time>
9.000000000000e-01
9.022732934985e-01
9.045464564610e-01
9.090918686791e-01
9.181753848539e-01
9.362839957058e-01
9.720352704083e-01
1.039855586359e+00
1.147456868202e+00
1.198064976247e+00
1.093124058228e+00
8.824937970152e-01
6.814440050215e-01
6.000014736259e-01
6.353981646679e-01
7.603920693619e-01
8.824472554902e-01
9.895419280549e-01
1.088909694066e+00
1.163890977520e+00
1.196150686450e+00
1.191924963472e+00
1.143242283510e+00
1.057278416117e+00
9.048336324374e-01
7.222396813250e-01
6.047838905897e-01
6.451087278678e-01
8.190659342209e-01
1.003428122395e+00
1.158721184555e+00
1.199711996210e+00
1.132278334488e+00
9.382282754991e-01
7.232573567997e-01
6.050108651110e-01
6.276131450268e-01
7.480154304431e-01
8.907326051051e-01
1.034202618730e+00
1.138790759792e+00
1.184198798184e+00
1.199959452899e+00
1.188181455214e+00
1.142825674056e+00
9.745539000944e-01
7.544307981996e-01
6.139721020171e-01
6.173904697816e-01
7.406678629875e-01
8.952540993685e-01
1.072931543468e+00
1.174662155547e+00
1.194159858298e+00
1.073181968324e+00
8.574282712701e-01
6.952160544553e-01
6.018256688900e-01
6.207947762479e-01
7.133969869731e-01
8.010393232212e-01
8.911846677111e-01
9.865132039740e-01
1.141624020856e+00
1.199928732881e+00
1.113364913222e+00
9.100347116529e-01
7.484044786000e-01
6.363946206863e-01
6.019490809652e-01
6.443539886820e-01
7.441976338676e-01
8.853808039578e-01
1.043186894980e+00
1.151394715560e+00
1.198594209138e+00
1.193815679857e+00
1.157837785886e+00
1.085538461670e+00
9.669261725471e-01
8.271907937245e-01
7.109812650429e-01
6.548797173916e-01
6.136639776661e-01
6.000053926961e-01
6.169680057545e-01
7.383703059505e-01
9.563042578641e-01
1.143425062585e+00
1.197328725861e+00
1.088515853263e+00
8.765355301890e-01
6.773964058011e-01
6.047287040116e-01
6.266530087800e-01
7.203940935853e-01
8.804330592590e-01
1.033334984658e+00
1.152594318127e+00
1.199920686094e+00
1.158679900950e+00
1.081588249239e+00
9.828013037845e-01
8.863017772273e-01
7.814417696360e-01
6.842452887590e-01
6.409501885494e-01
6.095236421511e-01
6.000226622339e-01
6.153347908622e-01
7.227638807207e-01
9.376220091031e-01
1.131891063974e+00
1.199255089670e+00
1.102848354929e+00
8.954305447331e-01
6.905134210402e-01
6.095281782062e-01
6.171328261695e-01
6.974250277762e-01
8.380112312273e-01
9.953247488155e-01
1.121713860137e+00
1.195098729963e+00
1.177754611919e+00
1.119840555668e+00
1.036700819777e+00
9.489005470511e-01
8.317892885745e-01
7.282885749729e-01
6.747502618044e-01
6.265284409228e-01
6.060248789858e-01
6.010912185330e-01
6.367027913693e-01
8.075741707224e-01
1.029026639144e+00
1.179867807913e+00
1.177548127274e+00
1.023337068910e+00
8.016283930863e-01
6.693871501542e-01
6.012467628709e-01
6.344742306308e-01
7.190503199490e-01
8.566470183034e-01
9.882934851360e-01
1.115788864794e+00
1.195229954430e+00
1.181244866526e+00
1.118844802186e+00
1.025370947439e+00
9.255677281341e-01
8.173400388872e-01
7.102973330619e-01
6.476554119032e-01
6.119191785207e-01
6.005143538510e-01
6.085658708247e-01
6.988144333027e-01
9.068182397939e-01
1.111090686805e+00
1.199841348248e+00
1.124500412562e+00
9.262990659676e-01
7.137052556156e-01
6.182939197729e-01
6.068777609108e-01
6.852639943734e-01
7.961025458727e-01
9.383471429005e-01
1.066770529759e+00
1.170952604318e+00
1.199867608766e+00
1.164481370787e+00
1.115058578150e+00
1.031941657130e+00
9.317987739352e-01
8.207074283006e-01
7.115207925839e-01
6.643590810403e-01
6.204727852045e-01
6.038068307395e-01
6.027983776364e-01
6.515538980834e-01
8.351068802028e-01
1.054173362153e+00
1.188866713518e+00
1.165474461763e+00
9.967982834173e-01
7.751481406135e-01
6.594746826378e-01
6.005865001620e-01
6.342802738183e-01
7.125990697929e-01
8.421980588522e-01
9.699445779419e-01
1.099937899398e+00
1.192050471818e+00
1.185759884314e+00
1.124408375615e+00
1.024030756990e+00
9.219888668950e-01
8.115791645801e-01
7.042777337689e-01
6.435229779082e-01
6.096093120380e-01
6.000186685246e-01
6.128741234545e-01
7.145470988344e-01
9.273672702225e-01
1.125210390893e+00
1.199804556917e+00
1.110327260287e+00
9.057459719575e-01
6.980201349486e-01
6.136737147162e-01
6.117068343387e-01
6.935497938558e-01
8.157561415177e-01
9.619011442497e-01
1.096235361258e+00
1.184488254824e+00
1.197350720355e+00
1.147183852566e+00
1.081339798454e+00
9.848536444934e-01
8.732974752753e-01
7.594688361120e-01
6.792683889134e-01
6.322017818521e-01
6.049089526217e-01
6.011744430150e-01
6.396222159235e-01
8.069267306623e-01
1.028411696264e+00
1.179621896717e+00
1.177805825469e+00
1.023957348219e+00
8.022717985848e-01
6.484969854539e-01
6.023081041056e-01
6.781513310922e-01
7.844018950799e-01
9.300022715144e-01
1.045935873693e+00
1.157888944842e+00
1.199300820101e+00
1.167276589297e+00
1.113832385058e+00
1.031285894908e+00
9.378080152326e-01
8.305429714362e-01
7.210693967563e-01
6.708675204412e-01
6.234083689963e-01
6.043001182258e-01
6.017984622056e-01
6.387268085222e-01
8.115501611115e-01
1.032778696688e+00
1.181342576333e+00
1.175938522735e+00
1.019523965851e+00
7.976985556401e-01
6.665744795579e-01
6.009953217388e-01
6.342511935920e-01
7.140385273443e-01
8.498431215401e-01
9.812445240702e-01
1.109633624008e+00
1.194047119301e+00
1.181293045622e+00
1.114381054422e+00
1.011480390777e+00
9.114206702970e-01
8.003254739442e-01
7.028988629215e-01
6.436315176561e-01
6.098826643506e-01
6.000006658734e-01
6.139618322799e-01
7.189866409069e-01
9.329458929518e-01
1.128875129374e+00
1.199549841224e+00
1.106292486488e+00
9.001392160253e-01
6.939097580049e-01
6.117731902210e-01
6.137329828929e-01
6.945918762601e-01
8.192992443122e-01
9.000000000000e-01
</dep>
