<Qucs Dataset 25.1.1>
<indep time 297>
0.000000000000e+00
5.025130000000e-13
1.005026000000e-12
2.010052000000e-12
4.020104000000e-12
8.040208000000e-12
1.608041600000e-11
3.216083200000e-11
6.432166400000e-11
1.133079134151e-10
1.620320250149e-10
2.122833250149e-10
2.625346250149e-10
3.127859250149e-10
3.630372250149e-10
4.056173065748e-10
4.481660488306e-10
4.880838142523e-10
5.264107672178e-10
5.677887827057e-10
6.063127601466e-10
6.422226750332e-10
6.719143490155e-10
7.011508024143e-10
7.242290278668e-10
7.483426227211e-10
7.800195592655e-10
8.155779852409e-10
8.459862173340e-10
8.695023415060e-10
8.939211456812e-10
9.183703919854e-10
9.515154084599e-10
1.001766708460e-09
1.052018008460e-09
1.102269308460e-09
1.152520608460e-09
1.202771908460e-09
1.253023208460e-09
1.292291105926e-09
1.335422821272e-09
1.372132306244e-09
1.398774251040e-09
1.429449281140e-09
1.462856413692e-09
1.495215274568e-09
1.527641335920e-09
1.560116339090e-09
1.579798401078e-09
1.600973410344e-09
1.623617921373e-09
1.648037651442e-09
1.677659819391e-09
1.707104772239e-09
1.727591584250e-09
1.746957605023e-09
1.761738046324e-09
1.781787901106e-09
1.821887610672e-09
1.872138910672e-09
1.922390210672e-09
1.972641510672e-09
2.022892810672e-09
2.073144110672e-09
2.123395410672e-09
2.165648150529e-09
2.206763007410e-09
2.243954675690e-09
2.274480630381e-09
2.307413133965e-09
2.339409945976e-09
2.375113734796e-09
2.407214391432e-09
2.438552932554e-09
2.458583980602e-09
2.482349921817e-09
2.507072615008e-09
2.533077677146e-09
2.553945213936e-09
2.570807196921e-09
2.588528850502e-09
2.607092837900e-09
2.630604656936e-09
2.675024123288e-09
2.725275423288e-09
2.775526723288e-09
2.825778023288e-09
2.876029323288e-09
2.926280623288e-09
2.976531923288e-09
3.016418750699e-09
3.057958868624e-09
3.086335023829e-09
3.118880002958e-09
3.145505372595e-09
3.179167061006e-09
3.219531549099e-09
3.258639070563e-09
3.283495284323e-09
3.307944841721e-09
3.328915685721e-09
3.355600442413e-09
3.381342383167e-09
3.396937397671e-09
3.415717552854e-09
3.431413258684e-09
3.451866273736e-09
3.491011205818e-09
3.541262505818e-09
3.591513805818e-09
3.641765105818e-09
3.692016405818e-09
3.742267705818e-09
3.792519005818e-09
3.825666097117e-09
3.863078330966e-09
3.907919315349e-09
3.938804175088e-09
3.972526814796e-09
4.001512962416e-09
4.036653931035e-09
4.067880883176e-09
4.097591245549e-09
4.118443148890e-09
4.141710353243e-09
4.167945009302e-09
4.195096040176e-09
4.214296449871e-09
4.229976160951e-09
4.247314978209e-09
4.267825721041e-09
4.287163599181e-09
4.325839355459e-09
4.376090655459e-09
4.426341955459e-09
4.476593255459e-09
4.526844555459e-09
4.577095855459e-09
4.627347155459e-09
4.668282294163e-09
4.707694921726e-09
4.743317262914e-09
4.774485817549e-09
4.807375308747e-09
4.840859161239e-09
4.876547430193e-09
4.909691116753e-09
4.940410171463e-09
4.962183110049e-09
4.986568592555e-09
5.011988294147e-09
5.041697482690e-09
5.061820338834e-09
5.083206861882e-09
5.099261494023e-09
5.117617424532e-09
5.154329285549e-09
5.201714732603e-09
5.251966032603e-09
5.302217332603e-09
5.352468632603e-09
5.402719932603e-09
5.452971232603e-09
5.497054549954e-09
5.540912763599e-09
5.577933294318e-09
5.609335767629e-09
5.642834816745e-09
5.675726785297e-09
5.711228333823e-09
5.741533043091e-09
5.773269205176e-09
5.794069677443e-09
5.818522693232e-09
5.845314788579e-09
5.873652530780e-09
5.895290900664e-09
5.916436305642e-09
5.932679688435e-09
5.951142638674e-09
5.988068539153e-09
6.034259690650e-09
6.084510990650e-09
6.134762290650e-09
6.185013590650e-09
6.235264890650e-09
6.285516190650e-09
6.329595264370e-09
6.373974385256e-09
6.415168653486e-09
6.449758087372e-09
6.485567089741e-09
6.519695895675e-09
6.555090608180e-09
6.590297234403e-09
6.615912789877e-09
6.640322802846e-09
6.662165619721e-09
6.686497115233e-09
6.713514774369e-09
6.733183020490e-09
6.752966997632e-09
6.770305815173e-09
6.789379435738e-09
6.827526676869e-09
6.877777976869e-09
6.928029276869e-09
6.978280576869e-09
7.028531876869e-09
7.078783176869e-09
7.129034476869e-09
7.164638323525e-09
7.202363405273e-09
7.238554529370e-09
7.268028248333e-09
7.299874118737e-09
7.330843143433e-09
7.366428052145e-09
7.397115141641e-09
7.428037453487e-09
7.446505514436e-09
7.469232423550e-09
7.492153828956e-09
7.516797401817e-09
7.544002157230e-09
7.558767328122e-09
7.578611261340e-09
7.593010036269e-09
7.612280759003e-09
7.641339092946e-09
7.691590392946e-09
7.741841692946e-09
7.792092992946e-09
7.842344292946e-09
7.892595592946e-09
7.942846892946e-09
7.976537786931e-09
8.015526598232e-09
8.051474084757e-09
8.078808778949e-09
8.111686070907e-09
8.141251825752e-09
8.174204549253e-09
8.213899386935e-09
8.248151793029e-09
8.276269710176e-09
8.304007920736e-09
8.329459066693e-09
8.353357341604e-09
8.383000856966e-09
8.404592801736e-09
8.425141531058e-09
8.443491072743e-09
8.464320239442e-09
8.505978572841e-09
8.556229872841e-09
8.606481172841e-09
8.656732472841e-09
8.706983772841e-09
8.757235072841e-09
8.807486372841e-09
8.846431486807e-09
8.887471642083e-09
8.915187418983e-09
8.949019159967e-09
8.977529633506e-09
9.010882195245e-09
9.050722381410e-09
9.085367487047e-09
9.112078873193e-09
9.137569975083e-09
9.159843204500e-09
9.185081884808e-09
9.213235424379e-09
9.233792054726e-09
9.254396271980e-09
9.272954368954e-09
9.292208239569e-09
9.330715980800e-09
9.380967280800e-09
9.431218580800e-09
9.481469880800e-09
9.531721180800e-09
9.581972480800e-09
9.632223780800e-09
9.666974607818e-09
9.705390805950e-09
9.739896583360e-09
9.770454822258e-09
9.802523211072e-09
9.835503635851e-09
9.870980426396e-09
9.902359653106e-09
9.932789800994e-09
9.954774575469e-09
9.978177310147e-09
1.000000000000e-08
</indep>
<dep tran.v(a) time>
6.447727640249e-01
6.449733509806e-01
6.451950860936e-01
6.456082471941e-01
6.461401551692e-01
6.459926303293e-01
6.414913941076e-01
6.210482841936e-01
5.698097293480e-01
5.213306861155e-01
4.856170043505e-01
4.666463825573e-01
5.051733790466e-01
6.376922352648e-01
9.622100044349e-01
1.158946021524e+00
1.173328088531e+00
1.170608483241e+00
1.174973905238e+00
1.191078862152e+00
1.228482378354e+00
1.205823181627e+00
9.949646171314e-01
7.113025893232e-01
5.671129541206e-01
4.428532615461e-01
2.675836800061e-01
9.941778356135e-02
3.679409470576e-02
1.030458792094e-02
3.524327050680e-03
2.788303772852e-03
-1.095936479079e-03
-6.423891534711e-03
-1.057981227212e-02
-1.674631328677e-02
-2.246026221355e-02
1.062787375407e-02
1.721172575720e-01
4.239324038888e-01
8.453088432730e-01
1.116428169205e+00
1.158882452154e+00
1.165567608119e+00
1.169785534290e+00
1.206148013786e+00
1.265625144925e+00
1.242523074734e+00
1.154727282458e+00
9.992560160045e-01
7.480080346084e-01
3.928160387772e-01
9.271789123515e-02
3.842632015471e-02
2.428938781349e-02
2.645337718038e-03
2.429433933410e-03
-4.595546378729e-04
-3.990683752370e-03
-8.724639613951e-03
-1.179872148635e-02
-2.045573362771e-02
-1.854000092035e-02
5.028680378676e-02
2.301261449010e-01
4.736667738142e-01
8.269108077237e-01
1.094996676789e+00
1.158261920885e+00
1.163247052343e+00
1.180985983179e+00
1.220822760438e+00
1.258810891680e+00
1.200254774892e+00
1.036395339828e+00
6.746222313919e-01
2.415317048042e-01
4.955013715790e-02
4.336241707306e-02
1.542731241759e-02
4.753781537599e-03
-5.531841746040e-05
-8.978193378630e-04
-6.934189254588e-03
-7.456309600862e-03
-1.791002032775e-02
-2.046515123784e-02
8.096943634331e-04
1.160774719803e-01
3.574577673947e-01
6.425478222858e-01
9.969770889330e-01
1.133846964170e+00
1.160836253047e+00
1.165174712524e+00
1.193941125118e+00
1.251484144209e+00
1.223668593260e+00
1.062596963394e+00
7.317529580920e-01
3.602673697226e-01
8.025175039171e-02
4.084183911228e-02
2.446389078961e-02
5.887458473518e-03
1.417035329479e-03
-3.188565114517e-05
-4.921598550253e-03
-7.360328904081e-03
-1.402748776326e-02
-1.909735776454e-02
-1.600196355043e-02
5.979610644325e-02
2.540611564258e-01
4.516351207782e-01
7.706464848342e-01
1.100214368903e+00
1.161310881571e+00
1.163622330930e+00
1.182366178497e+00
1.225466218822e+00
1.263515415580e+00
1.208907832708e+00
1.051456348758e+00
7.292602764305e-01
2.748013219229e-01
5.445052664425e-02
4.671801027531e-02
2.245456209973e-02
6.935342422241e-03
6.384901980467e-04
-1.291996808234e-06
-5.281168720705e-03
-6.971560355156e-03
-1.489149795033e-02
-1.874886415346e-02
-1.502837606935e-02
6.075177654372e-02
2.532311265936e-01
4.996395693064e-01
8.413325547313e-01
1.096730072975e+00
1.158487770521e+00
1.163209831326e+00
1.183691687087e+00
1.225808766313e+00
1.263643637668e+00
1.178783201404e+00
9.698437551784e-01
5.714042181470e-01
1.719607228844e-01
3.427377103316e-02
3.506660048594e-02
3.167994087713e-03
2.592987589634e-03
-1.212554234643e-03
-3.210577827152e-03
-9.084386092843e-03
-9.556769726729e-03
-2.143244210827e-02
-2.015702056566e-02
4.435766679847e-02
2.187577512944e-01
4.700630418941e-01
8.487959157273e-01
1.104077461260e+00
1.160078928659e+00
1.163694028067e+00
1.184979944255e+00
1.226769517826e+00
1.262287199320e+00
1.184866882572e+00
9.959065957029e-01
6.054067400055e-01
1.790273458093e-01
3.670733326366e-02
3.548706661698e-02
3.067211029451e-03
2.812251009814e-03
-1.393309860942e-03
-3.070584256430e-03
-9.222088288414e-03
-9.096859335632e-03
-2.172739786320e-02
-2.043061263068e-02
4.358007837974e-02
2.177522422866e-01
4.695490639122e-01
8.543098134978e-01
1.119961492438e+00
1.163285166024e+00
1.166758160279e+00
1.197669741928e+00
1.244150402418e+00
1.245848260363e+00
1.104323145141e+00
7.872753125718e-01
3.953350585576e-01
1.004435824912e-01
3.920085031349e-02
2.482900996197e-02
3.204991676147e-03
1.158487788645e-03
-8.169366731460e-04
-4.867487096883e-03
-8.062493947720e-03
-1.375785194364e-02
-2.001274867885e-02
-1.432520555994e-02
6.913714906399e-02
2.735796140539e-01
4.950816557053e-01
8.307667016682e-01
1.095479088924e+00
1.157711055143e+00
1.162726497164e+00
1.178128413528e+00
1.219882831460e+00
1.258918498792e+00
1.219299775838e+00
1.101705543653e+00
8.240503205133e-01
4.236113900000e-01
1.112745355356e-01
3.883534048044e-02
3.247530250432e-02
7.418463790870e-03
2.491235142512e-03
2.282142469064e-04
-2.896559257925e-03
-7.117571488826e-03
-1.092498003511e-02
-1.785898004131e-02
-2.076795509455e-02
2.444420434636e-02
1.760987150127e-01
3.464410114172e-01
6.254746592428e-01
9.538780069727e-01
1.114845380023e+00
1.160730144733e+00
1.163269750859e+00
1.187436705831e+00
1.241231779616e+00
1.262047750492e+00
1.137858429380e+00
8.049556799443e-01
3.604631728286e-01
9.075688291759e-02
3.603376407853e-02
1.792982562525e-02
1.145325341041e-03
3.856411721761e-04
-1.548520567961e-03
-6.115946306971e-03
-8.508824704373e-03
-1.610886417787e-02
-2.076476385646e-02
-3.099927149671e-03
1.072153107019e-01
3.429441183565e-01
6.131549053800e-01
9.731625690853e-01
1.124429878752e+00
1.161369758705e+00
1.164530566585e+00
1.192031180095e+00
1.248347120204e+00
1.250311962996e+00
1.109200558258e+00
7.930361439284e-01
4.036285748359e-01
1.010791690293e-01
3.753830671783e-02
2.310634541211e-02
1.931853264872e-03
9.688624852912e-04
-1.168202671651e-03
-5.141542230697e-03
-8.324437356245e-03
-1.422892958049e-02
-2.034697879364e-02
-1.212584608667e-02
7.821621206804e-02
2.908823101331e-01
5.117977065572e-01
8.575412274725e-01
1.101774523775e+00
1.159368895995e+00
1.163073228464e+00
1.182318544712e+00
1.225751643757e+00
1.263753319975e+00
1.199080473207e+00
1.019112126998e+00
6.758701307178e-01
2.899295517158e-01
</dep>
<dep tran.v(aprime) time>
3.498842979084e-01
3.502303567727e-01
3.506323322076e-01
3.515042173699e-01
3.536069297251e-01
3.591250906931e-01
3.744573906031e-01
4.140979866982e-01
4.802738158646e-01
4.878848997871e-01
4.408174892793e-01
3.645686353973e-01
2.557932070536e-01
1.937350192178e-01
2.202866028795e-01
3.232712143811e-01
4.694078084407e-01
5.748467275125e-01
6.382856412526e-01
6.884908494878e-01
6.811065774877e-01
2.829533202332e-01
3.680307973315e-02
3.204643075409e-02
1.104060631940e-02
2.228534387053e-02
2.557433546765e-02
3.368330680067e-02
1.489056687071e-02
6.659236321220e-03
1.437089835450e-03
2.194953124821e-03
-1.246200420837e-03
-3.577971256386e-03
-5.793729883450e-03
-5.590019404333e-03
-1.150805144607e-02
2.861186363623e-03
1.428167357181e-01
3.599228627725e-01
5.560726019601e-01
6.169264461645e-01
6.336817555508e-01
6.463614156751e-01
6.450435281136e-01
6.410838460322e-01
4.396454327971e-01
6.711936798932e-02
1.863408737517e-02
3.536369723994e-02
3.467741994983e-02
5.934262142615e-02
4.085142070658e-02
1.971350513831e-02
1.146351961374e-02
3.006159161602e-03
3.721278344587e-04
5.250412710455e-04
-3.240559725813e-03
-3.275246785823e-03
-5.037776756494e-03
-6.309278855041e-03
-1.393621148106e-02
3.963126854847e-02
2.081129268286e-01
4.233477949405e-01
5.668512554704e-01
5.920057133796e-01
5.926361804243e-01
5.968062811054e-01
5.940200982098e-01
5.685645424065e-01
3.719963089699e-01
8.372059280011e-02
5.204446336880e-02
7.358679753923e-02
7.386449541444e-02
3.175335858601e-02
1.608934421956e-02
1.290649952463e-02
-4.308981478343e-04
2.531960869658e-03
-2.781934685820e-03
-1.662315612558e-03
-5.312507539328e-03
-3.123898677884e-03
-1.250787100464e-02
4.437069064592e-04
9.714612565139e-02
3.271881674442e-01
5.173836147477e-01
5.994460555390e-01
5.979011123625e-01
6.068655930449e-01
6.061332803674e-01
6.003456421297e-01
4.710473017868e-01
1.047151498547e-01
3.642969089823e-02
6.773008581102e-02
6.887584518769e-02
4.479713540223e-02
1.594393373501e-02
1.585956736925e-02
1.459740723073e-03
2.371184321217e-03
-1.315332077721e-03
-1.734853844413e-03
-4.576567149403e-03
-3.316602850622e-03
-8.997008732842e-03
-9.808540266123e-03
4.547674664600e-02
2.317486170057e-01
4.028529476054e-01
5.574310144016e-01
6.020964619220e-01
5.996112558339e-01
6.049574070622e-01
6.017580130468e-01
5.717823345708e-01
3.408859186745e-01
6.584580264253e-02
4.463433355705e-02
6.284411404966e-02
7.144464968387e-02
3.356344824435e-02
1.778492627902e-02
1.580393783341e-02
1.291054239356e-03
2.636947367935e-03
-1.895691774576e-03
-1.329911874795e-03
-4.971516316753e-03
-2.802831534210e-03
-9.849726088556e-03
-8.303276532118e-03
4.581473781434e-02
2.321924320375e-01
4.394184299619e-01
5.737244917870e-01
5.922104869714e-01
5.952276144188e-01
5.988797957992e-01
5.953772997457e-01
5.608345868070e-01
3.027275998871e-01
6.004178389302e-02
5.563597938417e-02
7.170085604172e-02
6.566525494100e-02
2.143846233496e-02
1.396597763345e-02
5.635411236454e-03
-1.289309220712e-03
1.488550998779e-03
-4.049572662631e-03
-2.109776569014e-03
-5.863216652784e-03
-4.568670905270e-03
-1.634106840533e-02
3.585280787939e-02
1.956834744227e-01
4.215973795378e-01
5.688488786741e-01
5.935796311332e-01
5.947046618445e-01
5.987862326768e-01
5.944437472983e-01
5.595825032286e-01
3.388500570750e-01
6.843253346175e-02
5.385408144883e-02
7.261390208022e-02
6.637240497657e-02
2.355052263869e-02
1.354183824399e-02
6.115707691667e-03
-1.579993338728e-03
1.725590959012e-03
-4.288617110679e-03
-1.872051152922e-03
-6.085737687086e-03
-4.180437693928e-03
-1.689933079263e-02
3.554507011006e-02
1.942219247680e-01
4.212137364086e-01
5.695527687780e-01
5.965844214931e-01
5.975180906324e-01
6.022545905917e-01
5.925830427557e-01
4.997077243370e-01
1.438378545786e-01
3.825881568071e-02
6.989309598475e-02
7.064599284490e-02
5.214017272980e-02
1.654489948163e-02
1.501599549687e-02
8.920052175485e-04
1.488707953926e-03
-1.216318824736e-03
-2.223418349080e-03
-4.268588471254e-03
-3.844346801483e-03
-8.767448329819e-03
-1.024308819885e-02
5.470910651857e-02
2.493352306937e-01
4.355479566441e-01
5.716602222705e-01
5.970681828960e-01
5.995081742345e-01
6.040302093088e-01
6.028873680736e-01
5.790568100865e-01
3.902328233038e-01
8.121313175334e-02
4.135769675849e-02
6.093880430588e-02
6.878434866214e-02
5.379692112107e-02
1.774167488968e-02
1.719498255303e-02
4.171305960143e-03
1.639927559547e-03
-3.738591893075e-05
-1.681187052982e-03
-3.759391616528e-03
-3.816112711864e-03
-6.372932806182e-03
-1.129497498423e-02
1.511464533769e-02
1.570879698769e-01
3.160109323624e-01
5.103790060044e-01
5.933348808986e-01
5.950370360256e-01
6.045270622751e-01
6.051831253417e-01
6.014202627004e-01
5.236284629394e-01
1.776178462240e-01
3.476817019371e-02
6.587085963100e-02
6.913678215652e-02
4.842800786976e-02
1.439618866228e-02
1.228717967245e-02
-8.756619721749e-04
1.432925616438e-03
-2.021423556290e-03
-2.452166260029e-03
-4.563397592531e-03
-4.090638013979e-03
-1.058322141666e-02
-4.046132708914e-03
9.005146891977e-02
3.130837817560e-01
5.060567592068e-01
5.960998036063e-01
5.967218535271e-01
6.063641265422e-01
6.064435954585e-01
6.011588976260e-01
4.912222632489e-01
1.369327307173e-01
3.332261145352e-02
6.641016438385e-02
6.715023924373e-02
5.184285924924e-02
1.575641878767e-02
1.413292851346e-02
2.040494104824e-04
1.324574387606e-03
-1.393155098179e-03
-2.400995982484e-03
-4.269796927160e-03
-4.029357011618e-03
-9.031139532783e-03
-9.494922881657e-03
6.326712061584e-02
2.653561330597e-01
4.474383031346e-01
5.767707741760e-01
5.959943614031e-01
5.999696159137e-01
6.038745319027e-01
6.014414539981e-01
5.685285653559e-01
3.265548018222e-01
6.047333659754e-02
4.714901861964e-02
6.422058839343e-02
7.239577962895e-02
</dep>
<dep tran.v(b) time>
5.775434907485e-01
5.773526865072e-01
5.771268213578e-01
5.766618051606e-01
5.757216639698e-01
5.738306720069e-01
5.699739689219e-01
5.629173399366e-01
5.628618610321e-01
6.105965504498e-01
6.597417057708e-01
6.837351556447e-01
6.972840140111e-01
6.825271481401e-01
6.779648511570e-01
6.683974670160e-01
6.344396638080e-01
6.130454556349e-01
5.440746269384e-01
3.586588726956e-01
1.555747570045e-01
6.223969344183e-02
7.716957417814e-02
9.410298202492e-02
9.640194130472e-02
1.272415045166e-01
2.657413711228e-01
7.190979102635e-01
1.130052553123e+00
1.198290645296e+00
1.194764397951e+00
1.198181904834e+00
1.199265627559e+00
1.202093103999e+00
1.197059564498e+00
1.183641134806e+00
1.178826711156e+00
1.190278338071e+00
1.205019395850e+00
1.221555143255e+00
1.291015198700e+00
1.314849508519e+00
1.188052221309e+00
8.838172882958e-01
4.590689209413e-01
1.904090852207e-01
1.205348958975e-01
1.146659611400e-01
1.253175335338e-01
1.226768080581e-01
9.308346405509e-02
9.406612843941e-02
3.923620186061e-01
9.757872269532e-01
1.184636394601e+00
1.195265677760e+00
1.198454075409e+00
1.199568421489e+00
1.201173302256e+00
1.195549769497e+00
1.183573407215e+00
1.177971165719e+00
1.184310529709e+00
1.196854242199e+00
1.207031915301e+00
1.225362863034e+00
1.294386161316e+00
1.281446980859e+00
1.057565990463e+00
6.773592460808e-01
3.871543310119e-01
2.474816989330e-01
2.031885367271e-01
1.763230568840e-01
1.712705319618e-01
1.435121773409e-01
2.171194867644e-01
6.621082762715e-01
1.079118501962e+00
1.182482711591e+00
1.195979519702e+00
1.198413819133e+00
1.200070315195e+00
1.198341357660e+00
1.189455876854e+00
1.179337486385e+00
1.180063237468e+00
1.188688347799e+00
1.201981601911e+00
1.214551165595e+00
1.256011215380e+00
1.313093129595e+00
1.205768418198e+00
8.688801806521e-01
5.510647310076e-01
2.956304943004e-01
2.074816984898e-01
1.761342555456e-01
1.673020177679e-01
1.470403657736e-01
1.542906566168e-01
4.830220593443e-01
1.010312284485e+00
1.165561654473e+00
1.195302138863e+00
1.197832417080e+00
1.199530273140e+00
1.200139041992e+00
1.193472118089e+00
1.182259767992e+00
1.178565387413e+00
1.184604657292e+00
1.197712168005e+00
1.208588747146e+00
1.222114947771e+00
1.282579429205e+00
1.267793778830e+00
1.033609531916e+00
6.293091600709e-01
3.631009561441e-01
2.256264458810e-01
1.834918972099e-01
1.632870723804e-01
1.633031853132e-01
1.373358791569e-01
1.911009017544e-01
6.155805816861e-01
1.029109445000e+00
1.167352567685e+00
1.194151073562e+00
1.198062407873e+00
1.199626805133e+00
1.199798040635e+00
1.192975766841e+00
1.181812364065e+00
1.178773893894e+00
1.184711735534e+00
1.197960155141e+00
1.208359367966e+00
1.228961372823e+00
1.296217687446e+00
1.276918177315e+00
1.040427326772e+00
6.571845776960e-01
3.639309685833e-01
2.365408427228e-01
1.911105207699e-01
1.690712785972e-01
