<Qucs Dataset 25.1.1>
<indep time 254>
0.000000000000e+00
5.025130000000e-13
1.005026000000e-12
2.010052000000e-12
4.020104000000e-12
8.040208000000e-12
1.608041600000e-11
3.216083200000e-11
6.432166400000e-11
9.729053828452e-11
1.304870585425e-10
1.661982030710e-10
2.068449452220e-10
2.489273601321e-10
2.870314278397e-10
3.239620841560e-10
3.538843025343e-10
3.785138452220e-10
3.977289254259e-10
4.185758536661e-10
4.602697101465e-10
5.014528914761e-10
5.446103810493e-10
5.919750574564e-10
6.278725544062e-10
6.645198836593e-10
6.984275707508e-10
7.322343022886e-10
7.681129854611e-10
8.075920329455e-10
8.553255913320e-10
9.055768913320e-10
9.558281913320e-10
1.004481062576e-09
1.054732362576e-09
1.104983662576e-09
1.155234962576e-09
1.205486262576e-09
1.250318118306e-09
1.295330130272e-09
1.345581430272e-09
1.386504202257e-09
1.431772881076e-09
1.468853242872e-09
1.508974705360e-09
1.559226005360e-09
1.602454594454e-09
1.647524925577e-09
1.697776225577e-09
1.747685363862e-09
1.788153435138e-09
1.830964721982e-09
1.866578515244e-09
1.906072711886e-09
1.948682070656e-09
1.983295120048e-09
2.018669524933e-09
2.039076564235e-09
2.058206497716e-09
2.074564047072e-09
2.095473270858e-09
2.137291718430e-09
2.186331078802e-09
2.235396212042e-09
2.285647512042e-09
2.329130295375e-09
2.375140177422e-09
2.416778917122e-09
2.463045331841e-09
2.507767510067e-09
2.551031442861e-09
2.595663442767e-09
2.642945455100e-09
2.693196755100e-09
2.743448055100e-09
2.793699355100e-09
2.838320874294e-09
2.885143937748e-09
2.935395237748e-09
2.981098069568e-09
3.029136781002e-09
3.069912788883e-09
3.112475684736e-09
3.157145016635e-09
3.203773299414e-09
3.254024599414e-09
3.303079723001e-09
3.353331023001e-09
3.399881709030e-09
3.437964970299e-09
3.478367898065e-09
3.512171921845e-09
3.549607042187e-09
3.576344090856e-09
3.602892282115e-09
3.631591512859e-09
3.659807431918e-09
3.684419870000e-09
3.699110000246e-09
3.715658885713e-09
3.732913208499e-09
3.756432064292e-09
3.798275129259e-09
3.842908622966e-09
3.886819126839e-09
3.929355467021e-09
3.973222268254e-09
4.023473568254e-09
4.073724868254e-09
4.123976168254e-09
4.174227468254e-09
4.223818936728e-09
4.274070236728e-09
4.322650938566e-09
4.362439087819e-09
4.394112174925e-09
4.428220381818e-09
4.462875799626e-09
4.499822825732e-09
4.538885534287e-09
4.589136834287e-09
4.636390996224e-09
4.686642296224e-09
4.736893596224e-09
4.784131875140e-09
4.828903504757e-09
4.875556995882e-09
4.925808295882e-09
4.976059595882e-09
5.026310895882e-09
5.061662657813e-09
5.102343738926e-09
5.137907826325e-09
5.175178110724e-09
5.215611840957e-09
5.258486058475e-09
5.288482264885e-09
5.315700235502e-09
5.345471111471e-09
5.365040309294e-09
5.383753801675e-09
5.397803711217e-09
5.416887958786e-09
5.455056453925e-09
5.504463021186e-09
5.551126898081e-09
5.597618368522e-09
5.647869668522e-09
5.694280630100e-09
5.744531930100e-09
5.794783230100e-09
5.845034530100e-09
5.895285830100e-09
5.940306013821e-09
5.985145837635e-09
6.021582339103e-09
6.056561774480e-09
6.095210315903e-09
6.136667459882e-09
6.176409893768e-09
6.218156214789e-09
6.263299941950e-09
6.310208860365e-09
6.360460160365e-09
6.408688767107e-09
6.454996394554e-09
6.505247694554e-09
6.553256814219e-09
6.596135842341e-09
6.641336564998e-09
6.691587864998e-09
6.740086004671e-09
6.775258708439e-09
6.813735870556e-09
6.849044668315e-09
6.874534190758e-09
6.898282796306e-09
6.923452931929e-09
6.955073516698e-09
6.983341460641e-09
7.013063535201e-09
7.031207239396e-09
7.047855249186e-09
7.061794742423e-09
7.080044854141e-09
7.116545077575e-09
7.166796377575e-09
7.213250812796e-09
7.259909740334e-09
7.310161040334e-09
7.360412340334e-09
7.410663640334e-09
7.460914940334e-09
7.505175724320e-09
7.550466838847e-09
7.600718138847e-09
7.650969438847e-09
7.691510847105e-09
7.724354742585e-09
7.758643822480e-09
7.794236994986e-09
7.833853765856e-09
7.873136113892e-09
7.912917331607e-09
7.955386931847e-09
8.005638231847e-09
8.053151858081e-09
8.100486197896e-09
8.146034166950e-09
8.188723499886e-09
8.238974799886e-09
8.289226099886e-09
8.339477399886e-09
8.389728699886e-09
8.438403602825e-09
8.479015426589e-09
8.521517106926e-09
8.567566564253e-09
8.597524617638e-09
8.630208414724e-09
8.656729899765e-09
8.681429278037e-09
8.695769528735e-09
8.712305427443e-09
8.732078407993e-09
8.752387184657e-09
8.793004737985e-09
8.832811429869e-09
8.873608018773e-09
8.918318930686e-09
8.966732747118e-09
9.013527688415e-09
9.063778988415e-09
9.114030288415e-09
9.164281588415e-09
9.214532888415e-09
9.264784188415e-09
9.315035488415e-09
9.352974176971e-09
9.390560684620e-09
9.426036012738e-09
9.463159900477e-09
9.503911028659e-09
9.543457497740e-09
9.593708797740e-09
9.640368460919e-09
9.690619760919e-09
9.735012503088e-09
9.781019288499e-09
9.825498769124e-09
9.871881640675e-09
9.922132940675e-09
9.972384240675e-09
1.000000000000e-08
</indep>
<dep tran.v(clock) time>
0.000000000000e+00
9.093173994018e-03
1.818582584409e-02
3.636747471651e-02
7.270153941574e-02
1.451359828234e-01
2.881410816331e-01
5.594223454372e-01
9.898274728069e-01
1.193554861146e+00
1.106715514456e+00
7.121827782723e-01
2.693097552920e-02
-6.895476724161e-01
-1.112582598315e+00
-1.182119520101e+00
-9.738148964550e-01
-6.529350333083e-01
-3.380503729995e-01
3.454306169310e-02
7.333854305291e-01
1.149117608035e+00
1.123688203723e+00
5.732079387247e-01
-5.196426565475e-02
-6.735501254417e-01
-1.073373244683e+00
-1.198716299919e+00
-9.989300146243e-01
-4.541938628809e-01
3.907077450752e-01
1.063623110810e+00
1.154458599918e+00
6.381814169834e-01
-2.349045480572e-01
-9.794363203933e-01
-1.187960397200e+00
-7.463595994988e-01
5.756511168858e-03
7.578707340845e-01
1.189957743284e+00
1.060130109237e+00
4.678791031243e-01
-1.895663676743e-01
-8.298783816389e-01
-1.198537818846e+00
-9.887049759891e-01
-3.415907566338e-01
5.425230094752e-01
1.127632250777e+00
1.159302836127e+00
7.395606392827e-01
1.519823192598e-01
-5.419281913356e-01
-1.075424432259e+00
-1.197675294371e+00
-9.933144878229e-01
-7.427128589884e-01
-4.438826427478e-01
-1.582231865971e-01
2.184541654954e-01
8.721780019366e-01
1.199813579918e+00
9.003780175004e-01
1.087705595721e-01
-6.424363549388e-01
-1.142049118918e+00
-1.140638498298e+00
-6.346386009193e-01
1.402363689942e-01
8.349624885748e-01
1.190148427230e+00
1.000606649856e+00
2.715328462872e-01
-6.061404038902e-01
-1.152096405797e+00
-1.110178251123e+00
-5.491812631864e-01
3.344169380520e-01
9.909487676791e-01
1.190605300669e+00
8.860807416728e-01
2.252897674456e-01
-5.591691426004e-01
-1.113091782591e+00
-1.116675592331e+00
-5.286626466367e-01
3.564099778497e-01
1.012044939003e+00
1.199970502710e+00
9.792457141896e-01
5.163006184480e-01
-1.433425547421e-01
-5.992978230289e-01
-9.570872185895e-01
-1.172432675913e+00
-1.173455569140e+00
-1.002522825896e+00
-8.331222760720e-01
-5.940176958155e-01
-3.057853829737e-01
1.162094827082e-01
7.984282810229e-01
1.182748930862e+00
1.057448071237e+00
5.078417862919e-01
-2.671659458206e-01
-9.981259943823e-01
-1.182850210193e+00
-7.202461596101e-01
1.365208152876e-01
9.108469362361e-01
1.198570754881e+00
8.519214407056e-01
2.259401996370e-01
-3.410778402466e-01
-8.629518031457e-01
-1.163972289568e+00
-1.142254475248e+00
-7.454249082789e-01
1.048836783897e-01
8.609031409249e-01
1.199899630431e+00
8.822373638921e-01
1.360531936726e-01
-6.389663565110e-01
-1.144342157688e+00
-1.079484267698e+00
-4.238663020997e-01
4.637173309653e-01
9.618370065653e-01
1.199546638089e+00
1.047992882381e+00
5.752779769495e-01
-1.314444882972e-01
-8.234689602943e-01
-1.122152433296e+00
-1.198602946423e+00
-1.054710022029e+00
-8.426607998083e-01
-5.714253522315e-01
-3.367516748472e-01
4.004400418398e-03
6.565285686879e-01
1.163621833152e+00
1.076953677865e+00
4.815265562239e-01
-4.056852223414e-01
-1.037745157985e+00
-1.167932163911e+00
-6.589549743924e-01
2.106428393848e-01
9.649639572018e-01
1.198925891180e+00
9.033667294679e-01
3.579066902428e-01
-2.672748430939e-01
-8.670063750586e-01
-1.188555688548e+00
-1.074685054612e+00
-5.543403943768e-01
2.390598823324e-01
9.458766032616e-01
1.194600033247e+00
8.167561859357e-01
6.035834193209e-02
-7.798791303800e-01
-1.188362127305e+00
-1.048919928706e+00
-4.472978747193e-01
4.404233262630e-01
1.073306627247e+00
1.197329008715e+00
9.575074629755e-01
4.577763706135e-01
8.429016147455e-03
-4.127129189619e-01
-8.008273099797e-01
-1.121668186158e+00
-1.197622830625e+00
-1.046617426586e+00
-8.490751044184e-01
-6.118060521662e-01
-3.829366157546e-01
-5.948253184389e-02
5.761753669593e-01
1.141990958515e+00
1.110658896168e+00
5.529459151081e-01
-3.303448154790e-01
-1.032850578643e+00
-1.170117084330e+00
-6.670236719578e-01
9.356264371867e-02
8.275942418376e-01
1.198377804975e+00
9.133354484025e-01
3.011580983110e-01
-2.871044453518e-01
-8.255432033846e-01
-1.154779923805e+00
-1.138322528903e+00
-7.323467189734e-01
-6.781022813964e-02
6.615261867884e-01
1.168635405410e+00
1.060291249452e+00
4.335574624447e-01
-3.742750165465e-01
-9.836679515349e-01
-1.186898701459e+00
-7.405856019766e-01
1.110214136005e-01
9.018706945303e-01
1.199888600841e+00
9.724265036216e-01
3.590332052649e-01
-4.568489573213e-01
-8.954260013218e-01
-1.166844248296e+00
-1.183836498989e+00
-1.031235258834e+00
-8.755523128400e-01
-6.459621779190e-01
-3.203682799607e-01
4.318814690000e-02
7.247862573957e-01
1.138314104942e+00
1.148799569323e+00
6.809373553936e-01
-1.515861401325e-01
-8.873870594590e-01
-1.199776821050e+00
-8.555750354309e-01
-4.315005495408e-02
7.928892851665e-01
1.195010922111e+00
9.431492043884e-01
3.912819781224e-01
-2.790026378935e-01
-8.350218806002e-01
-1.165211872218e+00
-1.117426402105e+00
-6.788712122360e-01
1.869849226346e-01
9.094654564451e-01
1.198672312102e+00
9.049530879118e-01
1.918436712167e-01
-5.859971006471e-01
-1.122575307314e+00
-1.106860849628e+00
-4.854041696774e-01
-7.053965563089e-15
</dep>
<dep tran.v(clock_barre) time>
1.469576158977e-16
-9.093173994018e-03
-1.818582584409e-02
-3.636747471651e-02
-7.270153941574e-02
-1.451359828234e-01
-2.881410816331e-01
-5.594223454372e-01
-9.898274728069e-01
-1.193554861146e+00
-1.106715514456e+00
-7.121827782723e-01
-2.693097552920e-02
6.895476724161e-01
1.112582598315e+00
1.182119520101e+00
9.738148964550e-01
6.529350333083e-01
3.380503729995e-01
-3.454306169310e-02
-7.333854305291e-01
-1.149117608035e+00
-1.123688203723e+00
-5.732079387247e-01
5.196426565475e-02
6.735501254417e-01
1.073373244683e+00
1.198716299919e+00
9.989300146243e-01
4.541938628809e-01
-3.907077450752e-01
-1.063623110810e+00
-1.154458599918e+00
-6.381814169834e-01
2.349045480572e-01
9.794363203933e-01
1.187960397200e+00
7.463595994988e-01
-5.756511168858e-03
-7.578707340845e-01
-1.189957743284e+00
-1.060130109237e+00
-4.678791031243e-01
1.895663676743e-01
8.298783816389e-01
1.198537818846e+00
9.887049759891e-01
3.415907566338e-01
-5.425230094752e-01
-1.127632250777e+00
-1.159302836127e+00
-7.395606392827e-01
-1.519823192598e-01
5.419281913356e-01
1.075424432259e+00
1.197675294371e+00
9.933144878229e-01
7.427128589884e-01
4.438826427478e-01
1.582231865971e-01
-2.184541654954e-01
-8.721780019366e-01
-1.199813579918e+00
-9.003780175004e-01
-1.087705595721e-01
6.424363549388e-01
1.142049118918e+00
1.140638498298e+00
6.346386009193e-01
-1.402363689942e-01
-8.349624885748e-01
-1.190148427230e+00
-1.000606649856e+00
-2.715328462872e-01
6.061404038902e-01
1.152096405797e+00
1.110178251123e+00
5.491812631864e-01
-3.344169380520e-01
-9.909487676791e-01
-1.190605300669e+00
-8.860807416728e-01
-2.252897674456e-01
5.591691426004e-01
1.113091782591e+00
1.116675592331e+00
5.286626466367e-01
-3.564099778497e-01
-1.012044939003e+00
-1.199970502710e+00
-9.792457141896e-01
-5.163006184480e-01
1.433425547421e-01
5.992978230289e-01
9.570872185895e-01
1.172432675913e+00
1.173455569140e+00
1.002522825896e+00
8.331222760720e-01
5.940176958155e-01
3.057853829737e-01
-1.162094827082e-01
-7.984282810229e-01
-1.182748930862e+00
-1.057448071237e+00
-5.078417862919e-01
2.671659458205e-01
9.981259943823e-01
1.182850210193e+00
7.202461596101e-01
-1.365208152876e-01
-9.108469362361e-01
-1.198570754881e+00
-8.519214407056e-01
-2.259401996369e-01
3.410778402466e-01
8.629518031457e-01
1.163972289568e+00
1.142254475248e+00
7.454249082789e-01
-1.048836783897e-01
-8.609031409249e-01
-1.199899630431e+00
-8.822373638921e-01
-1.360531936726e-01
6.389663565110e-01
1.144342157688e+00
1.079484267698e+00
4.238663020997e-01
-4.637173309653e-01
-9.618370065653e-01
-1.199546638089e+00
-1.047992882381e+00
-5.752779769495e-01
1.314444882972e-01
8.234689602943e-01
1.122152433296e+00
1.198602946423e+00
1.054710022029e+00
8.426607998083e-01
5.714253522315e-01
3.367516748472e-01
-4.004400418402e-03
-6.565285686879e-01
-1.163621833152e+00
-1.076953677865e+00
-4.815265562239e-01
4.056852223414e-01
1.037745157985e+00
1.167932163911e+00
6.589549743924e-01
-2.106428393848e-01
-9.649639572018e-01
-1.198925891180e+00
-9.033667294679e-01
-3.579066902428e-01
2.672748430939e-01
8.670063750586e-01
1.188555688548e+00
1.074685054612e+00
5.543403943768e-01
-2.390598823324e-01
-9.458766032616e-01
-1.194600033247e+00
-8.167561859357e-01
-6.035834193209e-02
7.798791303800e-01
1.188362127305e+00
1.048919928706e+00
4.472978747193e-01
-4.404233262630e-01
-1.073306627247e+00
-1.197329008715e+00
-9.575074629755e-01
-4.577763706135e-01
-8.429016147451e-03
4.127129189619e-01
8.008273099797e-01
1.121668186158e+00
1.197622830625e+00
1.046617426586e+00
8.490751044184e-01
6.118060521662e-01
3.829366157546e-01
5.948253184389e-02
-5.761753669593e-01
-1.141990958515e+00
-1.110658896168e+00
-5.529459151081e-01
3.303448154790e-01
1.032850578643e+00
1.170117084330e+00
6.670236719577e-01
-9.356264371868e-02
-8.275942418376e-01
-1.198377804975e+00
-9.133354484025e-01
-3.011580983110e-01
2.871044453518e-01
8.255432033846e-01
1.154779923805e+00
1.138322528903e+00
7.323467189734e-01
6.781022813964e-02
-6.615261867885e-01
-1.168635405410e+00
-1.060291249452e+00
-4.335574624447e-01
3.742750165465e-01
9.836679515349e-01
1.186898701459e+00
7.405856019766e-01
-1.110214136005e-01
-9.018706945303e-01
-1.199888600841e+00
-9.724265036216e-01
-3.590332052650e-01
4.568489573213e-01
8.954260013218e-01
1.166844248296e+00
1.183836498989e+00
1.031235258834e+00
8.755523128400e-01
6.459621779190e-01
3.203682799607e-01
-4.318814689999e-02
-7.247862573957e-01
-1.138314104942e+00
-1.148799569323e+00
-6.809373553936e-01
1.515861401325e-01
8.873870594590e-01
1.199776821050e+00
8.555750354309e-01
4.315005495409e-02
-7.928892851665e-01
-1.195010922111e+00
-9.431492043884e-01
-3.912819781224e-01
2.790026378935e-01
8.350218806002e-01
1.165211872218e+00
1.117426402105e+00
6.788712122360e-01
-1.869849226346e-01
-9.094654564451e-01
-1.198672312102e+00
-9.049530879118e-01
-1.918436712167e-01
5.859971006471e-01
1.122575307314e+00
1.106860849628e+00
4.854041696774e-01
1.999069242267e-14
</dep>
<dep tran.v(vint) time>
8.023344862219e-03
8.112746630694e-03
8.203127048873e-03
8.351586802660e-03
8.484778847649e-03
8.519956214340e-03
8.479064074185e-03
8.370810330025e-03
7.658467679767e-03
3.392821261450e-03
2.095523428548e-03
1.210165792878e-02
2.715648806627e-02
2.658005841057e-02
1.846209460177e-02
1.687732022574e-02
1.167978809504e-02
1.158720579897e-02
1.207758568836e-02
1.108770411250e-02
9.314373544227e-03
1.555900831093e-02
2.618276577990e-01
8.784978631178e-01
1.143168234535e+00
1.151817127003e+00
1.149898890369e+00
1.149900315985e+00
1.145165403341e+00
1.141213919882e+00
1.137528175953e+00
1.145264026298e+00
1.162935891426e+00
1.178979982173e+00
1.185327353218e+00
1.186238780428e+00
1.187126081293e+00
1.186209199961e+00
1.186971174342e+00
1.186725342089e+00
1.185027016515e+00
1.184656994712e+00
1.187290987681e+00
1.190147934474e+00
1.193736846824e+00
1.192477764020e+00
1.171232630399e+00
1.117866529111e+00
1.053786289643e+00
1.026840685639e+00
1.053249010540e+00
1.097625003690e+00
1.065406183763e+00
8.014427780621e-01
1.854426982328e-01
-6.010813024863e-05
2.711786467463e-02
4.411625205787e-03
1.540142672741e-02
9.227334176232e-03
1.242791957439e-02
8.399185909650e-03
9.591160177450e-03
1.780457828313e-01
6.623512393926e-01
9.573649253192e-01
9.948959441561e-01
9.788229346694e-01
9.562923757613e-01
9.385553034889e-01
9.978342396216e-01
1.127580081689e+00
1.176703845144e+00
1.181810113305e+00
1.188676866380e+00
1.186222151345e+00
1.187838793963e+00
1.185328858606e+00
1.188001796065e+00
1.185883060429e+00
1.184970819928e+00
1.184688906408e+00
1.186185607389e+00
1.186892830796e+00
1.190207968432e+00
1.189062858877e+00
1.186827204356e+00
1.185191470182e+00
1.185314719244e+00
1.190335671665e+00
1.200266683391e+00
1.046991798647e+00
1.827741427338e-01
-1.754258493662e-02
3.421706577037e-02
-1.052038741942e-02
2.609796163062e-02
-2.898197519242e-03
1.454353423233e-02
1.369832059841e-03
1.116830435099e-02
3.501180373459e-03
9.821872959488e-03
1.159798638517e-03
3.735644835351e-03
4.709945227517e-03
2.125324796069e-02
1.581047700376e-02
2.137043497357e-02
1.704919111200e-02
1.987634358189e-02
2.236876273660e-02
2.427036850428e-01
8.809969656844e-01
1.179416346559e+00
1.166747724599e+00
1.177637406161e+00
1.176908217979e+00
1.176151919764e+00
1.174441978075e+00
1.175688903623e+00
1.173488069788e+00
1.168259839450e+00
1.173575490318e+00
1.183717213048e+00
1.184764230255e+00
1.186768540477e+00
1.186734921111e+00
1.185875257173e+00
1.185207814974e+00
1.184903090003e+00
1.184408607764e+00
1.190349186682e+00
1.196767316943e+00
1.139875390667e+00
5.389899061637e-01
5.162603870288e-02
6.896236937315e-03
1.723587249794e-02
4.634152290999e-03
1.047382039253e-02
6.944720944071e-03
9.119696647544e-03
7.460228439510e-03
6.693537092696e-03
-3.657228432090e-04
2.787074841879e-02
7.563157291463e-02
9.038848737343e-02
9.027694369243e-02
9.258645959527e-02
9.380095942627e-02
2.177917294471e-01
6.687719553652e-01
1.126060865747e+00
1.185281881083e+00
1.174625624025e+00
1.187811420483e+00
1.181807316883e+00
1.184769672437e+00
1.181727917580e+00
1.184666565135e+00
1.182119937209e+00
1.178047166734e+00
1.181031132095e+00
1.186456858693e+00
1.188346229640e+00
1.191375107567e+00
1.187349384774e+00
1.182039972890e+00
1.177508607390e+00
1.177457578151e+00
1.177542255755e+00
1.096087545421e+00
5.962733182037e-01
8.366702756408e-02
4.818677923153e-04
2.192564903239e-02
-1.135629492746e-03
1.726841081524e-02
4.460329634576e-03
1.057123416449e-02
4.332535778769e-03
8.829422606579e-03
5.529243206663e-03
7.907356055046e-03
3.491970625657e-03
2.058281719346e-03
7.571744335129e-03
2.200988783837e-02
2.098965633379e-02
2.281113317837e-02
2.139827719166e-02
2.168353567227e-02
2.576376207433e-02
2.217180780023e-01
8.816389717099e-01
1.183752481917e+00
1.166910973100e+00
1.180477394555e+00
1.178278985204e+00
1.178526639959e+00
1.176531669935e+00
1.178086650719e+00
1.176935062874e+00
1.172696858768e+00
1.171599176728e+00
1.182062595080e+00
1.185099067671e+00
1.185618326843e+00
1.187767754470e+00
1.185821034190e+00
1.185039178563e+00
1.184179081820e+00
1.187009881911e+00
1.196551607280e+00
1.110316936559e+00
2.369524111276e-01
-1.065067537992e-02
3.073421274829e-02
-3.016832932568e-03
1.936436501542e-02
-1.670716790903e-05
1.224425082450e-02
3.263000969438e-03
1.011981089850e-02
4.520030216570e-03
7.737979899510e-03
-2.032739172066e-03
9.864187300634e-03
1.639191350041e-02
2.552235913262e-02
2.090160127009e-02
2.442045156266e-02
2.133146280989e-02
2.901592541996e-02
2.276814006230e-01
8.984205816242e-01
1.182522963760e+00
1.167391487646e+00
1.181997495178e+00
1.178848515778e+00
1.179506441119e+00
1.177541293478e+00
1.179331442659e+00
1.177322457206e+00
1.171650055599e+00
1.176003310604e+00
1.183957482209e+00
1.184672530413e+00
1.187377910168e+00
1.187074849339e+00
1.185194187153e+00
1.184257394575e+00
</dep>
<dep tran.v(vout) time>
1.199999978996e+00
1.200000554337e+00
1.200001023530e+00
1.200001445908e+00
1.200000502507e+00
1.199999132470e+00
1.199999745074e+00
1.200000125859e+00
1.199999859645e+00
1.199999633240e+00
1.200001372923e+00
1.199999480621e+00
1.199999270146e+00
