#   Hz   S  RI   R   50
!
0.0 -0.7612438444856396 0.0
75000000.0 -0.7602926579008144 0.041487274274205656
150000000.0 -0.7574428964654708 0.08286220136004482
225000000.0 -0.7527059442113226 0.12401293667772284
300000000.0 -0.7461007376752555 0.1648286428148157
375000000.0 -0.737653709134857 0.20519999779883344
450000000.0 -0.7273987042137485 0.24501970847756627
525000000.0 -0.7153768710643126 0.2841830298568017
600000000.0 -0.7016365177255237 0.3225882905378527
675000000.0 -0.6862329337834085 0.360137423544416
750000000.0 -0.6692281721599986 0.39673650085163054
825000000.0 -0.6506907867502498 0.43229626885737826
900000000.0 -0.630695521738823 0.46673268090020176
975000000.0 -0.6093229487787423 0.4999674217687798
1050000000.0 -0.586659048814634 0.5319284180093009
1125000000.0 -0.5627947361896722 0.5625503267686142
1200000000.0 -0.5378253237833208 0.5917749949656405
1275000000.0 -0.5118499292715154 0.6195518798158918
1350000000.0 -0.48497082415512793 0.6458384211983809
1425000000.0 -0.4572927289268743 0.670600356101866
1500000000.0 -0.4289220595890407 0.6938119654630903
1575000000.0 -0.39996613263050385 0.7154562441488729
1650000000.0 -0.37053233744733727 0.7355249856589734
1725000000.0 -0.34072728696522353 0.7540187743443713
1800000000.0 -0.310655958808428 0.7709468795343987
1875000000.0 -0.28042084067426026 0.7863270479148556
1950000000.0 -0.25012109453408365 0.8001851927463739
2025000000.0 -0.21985175482299996 0.812554980987451
2100000000.0 -0.1897029758466313 0.8234773220022533
2175000000.0 -0.15975934319124746 0.8329997641890436
2250000000.0 -0.1300992629623156 0.8411758084522671
2325000000.0 -0.10079444121118243 0.8480641498489456
2400000000.0 -0.07190946398055155 0.8537278608612888
2475000000.0 -0.0435014860715641 0.8582335314860557
2550000000.0 -0.015620033994830628 0.8616503826074344
2625000000.0 0.011693074282440506 0.8640493698757429
2700000000.0 0.038403693127284894 0.8655022955159957
2775000000.0 0.06448519982807328 0.8660809451319678
2850000000.0 0.08991823802292195 0.8658562656737421
2925000000.0 0.11469036255747932 0.8648975993457049
3000000000.0 0.13879559656781262 0.8632719864155226
3075000000.0 0.16223391338419355 0.861043547727588
3150000000.0 0.18501065719409276 0.8582729553232995
3225000000.0 0.20713591726139358 0.8550169970272417
3300000000.0 0.22862387087076147 0.8513282382744604
3375000000.0 0.2494921100700611 0.8472547819253892
3450000000.0 0.26976096675711747 0.8428401244270917
3525000000.0 0.28945284975249685 0.8381231045041806
3600000000.0 0.30859160628030297 0.833137938655951
3675000000.0 0.3272019188137237 0.827914336137023
3750000000.0 0.3453087466025563 0.8224776848294966
3825000000.0 0.36293681945601675 0.8168492984820942
3900000000.0 0.38011018957080095 0.8110467151891594
3975000000.0 0.39685184542960356 0.8050840366914053
4050000000.0 0.41318339009850247 0.7989722980740493
4125000000.0 0.4291247846627425 0.7927198576832408
4200000000.0 0.4446941560900157 0.786332797541828
4275000000.0 0.4599076675196125 0.7798153251822363
4350000000.0 0.47477944785792353 0.7731701685898507
4425000000.0 0.48932157662144077 0.7663989568288382
4500000000.0 0.5035441192075033 0.7595025798707125
4575000000.0 0.5174552071855345 0.7524815221346435
4650000000.0 0.5310611577790133 0.7453361652517124
4725000000.0 0.5443666264398104 0.7380670565611599
4800000000.0 0.5573747862893508 0.7306751408169081
4875000000.0 0.5700875282019127 0.7231619535123891
4950000000.0 0.582505675420608 0.7155297751090594
5025000000.0 0.5946292068127168 0.7077817462695569
5100000000.0 0.6064574831748999 0.6999219449430178
5175000000.0 0.6179894713777233 0.691955426822115
5250000000.0 0.6292239615807768 0.683888231284902
5325000000.0 0.6401597732427674 0.6757273554467095
5400000000.0 0.6507959461841644 0.6674806993763868
5475000000.0 0.6611319135223818 0.6591569858763142
5550000000.0 0.6711676538806488 0.6507656584868882
5625000000.0 0.6809038208614584 0.6423167615546529
5700000000.0 0.6903418483638822 0.6338208063007491
5775000000.0 0.6994840309016475 0.6252886268458169
5850000000.0 0.7083335786366156 0.6167312300926528
5925000000.0 0.7168946473716574 0.6081596432436316
6000000000.0 0.725172344240146 0.5995847625418345
6075000000.0 0.7331727102793041 0.5910172065795953
6150000000.0 0.740902681475546 0.582467177223161
6225000000.0 0.7483700302166993 0.5739443308653954
6300000000.0 0.7555832893749209 0.5654576623484818
6375000000.0 0.7625516614727307 0.5570154035042132
6450000000.0 0.7692849155516611 0.5486249378496976
6525000000.0 0.7757932744687616 0.5402927325599763
6600000000.0 0.782087295391856 0.5320242884247351
6675000000.0 0.7881777462527078 0.5238241080920741
6750000000.0 0.7940754808515685 0.5156956825155998
6825000000.0 0.7997913151916037 0.5076414951585632
6900000000.0 0.8053359074626146 0.49966304317606697
6975000000.0 0.8107196438962052 0.49176087449827816
7050000000.0 0.8159525324853228 0.4839346394777682
7125000000.0 0.8210441063064515 0.47618315554520996
7200000000.0 0.8260033379091779 0.4685044831413528
7275000000.0 0.8308385659518523 0.460896011060074
7350000000.0 0.8355574349698789 0.4533545492471737
7425000000.0 0.8401668488706077 0.4458764270513333
7500000000.0 0.8446729384613706 0.43845759491554986
7575000000.0 0.849081043039798 0.43109372752695596
7650000000.0 0.8533957058125489 0.4237803265073943
7725000000.0 0.8576206826637964 0.41651282082309005
7800000000.0 0.8617589635714004 0.40928666321569984
7875000000.0 0.8658128057692998 0.4020974211050747
7950000000.0 0.8697837775812848 0.3949408605823524
8025000000.0 0.8736728117054148 0.3878130222965011
8100000000.0 0.8774802666109437 0.3807102882341716
8175000000.0 0.8812059946210513 0.3736294385978212
8250000000.0 0.8848494151950616 0.3665676981966777
8325000000.0 0.8884095918926447 0.35952277197561294
8400000000.0 0.8918853114989544 0.3524928695148826
8475000000.0 0.8952751638125591 0.3454767185357015
8550000000.0 0.8985776206458712 0.3384735676397223
8625000000.0 0.9017911126587276 0.3314831786918904
8700000000.0 0.904914102737785 0.3245058094233634
8775000000.0 0.9079451547451082 0.3175421869819945
8850000000.0 0.9108829965862569 0.3105934732904298
8925000000.0 0.9137265766886258 0.3036612231845879
9000000000.0 0.91647511313193 0.2967473363969916
9075000000.0 0.9191281348316952 0.2898540045193033
9150000000.0 0.9216855143403871 0.2829836541259594
9225000000.0 0.9241474919965422 0.27613888726599306
9300000000.0 0.9265146913169224 0.26932242053321065
9375000000.0 0.9287881256876119 0.2625370239065356
9450000000.0 0.9309691965643255 0.2557854605135288
9525000000.0 0.9330596835375878 0.2490704284121932
9600000000.0 0.9350617267525484 0.24239450541078508
9675000000.0 0.9369778022940422 0.23576009785437085
9750000000.0 0.9388106912533681 0.2291693942024358
9825000000.0 0.94056344328273 0.22262432410621497
9900000000.0 0.9422393355153239 0.21612652357007972
9975000000.0 0.943841827782967 0.20967730665069487
10050000000.0 0.9453745150985523 0.20327764401340775
10125000000.0 0.9468410783875293 0.19692814852987106
10200000000.0 0.9482452344513401 0.1906290679667683
10275000000.0 0.9495906861269667 0.18438028468500955
10350000000.0 0.9508810735713948 0.1781813221441055
10425000000.0 0.9521199275490742 0.1720313578896218
10500000000.0 0.9533106255358311 0.16592924259444425
10575000000.0 0.9544563513757383 0.1598735246286094
10650000000.0 0.9555600591400031 0.15386247954895568
10725000000.0 0.9566244417408716 0.1478941438298604
10800000000.0 0.9576519047508406 0.14196635210058164
10875000000.0 0.9586445457701328 0.13607677711370725
10950000000.0 0.9596041395754284 0.1302229716431132
11025000000.0 0.9605321291722451 0.12440241149860529
11100000000.0 0.9614296227640144 0.11861253884775205
11175000000.0 0.9622973965446352 0.11285080505277591
11250000000.0 0.9631359031198234 0.10711471226101761
11325000000.0 0.9639452852674278 0.10140185303048045
11400000000.0 0.9647253946595233 0.09570994732621033
11475000000.0 0.9654758150906787 0.09003687628751063
11550000000.0 0.9661958896884648 0.08438071223887574
11625000000.0 0.966884751524799 0.07873974449759479
11700000000.0 0.9675413570008439 0.07311250061667528
11775000000.0 0.9681645213443075 0.06749776279151377
11850000000.0 0.9687529555364173 0.06189457925097274
11925000000.0 0.9693053039766015 0.05630227054661243
12000000000.0 0.9698201821958725 0.050720430746202215
12075000000.0 0.970296213944767 0.04514892362775798
12150000000.0 0.970732067007876 0.03958787405674736
12225000000.0 0.9711264871338819 0.03403765481042109
12300000000.0 0.9714783295167168 0.028498869188172758
12375000000.0 0.9717865873189765 0.02297232981426705
12450000000.0 0.9720504167919654 0.0174590340982278
12525000000.0 0.9722691586164625 0.011960136867765848
12600000000.0 0.9724423551631624 0.006476920728720026
12675000000.0 0.9725697634504008 0.001010764735560074
12750000000.0 0.9726513636577598 -0.004436888025721004
12825000000.0 0.9726873631360353 -0.009864563333162048
12900000000.0 0.9726781959354076 -0.015270788597171977
12975000000.0 0.9726245179530618 -0.02065412491009184
13050000000.0 0.9725271978776153 -0.026013197809674867
13125000000.0 0.9723873041792744 -0.03134672622297151
13200000000.0 0.9722060884604474 -0.036653549099686676
13275000000.0 0.9719849655405937 -0.041932649294514304
13350000000.0 0.971725490700434 -0.04718317431524903
13425000000.0 0.9714293345535614 -0.05240445361646257
13500000000.0 0.971098256047337 -0.05759601218603541
13575000000.0 0.9707340741193612 -0.06275758024256008
13650000000.0 0.9703386385504789 -0.06788909893429958
13725000000.0 0.9699138005601534 -0.07299072200367872
13800000000.0 0.9694613836852298 -0.0780628134539082
13875000000.0 0.9689831554688492 -0.08310594132506387
13950000000.0 0.9684808004630212 -0.0881208677545354
14025000000.0 0.9679558950166524 -0.0931085355601342
14100000000.0 0.9674098842813867 -0.09807005164227658
14175000000.0 0.9668440618212595 -0.10300666755362124
14250000000.0 0.9662595521598025 -0.10791975762956847
14325000000.0 0.9656572965409014 -0.11281079511045011
14400000000.0 0.9650380421184261 -0.11768132671556568
14475000000.0 0.9644023347255848 -0.12253294615006695
14550000000.0 0.9637505153091976 -0.1273672670378426
14625000000.0 0.9630827200478053 -0.1321858957769605
14700000000.0 0.9623988841068819 -0.13699040480893382
14775000000.0 0.9616987489204507 -0.14178230677932224
14850000000.0 0.9609818728272377 -0.14656303004531687
14925000000.0 0.960247644832099 -0.1513338959564609
15000000000.0 0.9594953012107396 -0.1560960982981287
15075000000.0 0.9587239446285754 -0.160850685244528
15150000000.0 0.9579325654036565 -0.16559854411960712
15225000000.0 0.9571200645095523 -0.17034038921121814
15300000000.0 0.9562852778874381 -0.17507675282715862
15375000000.0 0.955427001617746 -0.1798079797222892
15450000000.0 0.9545440174908675 -0.18453422496482433
15525000000.0 0.9536351185136567 -0.1892554552482061
15600000000.0 0.9526991338938239 -0.19397145359370158
15675000000.0 0.951734953057625 -0.19868182732911283
15750000000.0 0.9507415482771995 -0.203386019171721
15825000000.0 0.9497179955121158 -0.20808332118978953
15900000000.0 0.9486634931045932 -0.21277289136752697
15975000000.0 0.9475773780088342 -0.21745377245417416
16050000000.0 0.946459139281187 -0.2221249127395623
16125000000.0 0.9453084286086249 -0.22678518836672965
16200000000.0 0.9441250677073735 -0.2314334267674821
16275000000.0 0.9429090524804462 -0.23606843078953396
16350000000.0 0.9416605538814098 -0.24068900307432575
16425000000.0 0.9403799154908155 -0.2452939702429099
16500000000.0 0.9390676478703683 -0.24988220645340156
16575000000.0 0.9377244198170833 -0.2544526559072892
16650000000.0 0.936351046694342 -0.25900435390304877
16725000000.0 0.9349484760680175 -0.2635364460636673
16800000000.0 0.9335177709227853 -0.26804820539925694
16875000000.0 0.932060090775567 -0.27253904690634373
16950000000.0 0.9305766710390938 -0.2770085394508604
17025000000.0 0.9290688010181938 -0.2814564147315865
17100000000.0 0.9275378009441312 -0.28588257317381166
17175000000.0 0.9259849984678068 -0.2902870866584641
17250000000.0 0.9244117050406093 -0.29467019804881844
17325000000.0 0.9228191926121161 -0.29903231753421244
17400000000.0 0.9212086710666811 -0.3033740158669269
17475000000.0 0.919581266806401 -0.3076960146235696
17550000000.0 0.9179380028662913 -0.3119991736749879
17625000000.0 0.9162797809191394 -0.3162844760979959
17700000000.0 0.9146073654929535 -0.3205530108072467
17775000000.0 0.9129213706838092 -0.32480595322560823
17850000000.0 0.9112222496019243 -0.3290445443457643
17925000000.0 0.9095102867397374 -0.33327006856387276
18000000000.0 0.907785593398515 -0.33748383068752663
18075000000.0 0.9060481062554262 -0.34168713253459365
18150000000.0 0.9042975890970574 -0.3458812495465723
18225000000.0 0.9025336376889767 -0.3500674078397225
18300000000.0 0.9007556876951164 -0.3542467621094912
18375000000.0 0.898963025506395 -0.35842037478872624
18450000000.0 0.8971548017861073 -0.36258919683815305
18525000000.0 0.8953300474909981 -0.3667540505189255
18600000000.0 0.8934876920824927 -0.3709156144622521
18675000000.0 0.8916265836030272 -0.37507441131071095
18750000000.0 0.8897455102584989 -0.37923079816058414
18825000000.0 0.8878432231201329 -0.38338495998513616
18900000000.0 0.8859184595380423 -0.3875369061660511
18975000000.0 0.883969966844839 -0.39168647020513675
19050000000.0 0.881996525921064 -0.39583331263183047
19125000000.0 0.8799969741951569 -0.39997692706497673
19200000000.0 0.8779702276591309 -0.40411664933078045
19275000000.0 0.875915301497013 -0.4082516694837405
19350000000.0 0.8738313289461802 -0.4123810465247217
19425000000.0 0.8717175780415971 -0.4165037255610454
19500000000.0 0.8695734659292266 -0.42061855710846247
19575000000.0 0.8673985704768626 -0.4247243181949084
19650000000.0 0.8651926389576727 -0.42881973489181685
19725000000.0 0.8629555936330586 -0.4329035058710272
19800000000.0 0.8606875341161101 -0.436974326564606
19875000000.0 0.858388736454073 -0.441030913491533
19950000000.0 0.8560596489268368 -0.4450720283095034
20025000000.0 0.853700884617453 -0.4490965011522336
20100000000.0 0.8513132108691145 -0.4531032528226003
20175000000.0 0.8488975357997959 -0.4570913154296156
20250000000.0 0.8464548920998379 -0.46105985108235203
20325000000.0 0.8439864183882647 -0.46500816828610797
20400000000.0 0.8414933384495413 -0.46893573572480185
20475000000.0 0.8389769387130326 -0.4728421931582027
20550000000.0 0.836438544371835 -0.4767273592123504
20625000000.0 0.83387949456528 -0.4805912358956133
20700000000.0 0.8313011170697399 -0.48443400973027456
20775000000.0 0.8287047029549229 -0.4882560494494361
20850000000.0 0.8260914816674784 -0.4920579002702827
20925000000.0 0.8234625970001506 -0.4958402748163166
21000000000.0 0.8208190843930486 -0.49960404082201887
21075000000.0 0.8181618499939168 -0.5033502058123751
21150000000.0 0.8154916518768672 -0.5070798990058839
21225000000.0 0.8128090837843334 -0.5107943507419366
21300000000.0 0.8101145617154875 -0.5144948697809746
21375000000.0 0.8074083136367609 -0.5181828188676608
21450000000.0 0.8046903725371252 -0.5218595889827098
21525000000.0 0.8019605729933199 -0.5255265727373019
21600000000.0 0.7992185513491727 -0.5291851373846248
21675000000.0 0.7964637495496067 -0.5328365979355726
21750000000.0 0.7936954226048506 -0.5364821908696983
21825000000.0 0.7909126495949597 -0.5401230489279952
21900000000.0 0.7881143480600515 -0.54376017746088
21975000000.0 0.7852992915588667 -0.5473944327831088
22050000000.0 0.7824661301184094 -0.5510265029573689
22125000000.0 0.7796134132416634 -0.5546568913904845
22200000000.0 0.77673961508966 -0.55828590358103
22275000000.0 0.7738431614095479 -0.561913637305335
22350000000.0 0.7709224577425331 -0.5655399764711714
22425000000.0 0.7679759184155276 -0.5691645888058169
22500000000.0 0.7650019957985936 -0.5727869274785707
22575000000.0 0.7619992092973988 -0.5764062366883842
22650000000.0 0.7589661735462985 -0.5800215611761361
22725000000.0 0.7559016252734525 -0.5836317595495295
22800000000.0 0.7528044483247892 -0.5872355212377398
22875000000.0 0.7496736963584426 -0.5908313868242846
22950000000.0 0.7465086127552499 -0.5944177714410908
23025000000.0 0.7433086473336437 -0.5979929908459016
23100000000.0 0.7400734695081311 -0.6015552897499474
23175000000.0 0.7368029775888012 -0.6051028719144433
23250000000.0 0.7334973039840578 -0.6086339314938528
23325000000.0 0.7301568161389285 -0.6121466850719313
23400000000.0 0.726782113115826 -0.6156394038139942
23475000000.0 0.7233740178021141 -0.6191104451462811
23550000000.0 0.7199335648080748 -0.6225582833710868
23625000000.0 0.71646198419842 -0.6259815386347243
23700000000.0 0.7129606812789152 -0.6293790036844695
23775000000.0 0.7094312127355965 -0.6327496678801862
23850000000.0 0.7058752594960563 -0.6360927379660929
23925000000.0 0.7022945967489435 -0.6394076551575151
24000000000.0 0.6986910616179509 -0.64269410815579
24075000000.0 0.6950665190389166 -0.6459520417709085
24150000000.0 0.6914228264321661 -0.6491816609048644
24225000000.0 0.6877617977959897 -0.6523834297280067
24300000000.0 0.6840851678703137 -0.655558065964497
24375000000.0 0.6803945570317131 -0.6587065302900159
24450000000.0 0.6766914375813399 -0.6618300109335482
24525000000.0 0.6729771020760602 -0.6649299036639619
24600000000.0 0.6692526343298937 -0.6680077874295921
24675000000.0 0.6655188836780385 -0.6710653960035926
24750000000.0 0.6617764430496745 -0.674104586067906
24825000000.0 0.6580256313388748 -0.6771273022428096
24900000000.0 0.6542664804961691 -0.6801355396357609
24975000000.0 0.650498727687525 -0.6831313045413195
25050000000.0 0.6467218127837507 -0.686116573972073
25125000000.0 0.6429348813530096 -0.6890932547377233
25200000000.0 0.6391367932335447 -0.6920631428148297
25275000000.0 0.6353261366644287 -0.6950278837624486
25350000000.0 0.6315012478508283 -0.6979889349385913
25425000000.0 0.6276602357385441 -0.7009475302585623
25500000000.0 0.6238010116722995 -0.7039046482088679
25575000000.0 0.619921323515119 -0.7068609837895479
25650000000.0 0.6160187937140138 -0.7098169250038007
25725000000.0 0.6120909607117476 -0.712772534447265
25800000000.0 0.6081353230275091 -0.7157275364710921
25875000000.0 0.6041493852623371 -0.718681310303993
25950000000.0 0.6001307052297692 -0.7216328894200503
26025000000.0 0.5960769413695558 -0.7245809673327642
26100000000.0 0.5919858995738162 -0.7275239098830979
26175000000.0 0.5878555785413305 -0.7304597739721714
26250000000.0 0.5836842127778114 -0.7333863325695236
26325000000.0 0.5794703123781564 -0.736301105707803
26400000000.0 0.5752126987611331 -0.7392013970563546
26475000000.0 0.5709105355776694 -0.742084335551714
26550000000.0 0.5665633540802347 -0.7449469214547915
26625000000.0 0.5621710723223143 -0.7477860761045145
26700000000.0 0.5577340076522881 -0.7505986945481916
26775000000.0 0.5532528820742181 -0.753381700151719
26850000000.0 0.5487288201671103 -0.7561321002297201
26925000000.0 0.5441633393826371 -0.7588470416885071
27000000000.0 0.5395583326767442 -0.7615238656446642
27075000000.0 0.5349160435709283 -0.7641601599699854
27150000000.0 0.530239033881636 -0.7667538087205635
27225000000.0 0.5255301444988696 -0.769303037433992
27300000000.0 0.5207924497348239 -0.7718064533243345
27375000000.0 0.5160292058978931 -0.7742630794693086
27450000000.0 0.5112437948737123 -0.7766723821673408
27525000000.0 0.5064396636109199 -0.7790342907428902
27600000000.0 0.5016202605122695 -0.7813492091953002
27675000000.0 0.4967889698197305 -0.7836180192178086
27750000000.0 0.49194904515297 -0.7858420742572192
27825000000.0 0.4871035434126345 -0.7880231844389616
27900000000.0 0.48225526029151794 -0.7901635923444583
27975000000.0 0.47740666864694775 -0.792265939794933
28050000000.0 0.4725598609757376 -0.7943332259656876
28125000000.0 0.46771649719840946 -0.796368757324212
28200000000.0 0.4628777589019263 -0.7983760900514077
28275000000.0 0.4580443111103091 -0.8003589657647053
28350000000.0 0.4532162725508951 -0.8023212415120331
28425000000.0 0.4483931952615208 -0.804266815143409
28500000000.0 0.44357405424231006 -0.8061995472898045
