#   Hz   S  RI   R   50
!
0.0 -0.9050548437408257 0.0
75000000.0 -0.9027009341444007 0.06691857872572982
150000000.0 -0.8956650122486569 0.13338951364783114
225000000.0 -0.8840241138513849 0.1989715776932128
300000000.0 -0.8679053477723149 0.26323630788497326
375000000.0 -0.8474839659155186 0.32577421031408005
450000000.0 -0.8229806563206681 0.3862007426611025
525000000.0 -0.7946580594899634 0.444161984438778
600000000.0 -0.7628165157738633 0.4993398935586042
675000000.0 -0.7277890642685281 0.5514570357688348
750000000.0 -0.6899357321394225 0.6002806626275954
825000000.0 -0.6496371777194947 0.6456260059426756
900000000.0 -0.6072877807285426 0.6873586542367107
975000000.0 -0.5632883073824002 0.7253958820594956
1050000000.0 -0.518038315029151 0.7597068179757716
1125000000.0 -0.47192849742372744 0.7903113634384678
1200000000.0 -0.4253332042176192 0.8172778133169188
1275000000.0 -0.378603392549165 0.8407191792108305
1350000000.0 -0.3320602804911752 0.8607882770063985
1425000000.0 -0.2859899676767411 0.8776717069851878
1500000000.0 -0.24063926485238 0.8915829232246568
1575000000.0 -0.19621293023490236 0.9027546529047106
1650000000.0 -0.15287244736686406 0.9114309787736453
1725000000.0 -0.11073640006617909 0.9178594330203874
1800000000.0 -0.06988241072968537 0.9222834629461493
1875000000.0 -0.03035051615074682 0.9249356150051122
1950000000.0 0.007852231438727868 0.9260317435867927
2025000000.0 0.0447462229159626 0.9257664869151568
2100000000.0 0.0803731468089456 0.9243101699886572
2175000000.0 0.11478960211604271 0.9218072010530899
2250000000.0 0.14806082994082984 0.9183759322944778
2325000000.0 0.18025489622392463 0.9141098658621436
2400000000.0 0.2114376069477434 0.9090800104803867
2475000000.0 0.241668369551681 0.9033381373225098
2550000000.0 0.2709971369838482 0.8969206496023122
2625000000.0 0.2994624910616904 0.8898527690618251
2700000000.0 0.3270908461614898 0.882152752537152
2775000000.0 0.3538966879426844 0.8738358797078949
2850000000.0 0.37988370843603203 0.8649179945908744
2925000000.0 0.4050466602990052 0.8554184335668894
3000000000.0 0.4293737297742692 0.8453622271540542
3075000000.0 0.45284921909601583 0.8347815173565261
3150000000.0 0.4754563331771263 0.8237161839956619
3225000000.0 0.49717988031819377 0.8122137195730049
3300000000.0 0.5180087201706941 0.8003284312872821
3375000000.0 0.5379378220420294 0.7881200798337172
3450000000.0 0.5569698307534003 0.7756520870485613
3525000000.0 0.5751160737136415 0.7629894581861398
3600000000.0 0.5923969798626093 0.7501965697709417
3675000000.0 0.6088419170002041 0.737334970932183
3750000000.0 0.6244884871956574 0.7244613355144699
3825000000.0 0.6393813490319474 0.7116256849258916
3900000000.0 0.6535706591119015 0.698869978759003
3975000000.0 0.6671102424984017 0.6862271430887366
4050000000.0 0.6800556118590538 0.6737205766308481
4125000000.0 0.6924619577063282 0.6613641444083858
4200000000.0 0.7043822273858028 0.6491626390452954
4275000000.0 0.7158653989499411 0.6371126630294077
4350000000.0 0.7269550387789824 0.6252038627907585
4425000000.0 0.7376882101475144 0.6134204284180484
4500000000.0 0.7480947755007717 0.6017427620523838
4575000000.0 0.7581971097180717 0.5901492137466395
4650000000.0 0.7680102167815003 0.5786177856841918
4725000000.0 0.7775422195448697 0.5671277135136893
4800000000.0 0.7867951729466404 0.5556608462413255
4875000000.0 0.7957661359273831 0.5442027624628447
4950000000.0 0.804448427029045 0.5327435794323644
5025000000.0 0.8128329833466778 0.5212784312625426
5100000000.0 0.820909742034478 0.5098076122188988
5175000000.0 0.8286689675391986 0.4983363995430268
5250000000.0 0.8361024555528177 0.48687458663325034
5325000000.0 0.8432045556191688 0.4754357710482353
5400000000.0 0.8499729675968386 0.4640364522047557
5475000000.0 0.8564092819437011 0.45269500053514805
5550000000.0 0.8625192492227728 0.4414305631516458
5625000000.0 0.8683127795421106 0.4302619707953929
5700000000.0 0.873803687094196 0.4192067072363059
5775000000.0 0.8790092078861587 0.40827999567854895
5850000000.0 0.883949329577143 0.39749404757708534
5925000000.0 0.8886459806012676 0.38685750814860126
6000000000.0 0.8931221311247449 0.37637512041205834
6075000000.0 0.8974008606853277 0.3660476165220109
6150000000.0 0.9015044465761363 0.35587183218429236
6225000000.0 0.9054535233168719 0.34584102777345704
6300000000.0 0.9092663572177395 0.335945389049845
6375000000.0 0.9129582715428161 0.3261726716475468
6450000000.0 0.9165412476914611 0.316508947185723
6525000000.0 0.9200237167849628 0.3069394051994304
6600000000.0 0.9234105447472623 0.2974491641764628
6675000000.0 0.9267032030639226 0.28802404673840243
6750000000.0 0.9299001074942224 0.27865127817631635
6825000000.0 0.9329970986045634 0.2693200737734799
6900000000.0 0.9359880314737641 0.2600220881511662
6975000000.0 0.9388654375432338 0.2507517087310855
7050000000.0 0.9416212194594641 0.2415061847693125
7125000000.0 0.944247339861769 0.232285592743433
7200000000.0 0.9467364672651117 0.22309264767060674
7275000000.0 0.9490825462368159 0.21393237776671073
7350000000.0 0.9512812646500738 0.2048116863731369
7425000000.0 0.9533303975444336 0.19573883001496092
7500000000.0 0.9552300146286141 0.18672284464248273
7575000000.0 0.9569825463059228 0.17777295347167651
7650000000.0 0.9585927108743797 0.16889798939252454
7725000000.0 0.9600673128617572 0.1601058627573301
7800000000.0 0.9614149289467991 0.15140310167127152
7875000000.0 0.9626455032896707 0.1427944869299823
7950000000.0 0.9637698781085902 0.13428279778524843
8025000000.0 0.9647992878308164 0.12586867811325722
8100000000.0 0.9657448460315525 0.11755062567869633
8175000000.0 0.9666170536565316 0.10932510040735352
8250000000.0 0.9674253547913582 0.10118674126141161
8325000000.0 0.9681777626619478 0.09312867578381548
8400000000.0 0.9688805738649164 0.08514290191772526
8475000000.0 0.9695381833295236 0.07722071852368909
8550000000.0 0.9701530065358277 0.0693531792418882
8625000000.0 0.9707255094055066 0.061531544026242044
8700000000.0 0.9712543403853741 0.053747703773410004
8775000000.0 0.97173655387632 0.04599455586577331
8850000000.0 0.9721679095958001 0.03826631195787766
8925000000.0 0.9725432289160588 0.030558723721124233
9000000000.0 0.9728567868418649 0.022869217245330368
9075000000.0 0.9731027171581932 0.015196932082818606
9150000000.0 0.9732754083961613 0.007542666214387911
9225000000.0 0.9733698695742051 -9.12667647879627e-05
9300000000.0 0.973382047051008 -0.007701257450603875
9375000000.0 0.9733090771081981 -0.01528268288865863
9450000000.0 0.9731494628572379 -0.022830233905378028
9525000000.0 0.9729031685036762 -0.030338268307855326
9600000000.0 0.9725716286567332 -0.037801170002325704
9675000000.0 0.9721576749952957 -0.04521369441324068
9750000000.0 0.9716653869548633 -0.05257128194340461
9825000000.0 0.9710998769664 -0.05987032349902529
9900000000.0 0.9704670239701079 -0.0671083651665513
9975000000.0 0.9697731712961802 -0.07428424278938134
10050000000.0 0.9690248064473134 -0.08139814124371764
10125000000.0 0.9682282407810017 -0.08845157742942283
10200000000.0 0.9673893065730058 -0.09544731014481136
10275000000.0 0.9665130874987058 -0.10238918388242585
10350000000.0 0.9656036962974123 -0.10928191696433569
10425000000.0 0.9646641104303104 -0.11613084715925147
10500000000.0 0.9636960730841486 -0.12294164985862653
10575000000.0 0.9627000631124494 -0.12972004495059178
10650000000.0 0.9616753336577161 -0.13647150868535746
10725000000.0 0.9606200154746508 -0.14320100609133044
10800000000.0 0.9595312775751803 -0.14991275794419906
10875000000.0 0.9584055349161652 -0.15661005402150888
10950000000.0 0.9572386905916396 -0.16329512153813686
11025000000.0 0.9560263984750057 -0.16996905442472154
11100000000.0 0.9547643315405183 -0.17663180566786518
11175000000.0 0.953448441190507 -0.18328224146848332
11250000000.0 0.9520751937942991 -0.18991825267773949
11325000000.0 0.9506417722361716 -0.19653691600787584
11400000000.0 0.9491462324676508 -0.2031346950339811
11475000000.0 0.9475876077313328 -0.20970766911864158
11550000000.0 0.9459659561161242 -0.2162517771867553
11625000000.0 0.9442823502526202 -0.22276306279769287
11700000000.0 0.9425388110937692 -0.22923790721372442
11775000000.0 0.9407381906862571 -0.23567323811695373
11850000000.0 0.9388840114708007 -0.24206670321659035
11925000000.0 0.9369802718231378 -0.24841680011747083
12000000000.0 0.935031229156116 -0.25472295636632386
12075000000.0 0.9330411728723467 -0.2609855564115367
12150000000.0 0.9310141997463518 -0.26720591514993286
12225000000.0 0.9289540039216828 -0.27338620063095725
12300000000.0 0.9268636926654603 -0.2795293111896759
12375000000.0 0.9247456373980313 -0.2856387146428671
12450000000.0 0.9226013674076272 -0.2917182590854043
12525000000.0 0.9204315111924162 -0.2977719661724265
12600000000.0 0.9182357876863015 -0.3038038185038251
12675000000.0 0.9160130468707075 -0.309817552813859
12750000000.0 0.9137613566035846 -0.3158164701187954
12825000000.0 0.9114781300523381 -0.32180327283269405
12900000000.0 0.9091602860269125 -0.32777993720060095
12975000000.0 0.9068044328781045 -0.3337476273207191
13050000000.0 0.9044070655319605 -0.3397066546538377
13125000000.0 0.9019647647206178 -0.34565648438344065
13200000000.0 0.8994743875575436 -0.3515957874326653
13275000000.0 0.8969332392730754 -0.3575225345013821
13350000000.0 0.8943392171267436 -0.3634341262854358
13425000000.0 0.8916909191715362 -0.3693275521920774
13500000000.0 0.8889877125655355 -0.3751995684615837
13575000000.0 0.8862297583949859 -0.3810468857107735
13650000000.0 0.8834179923659584 -0.3868663555678676
13725000000.0 0.8805540631112713 -0.3926551462792753
13800000000.0 0.8776402321191247 -0.3984108979178133
13875000000.0 0.8746792413024607 -0.4041318490615137
13950000000.0 0.8716741558898565 -0.40981692847034834
14025000000.0 0.868628191545838 -0.4154658072716861
14100000000.0 0.8655445353603597 -0.42107890936444387
14175000000.0 0.8624261705502629 -0.42665738004655224
14250000000.0 0.85927571438456 -0.43220301513616466
14325000000.0 0.8560952780040916 -0.4377181549721298
14400000000.0 0.852886355505488 -0.44320554953083036
14475000000.0 0.8496497479750935 -0.4486682023871794
14550000000.0 0.8463855261864981 -0.45410920230043306
14625000000.0 0.8430930335261829 -0.45953155176861676
14700000000.0 0.8397709285046746 -0.46493800194410184
14775000000.0 0.8364172640662438 -0.4703309028412804
14850000000.0 0.8330295989441721 -0.47571207682716987
14925000000.0 0.8296051346251384 -0.48108272202468005
15000000000.0 0.8261408701723824 -0.4864433505556463
15075000000.0 0.8226337662787381 -0.49179376460322194
15150000000.0 0.819080909518456 -0.4971330711889375
15225000000.0 0.8154796678560436 -0.5024597344523559
15300000000.0 0.8118278290396919 -0.5077716622036255
15375000000.0 0.8081237145198049 -0.5130663216978704
15450000000.0 0.8043662629303651 -0.5183408780495965
15525000000.0 0.8005550788739327 -0.5235923475432491
15600000000.0 0.7966904446663902 -0.5288177573604246
15675000000.0 0.7927732947216437 -0.5340143029700608
15750000000.0 0.7888051542810821 -0.5391794946258536
15825000000.0 0.7847880461101288 -0.5443112850711717
15900000000.0 0.7807243704934362 -0.5494081716279184
15975000000.0 0.7766167652711462 -0.5544692672824233
16050000000.0 0.7724679536972624 -0.5594943370997816
16125000000.0 0.7682805885134761 -0.5644837982047343
16200000000.0 0.7640571007865635 -0.5694386835587424
16275000000.0 0.7597995617481809 -0.5743605717315545
16350000000.0 0.7555095651210226 -0.579251486704751
16425000000.0 0.7511881362576684 -0.5841137733552069
16500000000.0 0.7468356729225979 -0.5889499555614801
16575000000.0 0.7424519207968321 -0.5937625847867185
16650000000.0 0.7380359848751249 -0.5985540874700146
16725000000.0 0.7335863759624586 -0.6033266195804281
16800000000.0 0.729101089567089 -0.6080819362555256
16875000000.0 0.724577712735051 -0.6128212835855079
16950000000.0 0.7200135528700872 -0.6175453183642428
17025000000.0 0.7154057814130625 -0.6222540600794635
17100000000.0 0.7107515844772417 -0.6269468776417347
17175000000.0 0.7060483121895804 -0.6316225114525338
17250000000.0 0.7012936185895852 -0.6362791294888519
17325000000.0 0.6964855844780794 -0.6409144142382692
17400000000.0 0.6916228165573888 -0.6455256756527454
17475000000.0 0.6867045175093288 -0.6501099838895338
17550000000.0 0.6817305232471917 -0.6546643145472754
17625000000.0 0.6767013053670579 -0.6591856984401077
17700000000.0 0.6716179387165718 -0.6636713677171013
17775000000.0 0.6664820358947378 -0.6681188903408094
17850000000.0 0.6612956522931324 -0.6725262855759804
17925000000.0 0.656061166890959 -0.6768921141739083
18000000000.0 0.6507811453374293 -0.6812155383145136
18075000000.0 0.6454581928233244 -0.6854963480137996
18150000000.0 0.6400948048062065 -0.6897349525307042
18225000000.0 0.6346932237789732 -0.6939323372163291
18300000000.0 0.6292553099511111 -0.6980899881366868
18375000000.0 0.6237824329622773 -0.7022097885647347
18450000000.0 0.6182753906082316 -0.7062938929819582
18525000000.0 0.6127343590909503 -0.7103445854692046
18600000000.0 0.6071588775874066 -0.7143641302323253
18675000000.0 0.6015478680585052 -0.718354622452453
18750000000.0 0.5958996892931804 -0.722317847648312
18825000000.0 0.5902122223079355 -0.7262551572885954
18900000000.0 0.5844829825014517 -0.730167367520147
18975000000.0 0.5787092524912206 -0.7340546866297936
19050000000.0 0.5728882284144842 -0.7379166753018025
19125000000.0 0.5670171717214514 -0.7417522419532648
19200000000.0 0.5610935581656874 -0.7455596735223378
19275000000.0 0.5551152158226659 -0.7493367001519176
19350000000.0 0.5490804445364553 -0.7530805903578823
19425000000.0 0.5429881101768241 -0.7567882715961308
19500000000.0 0.536837708433058 -0.7604564697365365
19575000000.0 0.5306293945059111 -0.7640818598907579
19650000000.0 0.5243639768990811 -0.7676612203829709
19725000000.0 0.5180428754591067 -0.7711915814353001
19800000000.0 0.5116680457639248 -0.7746703603774872
19875000000.0 0.5052418738108365 -0.7780954758735844
19950000000.0 0.4987670466040268 -0.7814654347540418
20025000000.0 0.49224640559935257 -0.7847793864939435
20100000000.0 0.4856827909538173 -0.7880371421120898
20175000000.0 0.4790788850916769 -0.7912391561898
20250000000.0 0.4724370642036624 -0.794386472719842
20325000000.0 0.4657592659299784 -0.7974806374859975
20400000000.0 0.4590468806569624 -0.8005235815332163
20475000000.0 0.45230067262212453 -0.8035174819140194
20550000000.0 0.44552073543665505 -0.8064646071972372
20625000000.0 0.4387064847824109 -0.8093671561259239
20700000000.0 0.43185668902133445 -0.8122270982594715
20775000000.0 0.4249695363789102 -0.8150460254021775
20850000000.0 0.4180427353430086 -0.8178250221049592
20925000000.0 0.4110736430665991 -0.8205645625531907
21000000000.0 0.4040594149796426 -0.8232644397717814
21075000000.0 0.39699716759037484 -0.825923731361129
21150000000.0 0.38988414565822027 -0.8285408040155061
21225000000.0 0.3827178845960285 -0.8311133569734126
21300000000.0 0.37549635912941465 -0.8336385024200874
21375000000.0 0.3682181099003947 -0.8361128788202937
21450000000.0 0.3608823408200997 -0.8385327913153573
21525000000.0 0.3534889814953404 -0.840894371773236
21600000000.0 0.3460387108988605 -0.8431937499201152
21675000000.0 0.33853294052785116 -0.8454272262734057
21750000000.0 0.3309737574911677 -0.8475914373826419
21825000000.0 0.3233638301661963 -0.8496835041847186
21900000000.0 0.31570628115298466 -0.8517011550844243
21975000000.0 0.3080045341115537 -0.8536428166443396
22050000000.0 0.3002621425940281 -0.8555076664484021
22125000000.0 0.2924826100878467 -0.857295644705993
22200000000.0 0.2846692111025951 -0.8590074233844681
22275000000.0 0.27682482321900814 -0.8606443339795693
22350000000.0 0.26895177956059013 -0.8622082573295464
22425000000.0 0.2610517501623824 -0.8637014810229108
22500000000.0 0.25312565924337876 -0.8651265318209875
22575000000.0 0.24517364351228915 -0.8664859920068618
22650000000.0 0.2371950544484467 -0.867782309593652
22725000000.0 0.2291885051168107 -0.8690176128138916
22800000000.0 0.22115195962729628 -0.8701935392333312
22875000000.0 0.21308286096810364 -0.8713110891833472
22950000000.0 0.20497829076242524 -0.8723705120142862
23025000000.0 0.19683515264011422 -0.8733712319958773
23100000000.0 0.18865036948649874 -0.874311818615772
23175000000.0 0.18042108391307726 -0.8751900036612699
23250000000.0 0.17214485094586152 -0.8760027449371534
23325000000.0 0.16381981217346722 -0.8767463339092588
23400000000.0 0.1554448414336728 -0.8774165421068573
23475000000.0 0.14701965350798096 -0.8780087989012805
23550000000.0 0.13854486917274514 -0.8785183914263879
23625000000.0 0.13002203222983622 -0.8789406760243401
23700000000.0 0.12145357669472268 -0.8792712897704736
23775000000.0 0.11284274502285596 -0.8795063504091362
23850000000.0 0.10419346096396423 -0.8796426334427278
23925000000.0 0.09551016320160988 -0.8796777161499175
24000000000.0 0.08679760821997481 -0.8796100799242982
24075000000.0 0.07806065271011346 -0.879439164446669
24150000000.0 0.06930402717200593 -0.8791653697289489
24225000000.0 0.060532113100103084 -0.8787900048660792
24300000000.0 0.05174873620378638 -0.8783151852567176
24375000000.0 0.042956987490720376 -0.8777436829451066
24450000000.0 0.03415908274895952 -0.87707873743395
24525000000.0 0.02535626905941559 -0.8763238366670657
24600000000.0 0.016548784546027755 -0.8754824797422784
24675000000.0 0.007735874750952902 -0.8745579341751045
24750000000.0 -0.0010841340453610535 -0.8735530011097214
24825000000.0 -0.009913707388085204 -0.8724698017194025
24900000000.0 -0.01875592698218399 -0.8713095971487004
24975000000.0 -0.027614275477752456 -0.8700726527592029
25050000000.0 -0.03649239276093332 -0.8687581552246753
25125000000.0 -0.04539381661885799 -0.8673641882898118
25200000000.0 -0.05432172179237495 -0.8658877698995909
25275000000.0 -0.06327867183234588 -0.8643249500853791
25350000000.0 -0.07226639779763916 -0.8626709656353494
25425000000.0 -0.08128561668096813 -0.8609204443609442
25500000000.0 -0.0903359005677498 -0.859067648874194
25575000000.0 -0.09941560500860883 -0.8571067473754207
25650000000.0 -0.10852186203801752 -0.8550320971580615
25725000000.0 -0.11765063985104807 -0.8528385254790263
25800000000.0 -0.12679686753110886 -0.8505215921950628
25875000000.0 -0.13595461959409855 -0.8480778191642939
25950000000.0 -0.14511735167444448 -0.8455048728487389
26025000000.0 -0.15427817561920024 -0.842801688775857
26100000000.0 -0.16343015975644448 -0.8399685294267838
26175000000.0 -0.1725666383187838 -0.8370069705780592
26250000000.0 -0.1816815130529786 -0.8339198149577254
26325000000.0 -0.19076953001143399 -0.8307109360849242
26400000000.0 -0.1998265154312461 -0.8273850591258782
26475000000.0 -0.20884955643896722 -0.8239474892952108
26550000000.0 -0.21783711499917385 -0.8204038015444169
26625000000.0 -0.22678906692549028 -0.8167595078144494
26700000000.0 -0.23570666172277885 -0.8130197198255519
26775000000.0 -0.24459240332128096 -0.8091888261172526
26850000000.0 -0.25344985616568694 -0.805270201769143
26925000000.0 -0.2622833853915153 -0.801265967919523
27000000000.0 -0.2710978437170342 -0.797176815903065
27075000000.0 -0.27989822097775124 -0.7930019076544915
27150000000.0 -0.28868927473696016 -0.7887388601276776
27225000000.0 -0.2974751619655873 -0.7843838170548115
27300000000.0 -0.3062590922907979 -0.7799316066461955
27375000000.0 -0.31504302271323165 -0.7753759790560298
27450000000.0 -0.32382741199208326 -0.7707099128678699
27525000000.0 -0.3326110501572027 -0.7659259757356257
27600000000.0 -0.3413909749457498 -0.7610167208841798
27675000000.0 -0.35016248254471616 -0.7559750986316673
27750000000.0 -0.35891923506266515 -0.7507948606069969
27825000000.0 -0.3676534619005163 -0.7454709340164665
27900000000.0 -0.3763562469153226 -0.7399997442209767
27975000000.0 -0.3850178882562506 -0.734379466016951
28050000000.0 -0.3936283132826923 -0.7286101873000395
28125000000.0 -0.4021775273160742 -0.722693973096677
28200000000.0 -0.4106560723656068 -0.7166348230766115
28275000000.0 -0.4190554705898348 -0.7104385213570924
