<Qucs Dataset 25.1.1>
<indep frequency 200>
2.400000000000e+09
2.400502512563e+09
2.401005025126e+09
2.401507537688e+09
2.402010050251e+09
2.402512562814e+09
2.403015075377e+09
2.403517587940e+09
2.404020100503e+09
2.404522613065e+09
2.405025125628e+09
2.405527638191e+09
2.406030150754e+09
2.406532663317e+09
2.407035175879e+09
2.407537688442e+09
2.408040201005e+09
2.408542713568e+09
2.409045226131e+09
2.409547738693e+09
2.410050251256e+09
2.410552763819e+09
2.411055276382e+09
2.411557788945e+09
2.412060301508e+09
2.412562814070e+09
2.413065326633e+09
2.413567839196e+09
2.414070351759e+09
2.414572864322e+09
2.415075376884e+09
2.415577889447e+09
2.416080402010e+09
2.416582914573e+09
2.417085427136e+09
2.417587939698e+09
2.418090452261e+09
2.418592964824e+09
2.419095477387e+09
2.419597989950e+09
2.420100502513e+09
2.420603015075e+09
2.421105527638e+09
2.421608040201e+09
2.422110552764e+09
2.422613065327e+09
2.423115577889e+09
2.423618090452e+09
2.424120603015e+09
2.424623115578e+09
2.425125628141e+09
2.425628140704e+09
2.426130653266e+09
2.426633165829e+09
2.427135678392e+09
2.427638190955e+09
2.428140703518e+09
2.428643216080e+09
2.429145728643e+09
2.429648241206e+09
2.430150753769e+09
2.430653266332e+09
2.431155778894e+09
2.431658291457e+09
2.432160804020e+09
2.432663316583e+09
2.433165829146e+09
2.433668341709e+09
2.434170854271e+09
2.434673366834e+09
2.435175879397e+09
2.435678391960e+09
2.436180904523e+09
2.436683417085e+09
2.437185929648e+09
2.437688442211e+09
2.438190954774e+09
2.438693467337e+09
2.439195979900e+09
2.439698492462e+09
2.440201005025e+09
2.440703517588e+09
2.441206030151e+09
2.441708542714e+09
2.442211055276e+09
2.442713567839e+09
2.443216080402e+09
2.443718592965e+09
2.444221105528e+09
2.444723618090e+09
2.445226130653e+09
2.445728643216e+09
2.446231155779e+09
2.446733668342e+09
2.447236180905e+09
2.447738693467e+09
2.448241206030e+09
2.448743718593e+09
2.449246231156e+09
2.449748743719e+09
2.450251256281e+09
2.450753768844e+09
2.451256281407e+09
2.451758793970e+09
2.452261306533e+09
2.452763819095e+09
2.453266331658e+09
2.453768844221e+09
2.454271356784e+09
2.454773869347e+09
2.455276381910e+09
2.455778894472e+09
2.456281407035e+09
2.456783919598e+09
2.457286432161e+09
2.457788944724e+09
2.458291457286e+09
2.458793969849e+09
2.459296482412e+09
2.459798994975e+09
2.460301507538e+09
2.460804020101e+09
2.461306532663e+09
2.461809045226e+09
2.462311557789e+09
2.462814070352e+09
2.463316582915e+09
2.463819095477e+09
2.464321608040e+09
2.464824120603e+09
2.465326633166e+09
2.465829145729e+09
2.466331658291e+09
2.466834170854e+09
2.467336683417e+09
2.467839195980e+09
2.468341708543e+09
2.468844221106e+09
2.469346733668e+09
2.469849246231e+09
2.470351758794e+09
2.470854271357e+09
2.471356783920e+09
2.471859296482e+09
2.472361809045e+09
2.472864321608e+09
2.473366834171e+09
2.473869346734e+09
2.474371859297e+09
2.474874371859e+09
2.475376884422e+09
2.475879396985e+09
2.476381909548e+09
2.476884422111e+09
2.477386934673e+09
2.477889447236e+09
2.478391959799e+09
2.478894472362e+09
2.479396984925e+09
2.479899497487e+09
2.480402010050e+09
2.480904522613e+09
2.481407035176e+09
2.481909547739e+09
2.482412060302e+09
2.482914572864e+09
2.483417085427e+09
2.483919597990e+09
2.484422110553e+09
2.484924623116e+09
2.485427135678e+09
2.485929648241e+09
2.486432160804e+09
2.486934673367e+09
2.487437185930e+09
2.487939698492e+09
2.488442211055e+09
2.488944723618e+09
2.489447236181e+09
2.489949748744e+09
2.490452261307e+09
2.490954773869e+09
2.491457286432e+09
2.491959798995e+09
2.492462311558e+09
2.492964824121e+09
2.493467336683e+09
2.493969849246e+09
2.494472361809e+09
2.494974874372e+09
2.495477386935e+09
2.495979899498e+09
2.496482412060e+09
2.496984924623e+09
2.497487437186e+09
2.497989949749e+09
2.498492462312e+09
2.498994974874e+09
2.499497487437e+09
2.500000000000e+09
</indep>
<dep ac.v(v1) frequency>
9.868700798217e-04-j2.146284233448e-04
9.868513528434e-04-j2.146692738729e-04
9.868326226580e-04-j2.147101219889e-04
9.868138892659e-04-j2.147509676926e-04
9.867951526675e-04-j2.147918109835e-04
9.867764128632e-04-j2.148326518613e-04
9.867576698533e-04-j2.148734903258e-04
9.867389236384e-04-j2.149143263764e-04
9.867201742189e-04-j2.149551600129e-04
9.867014215950e-04-j2.149959912349e-04
9.866826657673e-04-j2.150368200422e-04
9.866639067361e-04-j2.150776464342e-04
9.866451445019e-04-j2.151184704107e-04
9.866263790651e-04-j2.151592919713e-04
9.866076104260e-04-j2.152001111156e-04
9.865888385851e-04-j2.152409278434e-04
9.865700635427e-04-j2.152817421543e-04
9.865512852994e-04-j2.153225540479e-04
9.865325038555e-04-j2.153633635238e-04
9.865137192113e-04-j2.154041705818e-04
9.864949313674e-04-j2.154449752215e-04
9.864761403242e-04-j2.154857774424e-04
9.864573460818e-04-j2.155265772443e-04
9.864385486411e-04-j2.155673746269e-04
9.864197480021e-04-j2.156081695898e-04
9.864009441654e-04-j2.156489621325e-04
9.863821371313e-04-j2.156897522549e-04
9.863633269003e-04-j2.157305399565e-04
9.863445134728e-04-j2.157713252369e-04
9.863256968493e-04-j2.158121080959e-04
9.863068770299e-04-j2.158528885331e-04
9.862880540153e-04-j2.158936665481e-04
9.862692278058e-04-j2.159344421405e-04
9.862503984019e-04-j2.159752153102e-04
9.862315658039e-04-j2.160159860566e-04
9.862127300122e-04-j2.160567543795e-04
9.861938910273e-04-j2.160975202784e-04
9.861750488495e-04-j2.161382837531e-04
9.861562034793e-04-j2.161790448032e-04
9.861373549171e-04-j2.162198034284e-04
9.861185031633e-04-j2.162605596282e-04
9.860996482182e-04-j2.163013134024e-04
9.860807900824e-04-j2.163420647507e-04
9.860619287562e-04-j2.163828136725e-04
9.860430642400e-04-j2.164235601677e-04
9.860241965342e-04-j2.164643042359e-04
9.860053256393e-04-j2.165050458767e-04
9.859864515556e-04-j2.165457850897e-04
9.859675742836e-04-j2.165865218747e-04
9.859486938237e-04-j2.166272562313e-04
9.859298101763e-04-j2.166679881591e-04
9.859109233417e-04-j2.167087176577e-04
9.858920333204e-04-j2.167494447269e-04
9.858731401128e-04-j2.167901693663e-04
9.858542437194e-04-j2.168308915756e-04
9.858353441404e-04-j2.168716113543e-04
9.858164413765e-04-j2.169123287022e-04
9.857975354278e-04-j2.169530436189e-04
9.857786262949e-04-j2.169937561041e-04
9.857597139782e-04-j2.170344661574e-04
9.857407984781e-04-j2.170751737784e-04
9.857218797949e-04-j2.171158789669e-04
9.857029579292e-04-j2.171565817225e-04
9.856840328812e-04-j2.171972820447e-04
9.856651046515e-04-j2.172379799334e-04
9.856461732403e-04-j2.172786753881e-04
9.856272386483e-04-j2.173193684085e-04
9.856083008757e-04-j2.173600589942e-04
9.855893599229e-04-j2.174007471450e-04
9.855704157904e-04-j2.174414328604e-04
9.855514684785e-04-j2.174821161401e-04
9.855325179878e-04-j2.175227969838e-04
9.855135643185e-04-j2.175634753911e-04
9.854946074712e-04-j2.176041513617e-04
9.854756474462e-04-j2.176448248953e-04
9.854566842439e-04-j2.176854959914e-04
9.854377178648e-04-j2.177261646498e-04
9.854187483092e-04-j2.177668308700e-04
9.853997755776e-04-j2.178074946519e-04
9.853807996703e-04-j2.178481559949e-04
9.853618205878e-04-j2.178888148988e-04
9.853428383305e-04-j2.179294713632e-04
9.853238528989e-04-j2.179701253878e-04
9.853048642932e-04-j2.180107769723e-04
9.852858725139e-04-j2.180514261162e-04
9.852668775615e-04-j2.180920728193e-04
9.852478794364e-04-j2.181327170812e-04
9.852288781389e-04-j2.181733589015e-04
9.852098736695e-04-j2.182139982800e-04
9.851908660285e-04-j2.182546352162e-04
9.851718552165e-04-j2.182952697099e-04
9.851528412337e-04-j2.183359017606e-04
9.851338240807e-04-j2.183765313681e-04
9.851148037579e-04-j2.184171585320e-04
9.850957802655e-04-j2.184577832520e-04
9.850767536040e-04-j2.184984055276e-04
9.850577237740e-04-j2.185390253587e-04
9.850386907757e-04-j2.185796427447e-04
9.850196546096e-04-j2.186202576855e-04
9.850006152761e-04-j2.186608701806e-04
9.849815727756e-04-j2.187014802297e-04
9.849625271086e-04-j2.187420878324e-04
9.849434782753e-04-j2.187826929885e-04
9.849244262763e-04-j2.188232956975e-04
9.849053711120e-04-j2.188638959593e-04
9.848863127827e-04-j2.189044937732e-04
9.848672512889e-04-j2.189450891391e-04
9.848481866310e-04-j2.189856820566e-04
9.848291188094e-04-j2.190262725254e-04
9.848100478245e-04-j2.190668605451e-04
9.847909736767e-04-j2.191074461154e-04
9.847718963665e-04-j2.191480292359e-04
9.847528158942e-04-j2.191886099064e-04
9.847337322603e-04-j2.192291881263e-04
9.847146454651e-04-j2.192697638955e-04
9.846955555092e-04-j2.193103372136e-04
9.846764623928e-04-j2.193509080802e-04
9.846573661165e-04-j2.193914764950e-04
9.846382666806e-04-j2.194320424576e-04
9.846191640855e-04-j2.194726059677e-04
9.846000583316e-04-j2.195131670250e-04
9.845809494195e-04-j2.195537256292e-04
9.845618373494e-04-j2.195942817798e-04
9.845427221218e-04-j2.196348354766e-04
9.845236037371e-04-j2.196753867192e-04
9.845044821957e-04-j2.197159355072e-04
9.844853574980e-04-j2.197564818404e-04
9.844662296445e-04-j2.197970257183e-04
9.844470986355e-04-j2.198375671407e-04
9.844279644715e-04-j2.198781061072e-04
9.844088271528e-04-j2.199186426175e-04
9.843896866800e-04-j2.199591766712e-04
9.843705430533e-04-j2.199997082679e-04
9.843513962733e-04-j2.200402374075e-04
9.843322463403e-04-j2.200807640894e-04
9.843130932547e-04-j2.201212883134e-04
9.842939370170e-04-j2.201618100791e-04
9.842747776276e-04-j2.202023293862e-04
9.842556150868e-04-j2.202428462343e-04
9.842364493952e-04-j2.202833606232e-04
9.842172805530e-04-j2.203238725524e-04
9.841981085608e-04-j2.203643820217e-04
9.841789334189e-04-j2.204048890306e-04
9.841597551278e-04-j2.204453935789e-04
9.841405736878e-04-j2.204858956662e-04
9.841213890994e-04-j2.205263952922e-04
9.841022013630e-04-j2.205668924565e-04
9.840830104790e-04-j2.206073871589e-04
9.840638164477e-04-j2.206478793988e-04
9.840446192698e-04-j2.206883691761e-04
9.840254189455e-04-j2.207288564904e-04
9.840062154753e-04-j2.207693413414e-04
9.839870088595e-04-j2.208098237286e-04
9.839677990986e-04-j2.208503036518e-04
9.839485861930e-04-j2.208907811106e-04
9.839293701431e-04-j2.209312561047e-04
9.839101509493e-04-j2.209717286338e-04
9.838909286121e-04-j2.210121986975e-04
9.838717031319e-04-j2.210526662955e-04
9.838524745090e-04-j2.210931314274e-04
9.838332427439e-04-j2.211335940929e-04
9.838140078370e-04-j2.211740542917e-04
9.837947697887e-04-j2.212145120234e-04
9.837755285994e-04-j2.212549672878e-04
9.837562842696e-04-j2.212954200843e-04
9.837370367996e-04-j2.213358704128e-04
9.837177861900e-04-j2.213763182729e-04
9.836985324410e-04-j2.214167636642e-04
9.836792755531e-04-j2.214572065864e-04
9.836600155267e-04-j2.214976470392e-04
9.836407523622e-04-j2.215380850222e-04
9.836214860601e-04-j2.215785205351e-04
9.836022166208e-04-j2.216189535776e-04
9.835829440446e-04-j2.216593841493e-04
9.835636683320e-04-j2.216998122499e-04
9.835443894834e-04-j2.217402378791e-04
9.835251074993e-04-j2.217806610365e-04
9.835058223799e-04-j2.218210817217e-04
9.834865341258e-04-j2.218614999345e-04
9.834672427374e-04-j2.219019156745e-04
9.834479482151e-04-j2.219423289414e-04
9.834286505592e-04-j2.219827397348e-04
9.834093497703e-04-j2.220231480544e-04
9.833900458487e-04-j2.220635538999e-04
9.833707387948e-04-j2.221039572709e-04
9.833514286091e-04-j2.221443581672e-04
9.833321152919e-04-j2.221847565882e-04
9.833127988438e-04-j2.222251525338e-04
9.832934792650e-04-j2.222655460036e-04
9.832741565561e-04-j2.223059369973e-04
9.832548307173e-04-j2.223463255144e-04
9.832355017493e-04-j2.223867115548e-04
9.832161696522e-04-j2.224270951180e-04
9.831968344267e-04-j2.224674762037e-04
9.831774960731e-04-j2.225078548116e-04
9.831581545918e-04-j2.225482309414e-04
9.831388099832e-04-j2.225886045927e-04
9.831194622477e-04-j2.226289757651e-04
9.831001113858e-04-j2.226693444584e-04
9.830807573979e-04-j2.227097106722e-04
</dep>
<dep ac.v(v2) frequency>
9.868700798217e-04-j2.146284233448e-04
9.868513528434e-04-j2.146692738729e-04
9.868326226580e-04-j2.147101219889e-04
9.868138892659e-04-j2.147509676926e-04
9.867951526675e-04-j2.147918109835e-04
9.867764128632e-04-j2.148326518613e-04
9.867576698533e-04-j2.148734903258e-04
9.867389236384e-04-j2.149143263764e-04
9.867201742189e-04-j2.149551600129e-04
9.867014215950e-04-j2.149959912349e-04
9.866826657673e-04-j2.150368200422e-04
9.866639067361e-04-j2.150776464342e-04
9.866451445019e-04-j2.151184704107e-04
9.866263790651e-04-j2.151592919713e-04
9.866076104260e-04-j2.152001111156e-04
9.865888385851e-04-j2.152409278434e-04
9.865700635427e-04-j2.152817421543e-04
9.865512852994e-04-j2.153225540479e-04
9.865325038555e-04-j2.153633635238e-04
9.865137192113e-04-j2.154041705818e-04
9.864949313674e-04-j2.154449752215e-04
9.864761403242e-04-j2.154857774424e-04
9.864573460818e-04-j2.155265772443e-04
9.864385486411e-04-j2.155673746269e-04
9.864197480021e-04-j2.156081695898e-04
9.864009441654e-04-j2.156489621325e-04
9.863821371313e-04-j2.156897522549e-04
9.863633269003e-04-j2.157305399565e-04
9.863445134728e-04-j2.157713252369e-04
9.863256968493e-04-j2.158121080959e-04
9.863068770299e-04-j2.158528885331e-04
9.862880540153e-04-j2.158936665481e-04
9.862692278058e-04-j2.159344421405e-04
9.862503984019e-04-j2.159752153102e-04
9.862315658039e-04-j2.160159860566e-04
9.862127300122e-04-j2.160567543795e-04
9.861938910273e-04-j2.160975202784e-04
9.861750488495e-04-j2.161382837531e-04
9.861562034793e-04-j2.161790448032e-04
9.861373549171e-04-j2.162198034284e-04
9.861185031633e-04-j2.162605596282e-04
9.860996482182e-04-j2.163013134024e-04
9.860807900824e-04-j2.163420647507e-04
9.860619287562e-04-j2.163828136725e-04
9.860430642400e-04-j2.164235601677e-04
9.860241965342e-04-j2.164643042359e-04
9.860053256393e-04-j2.165050458767e-04
9.859864515556e-04-j2.165457850897e-04
9.859675742836e-04-j2.165865218747e-04
9.859486938237e-04-j2.166272562313e-04
9.859298101763e-04-j2.166679881591e-04
9.859109233417e-04-j2.167087176577e-04
9.858920333204e-04-j2.167494447269e-04
9.858731401128e-04-j2.167901693663e-04
9.858542437194e-04-j2.168308915756e-04
9.858353441404e-04-j2.168716113543e-04
9.858164413765e-04-j2.169123287022e-04
9.857975354278e-04-j2.169530436189e-04
9.857786262949e-04-j2.169937561041e-04
9.857597139782e-04-j2.170344661574e-04
9.857407984781e-04-j2.170751737784e-04
9.857218797949e-04-j2.171158789669e-04
9.857029579292e-04-j2.171565817225e-04
9.856840328812e-04-j2.171972820447e-04
9.856651046515e-04-j2.172379799334e-04
9.856461732403e-04-j2.172786753881e-04
9.856272386483e-04-j2.173193684085e-04
9.856083008757e-04-j2.173600589942e-04
9.855893599229e-04-j2.174007471450e-04
9.855704157904e-04-j2.174414328604e-04
9.855514684785e-04-j2.174821161401e-04
9.855325179878e-04-j2.175227969838e-04
9.855135643185e-04-j2.175634753911e-04
9.854946074712e-04-j2.176041513617e-04
9.854756474462e-04-j2.176448248953e-04
9.854566842439e-04-j2.176854959914e-04
9.854377178648e-04-j2.177261646498e-04
9.854187483092e-04-j2.177668308700e-04
9.853997755776e-04-j2.178074946519e-04
9.853807996703e-04-j2.178481559949e-04
9.853618205878e-04-j2.178888148988e-04
9.853428383305e-04-j2.179294713632e-04
9.853238528989e-04-j2.179701253878e-04
9.853048642932e-04-j2.180107769723e-04
9.852858725139e-04-j2.180514261162e-04
9.852668775615e-04-j2.180920728193e-04
9.852478794364e-04-j2.181327170812e-04
9.852288781389e-04-j2.181733589015e-04
9.852098736695e-04-j2.182139982800e-04
9.851908660285e-04-j2.182546352162e-04
9.851718552165e-04-j2.182952697099e-04
9.851528412337e-04-j2.183359017606e-04
9.851338240807e-04-j2.183765313681e-04
9.851148037579e-04-j2.184171585320e-04
9.850957802655e-04-j2.184577832520e-04
9.850767536040e-04-j2.184984055276e-04
9.850577237740e-04-j2.185390253587e-04
9.850386907757e-04-j2.185796427447e-04
9.850196546096e-04-j2.186202576855e-04
9.850006152761e-04-j2.186608701806e-04
9.849815727756e-04-j2.187014802297e-04
9.849625271086e-04-j2.187420878324e-04
9.849434782753e-04-j2.187826929885e-04
9.849244262763e-04-j2.188232956975e-04
9.849053711120e-04-j2.188638959593e-04
9.848863127827e-04-j2.189044937732e-04
9.848672512889e-04-j2.189450891391e-04
9.848481866310e-04-j2.189856820566e-04
9.848291188094e-04-j2.190262725254e-04
9.848100478245e-04-j2.190668605451e-04
9.847909736767e-04-j2.191074461154e-04
9.847718963665e-04-j2.191480292359e-04
9.847528158942e-04-j2.191886099064e-04
9.847337322603e-04-j2.192291881263e-04
9.847146454651e-04-j2.192697638955e-04
9.846955555092e-04-j2.193103372136e-04
9.846764623928e-04-j2.193509080802e-04
9.846573661165e-04-j2.193914764950e-04
9.846382666806e-04-j2.194320424576e-04
9.846191640855e-04-j2.194726059677e-04
9.846000583316e-04-j2.195131670250e-04
9.845809494195e-04-j2.195537256292e-04
9.845618373494e-04-j2.195942817798e-04
9.845427221218e-04-j2.196348354766e-04
9.845236037371e-04-j2.196753867192e-04
9.845044821957e-04-j2.197159355072e-04
9.844853574980e-04-j2.197564818404e-04
9.844662296445e-04-j2.197970257183e-04
9.844470986355e-04-j2.198375671407e-04
9.844279644715e-04-j2.198781061072e-04
9.844088271528e-04-j2.199186426175e-04
9.843896866800e-04-j2.199591766712e-04
9.843705430533e-04-j2.199997082679e-04
9.843513962733e-04-j2.200402374075e-04
9.843322463403e-04-j2.200807640894e-04
9.843130932547e-04-j2.201212883134e-04
9.842939370170e-04-j2.201618100791e-04
9.842747776276e-04-j2.202023293862e-04
9.842556150868e-04-j2.202428462343e-04
9.842364493952e-04-j2.202833606232e-04
9.842172805530e-04-j2.203238725524e-04
9.841981085608e-04-j2.203643820217e-04
9.841789334189e-04-j2.204048890306e-04
9.841597551278e-04-j2.204453935789e-04
9.841405736878e-04-j2.204858956662e-04
9.841213890994e-04-j2.205263952922e-04
9.841022013630e-04-j2.205668924565e-04
9.840830104790e-04-j2.206073871589e-04
9.840638164477e-04-j2.206478793988e-04
9.840446192698e-04-j2.206883691761e-04
9.840254189455e-04-j2.207288564904e-04
9.840062154753e-04-j2.207693413414e-04
9.839870088595e-04-j2.208098237286e-04
9.839677990986e-04-j2.208503036518e-04
9.839485861930e-04-j2.208907811106e-04
9.839293701431e-04-j2.209312561047e-04
9.839101509493e-04-j2.209717286338e-04
9.838909286121e-04-j2.210121986975e-04
9.838717031319e-04-j2.210526662955e-04
9.838524745090e-04-j2.210931314274e-04
9.838332427439e-04-j2.211335940929e-04
9.838140078370e-04-j2.211740542917e-04
9.837947697887e-04-j2.212145120234e-04
9.837755285994e-04-j2.212549672878e-04
9.837562842696e-04-j2.212954200843e-04
9.837370367996e-04-j2.213358704128e-04
9.837177861900e-04-j2.213763182729e-04
9.836985324410e-04-j2.214167636642e-04
9.836792755531e-04-j2.214572065864e-04
9.836600155267e-04-j2.214976470392e-04
9.836407523622e-04-j2.215380850222e-04
9.836214860601e-04-j2.215785205351e-04
9.836022166208e-04-j2.216189535776e-04
9.835829440446e-04-j2.216593841493e-04
9.835636683320e-04-j2.216998122499e-04
9.835443894834e-04-j2.217402378791e-04
9.835251074993e-04-j2.217806610365e-04
9.835058223799e-04-j2.218210817217e-04
9.834865341258e-04-j2.218614999345e-04
9.834672427374e-04-j2.219019156745e-04
9.834479482151e-04-j2.219423289414e-04
9.834286505592e-04-j2.219827397348e-04
9.834093497703e-04-j2.220231480544e-04
9.833900458487e-04-j2.220635538999e-04
9.833707387948e-04-j2.221039572709e-04
9.833514286091e-04-j2.221443581672e-04
9.833321152919e-04-j2.221847565882e-04
9.833127988438e-04-j2.222251525338e-04
9.832934792650e-04-j2.222655460036e-04
9.832741565561e-04-j2.223059369973e-04
9.832548307173e-04-j2.223463255144e-04
9.832355017493e-04-j2.223867115548e-04
9.832161696522e-04-j2.224270951180e-04
9.831968344267e-04-j2.224674762037e-04
9.831774960731e-04-j2.225078548116e-04
9.831581545918e-04-j2.225482309414e-04
9.831388099832e-04-j2.225886045927e-04
9.831194622477e-04-j2.226289757651e-04
9.831001113858e-04-j2.226693444584e-04
9.830807573979e-04-j2.227097106722e-04
</dep>
<dep ac.i(pr1) frequency>
1.000000000000e-06+j0.000000000000e+00
1.000000000000e-06+j0.000000000000e+00
1.000000000000e-06+j0.000000000000e+00
1.000000000000e-06+j0.000000000000e+00
1.000000000000e-06+j0.000000000000e+00
1.000000000000e-06+j0.000000000000e+00
1.000000000000e-06+j0.000000000000e+00
1.000000000000e-06+j0.000000000000e+00
1.000000000000e-06+j0.000000000000e+00
1.000000000000e-06+j0.000000000000e+00
1.000000000000e-06+j0.000000000000e+00
