<Qucs Dataset 25.1.1>
<indep dc1.i(vids) 1>
3.336341000000e-02+j0.000000000000e+00
</indep>
<indep dc1.gm 1>
0.000000000000e+00+j0.000000000000e+00
</indep>
<indep sw1.v(v-sweep) 301>
0.000000000000e+00
1.000000000000e-02
2.000000000000e-02
3.000000000000e-02
4.000000000000e-02
5.000000000000e-02
6.000000000000e-02
7.000000000000e-02
8.000000000000e-02
9.000000000000e-02
1.000000000000e-01
1.100000000000e-01
1.200000000000e-01
1.300000000000e-01
1.400000000000e-01
1.500000000000e-01
1.600000000000e-01
1.700000000000e-01
1.800000000000e-01
1.900000000000e-01
2.000000000000e-01
2.100000000000e-01
2.200000000000e-01
2.300000000000e-01
2.400000000000e-01
2.500000000000e-01
2.600000000000e-01
2.700000000000e-01
2.800000000000e-01
2.900000000000e-01
3.000000000000e-01
3.100000000000e-01
3.200000000000e-01
3.300000000000e-01
3.400000000000e-01
3.500000000000e-01
3.600000000000e-01
3.700000000000e-01
3.800000000000e-01
3.900000000000e-01
4.000000000000e-01
4.100000000000e-01
4.200000000000e-01
4.300000000000e-01
4.400000000000e-01
4.500000000000e-01
4.600000000000e-01
4.700000000000e-01
4.800000000000e-01
4.900000000000e-01
5.000000000000e-01
5.100000000000e-01
5.200000000000e-01
5.300000000000e-01
5.400000000000e-01
5.500000000000e-01
5.600000000000e-01
5.700000000000e-01
5.800000000000e-01
5.900000000000e-01
6.000000000000e-01
6.100000000000e-01
6.200000000000e-01
6.300000000000e-01
6.400000000000e-01
6.500000000000e-01
6.600000000000e-01
6.700000000000e-01
6.800000000000e-01
6.900000000000e-01
7.000000000000e-01
7.100000000000e-01
7.200000000000e-01
7.300000000000e-01
7.400000000000e-01
7.500000000000e-01
7.600000000000e-01
7.700000000000e-01
7.800000000000e-01
7.900000000000e-01
8.000000000000e-01
8.100000000000e-01
8.200000000000e-01
8.300000000000e-01
8.400000000000e-01
8.500000000000e-01
8.600000000000e-01
8.700000000000e-01
8.800000000000e-01
8.900000000000e-01
9.000000000000e-01
9.100000000000e-01
9.200000000000e-01
9.300000000000e-01
9.400000000000e-01
9.500000000000e-01
9.600000000000e-01
9.700000000000e-01
9.800000000000e-01
9.900000000000e-01
1.000000000000e+00
1.010000000000e+00
1.020000000000e+00
1.030000000000e+00
1.040000000000e+00
1.050000000000e+00
1.060000000000e+00
1.070000000000e+00
1.080000000000e+00
1.090000000000e+00
1.100000000000e+00
1.110000000000e+00
1.120000000000e+00
1.130000000000e+00
1.140000000000e+00
1.150000000000e+00
1.160000000000e+00
1.170000000000e+00
1.180000000000e+00
1.190000000000e+00
1.200000000000e+00
1.210000000000e+00
1.220000000000e+00
1.230000000000e+00
1.240000000000e+00
1.250000000000e+00
1.260000000000e+00
1.270000000000e+00
1.280000000000e+00
1.290000000000e+00
1.300000000000e+00
1.310000000000e+00
1.320000000000e+00
1.330000000000e+00
1.340000000000e+00
1.350000000000e+00
1.360000000000e+00
1.370000000000e+00
1.380000000000e+00
1.390000000000e+00
1.400000000000e+00
1.410000000000e+00
1.420000000000e+00
1.430000000000e+00
1.440000000000e+00
1.450000000000e+00
1.460000000000e+00
1.470000000000e+00
1.480000000000e+00
1.490000000000e+00
1.500000000000e+00
1.510000000000e+00
1.520000000000e+00
1.530000000000e+00
1.540000000000e+00
1.550000000000e+00
1.560000000000e+00
1.570000000000e+00
1.580000000000e+00
1.590000000000e+00
1.600000000000e+00
1.610000000000e+00
1.620000000000e+00
1.630000000000e+00
1.640000000000e+00
1.650000000000e+00
1.660000000000e+00
1.670000000000e+00
1.680000000000e+00
1.690000000000e+00
1.700000000000e+00
1.710000000000e+00
1.720000000000e+00
1.730000000000e+00
1.740000000000e+00
1.750000000000e+00
1.760000000000e+00
1.770000000000e+00
1.780000000000e+00
1.790000000000e+00
1.800000000000e+00
1.810000000000e+00
1.820000000000e+00
1.830000000000e+00
1.840000000000e+00
1.850000000000e+00
1.860000000000e+00
1.870000000000e+00
1.880000000000e+00
1.890000000000e+00
1.900000000000e+00
1.910000000000e+00
1.920000000000e+00
1.930000000000e+00
1.940000000000e+00
1.950000000000e+00
1.960000000000e+00
1.970000000000e+00
1.980000000000e+00
1.990000000000e+00
2.000000000000e+00
2.010000000000e+00
2.020000000000e+00
2.030000000000e+00
2.040000000000e+00
2.050000000000e+00
2.060000000000e+00
2.070000000000e+00
2.080000000000e+00
2.090000000000e+00
2.100000000000e+00
2.110000000000e+00
2.120000000000e+00
2.130000000000e+00
2.140000000000e+00
2.150000000000e+00
2.160000000000e+00
2.170000000000e+00
2.180000000000e+00
2.190000000000e+00
2.200000000000e+00
2.210000000000e+00
2.220000000000e+00
2.230000000000e+00
2.240000000000e+00
2.250000000000e+00
2.260000000000e+00
2.270000000000e+00
2.280000000000e+00
2.290000000000e+00
2.300000000000e+00
2.310000000000e+00
2.320000000000e+00
2.330000000000e+00
2.340000000000e+00
2.350000000000e+00
2.360000000000e+00
2.370000000000e+00
2.380000000000e+00
2.390000000000e+00
2.400000000000e+00
2.410000000000e+00
2.420000000000e+00
2.430000000000e+00
2.440000000000e+00
2.450000000000e+00
2.460000000000e+00
2.470000000000e+00
2.480000000000e+00
2.490000000000e+00
2.500000000000e+00
2.510000000000e+00
2.520000000000e+00
2.530000000000e+00
2.540000000000e+00
2.550000000000e+00
2.560000000000e+00
2.570000000000e+00
2.580000000000e+00
2.590000000000e+00
2.600000000000e+00
2.610000000000e+00
2.620000000000e+00
2.630000000000e+00
2.640000000000e+00
2.650000000000e+00
2.660000000000e+00
2.670000000000e+00
2.680000000000e+00
2.690000000000e+00
2.700000000000e+00
2.710000000000e+00
2.720000000000e+00
2.730000000000e+00
2.740000000000e+00
2.750000000000e+00
2.760000000000e+00
2.770000000000e+00
2.780000000000e+00
2.790000000000e+00
2.800000000000e+00
2.810000000000e+00
2.820000000000e+00
2.830000000000e+00
2.840000000000e+00
2.850000000000e+00
2.860000000000e+00
2.870000000000e+00
2.880000000000e+00
2.890000000000e+00
2.900000000000e+00
2.910000000000e+00
2.920000000000e+00
2.930000000000e+00
2.940000000000e+00
2.950000000000e+00
2.960000000000e+00
2.970000000000e+00
2.980000000000e+00
2.990000000000e+00
3.000000000000e+00
</indep>
<dep sw1.i(vids) sw1.v(v-sweep)>
3.339589097370e-08
4.193237370269e-08
5.343813397052e-08
6.888973184420e-08
8.958887425592e-08
1.172707460247e-07
1.542484710329e-07
2.036057354095e-07
2.694535844875e-07
3.572726765578e-07
4.743692379183e-07
6.304821194096e-07
8.385903297454e-07
1.115985963649e-06
1.485697400447e-06
1.978372888756e-06
2.634765856588e-06
3.509000648802e-06
4.672839792173e-06
6.221217693238e-06
8.279342614768e-06
1.101168262559e-05
1.463311306498e-05
1.942236558074e-05
2.573761161193e-05
3.403344510377e-05
4.487760948061e-05
5.896451190855e-05
7.712103196158e-05
1.002988597428e-04
1.295475683273e-04
1.659651516225e-04
2.106287642642e-04
2.645170953191e-04
3.284436544896e-04
4.030219030870e-04
4.886751352807e-04
5.856886226258e-04
6.942866545012e-04
8.147106676504e-04
9.472787846950e-04
1.092417486730e-03
1.250666462022e-03
1.422663869156e-03
1.609120821936e-03
1.810792457684e-03
2.028450411128e-03
2.262859152111e-03
2.514756968399e-03
2.784841407531e-03
3.073758555043e-03
3.382095415454e-03
3.710374717852e-03
4.059051588127e-03
4.428511659502e-03
4.819070306633e-03
5.230972777812e-03
5.664395064934e-03
6.119445395481e-03
6.596166259357e-03
7.094536900344e-03
7.614476210775e-03
8.155845971733e-03
8.718454381769e-03
9.302059816568e-03
9.906374761261e-03
1.052093795686e-02
1.116583560118e-02
1.183036169919e-02
1.251408392390e-02
1.321654438923e-02
1.393726349873e-02
1.467574362486e-02
1.543147259318e-02
1.620392695287e-02
1.699257502150e-02
1.779687969806e-02
1.861630104276e-02
1.945029862641e-02
2.029833365504e-02
2.115987087783e-02
2.203438028756e-02
2.292133862427e-02
2.382023069297e-02
2.473055050658e-02
2.565180226557e-02
2.658350118551e-02
2.752517418356e-02
2.847636043494e-02
2.943661181007e-02
3.040549320268e-02
3.138258275913e-02
3.236747201849e-02
3.335976597284e-02
3.435908305661e-02
3.536505507324e-02
3.637732706726e-02
3.739555714899e-02
3.841941627867e-02
3.944858801647e-02
4.048276824393e-02
4.152166486222e-02
4.256499747177e-02
4.361249703770e-02
4.466390554462e-02
4.571897564428e-02
4.677747029890e-02
4.783916242284e-02
4.890383452473e-02
4.997127835200e-02
5.104129453945e-02
5.211369226318e-02
5.318828890108e-02
5.426490970067e-02
5.534338745528e-02
5.642356218883e-02
5.750528085001e-02
5.858839701588e-02
5.967277060533e-02
6.075826760240e-02
6.184475978951e-02
6.293212449073e-02
6.402024432474e-02
6.510900696770e-02
6.619830492552e-02
6.728803531564e-02
6.837809965783e-02
6.946840367406e-02
7.055885709686e-02
7.164937348621e-02
7.273987005445e-02
7.383026749906e-02
7.492048984299e-02
7.601046428226e-02
7.710012104052e-02
7.818939323033e-02
7.927821672091e-02
8.036653001197e-02
8.145427411354e-02
8.254139243133e-02
8.362783065763e-02
8.471353666721e-02
8.579846041827e-02
8.688255385802e-02
8.796577083276e-02
8.904806700224e-02
9.012939975808e-02
9.120972814611e-02
9.228901279233e-02
9.336721583248e-02
9.444430084493e-02
9.552023278672e-02
9.659497793275e-02
9.766850381770e-02
9.874077918089e-02
9.981177391360e-02
1.008814590090e-01
1.019498065142e-01
1.030167894852e-01
1.040823819431e-01
1.051465588329e-01
1.062092959842e-01
1.072705700738e-01
1.083303585897e-01
1.093886397971e-01
1.104453927058e-01
1.115005970395e-01
1.125542332061e-01
1.136062822692e-01
1.146567259219e-01
1.157055464604e-01
1.167527267603e-01
1.177982502525e-01
1.188421009017e-01
1.198842631846e-01
1.209247220698e-01
1.219634629986e-01
1.230004718662e-01
1.240357350046e-01
1.250692391650e-01
1.261009715024e-01
1.271309195601e-01
1.281590712546e-01
1.291854148621e-01
1.302099390050e-01
1.312326326390e-01
1.322534850408e-01
1.332724857967e-01
1.342896247912e-01
1.353048921966e-01
1.363182784624e-01
1.373297743058e-01
1.383393707026e-01
1.393470588777e-01
1.403528302973e-01
1.413566766599e-01
1.423585898894e-01
1.433585621269e-01
1.443565857241e-01
1.453526532359e-01
1.463467574146e-01
1.473388912028e-01
1.483290477282e-01
1.493172202974e-01
1.503034023903e-01
1.512875876554e-01
1.522697699043e-01
1.532499431069e-01
1.542281013870e-01
1.552042390179e-01
1.561783504177e-01
1.571504301459e-01
1.581204728990e-01
1.590884735070e-01
1.600544269300e-01
1.610183282542e-01
1.619801726892e-01
1.629399555646e-01
1.638976723271e-01
1.648533185374e-01
1.658068898677e-01
1.667583820986e-01
1.677077911172e-01
1.686551129141e-01
1.696003435812e-01
1.705434793095e-01
1.714845163870e-01
1.724234511965e-01
1.733602802135e-01
1.742950000046e-01
1.752276072254e-01
1.761580986187e-01
1.770864710130e-01
1.780127213209e-01
1.789368465372e-01
1.798588437376e-01
1.807787100773e-01
1.816964427896e-01
1.826120391843e-01
1.835254966468e-01
1.844368126366e-01
1.853459846860e-01
1.862530103993e-01
1.871578874515e-01
1.880606135871e-01
1.889611866191e-01
1.898596044284e-01
1.907558649623e-01
1.916499662338e-01
1.925419063209e-01
1.934316833653e-01
1.943192955720e-01
1.952047412082e-01
1.960880186028e-01
1.969691261452e-01
1.978480622851e-01
1.987248255315e-01
1.995994144519e-01
2.004718276721e-01
2.013420638750e-01
2.022101218003e-01
2.030760002441e-01
2.039396980576e-01
2.048012141474e-01
2.056605474744e-01
2.065176970533e-01
2.073726619524e-01
2.082254412926e-01
2.090760342476e-01
2.099244400425e-01
2.107706579543e-01
2.116146873106e-01
2.124565274899e-01
2.132961779206e-01
2.141336380806e-01
2.149689074975e-01
2.158019857474e-01
2.166328724550e-01
2.174615672930e-01
2.182880699819e-01
2.191123802894e-01
2.199344980301e-01
2.207544230654e-01
2.215721553027e-01
2.223876946955e-01
2.232010412427e-01
2.240121949880e-01
2.248211560207e-01
2.256279244741e-01
2.264325005260e-01
2.272348843980e-01
2.280350763553e-01
2.288330767065e-01
2.296288858028e-01
2.304225040384e-01
2.312139318498e-01
2.320031697155e-01
2.327902181558e-01
2.335750777325e-01
2.343577490484e-01
2.351382327475e-01
</dep>
<dep sw1.i(gm) sw1.v(v-sweep)>
-7.051843959558e-07
-1.002112149841e-06
-1.347867907076e-06
-1.807537014270e-06
-2.419050709027e-06
-3.232979838849e-06
-4.316749469239e-06
-5.760255672729e-06
-7.683347057412e-06
-1.024578267154e-05
-1.366047214259e-05
-1.821105459136e-05
-2.427519221196e-05
-3.235535353510e-05
-4.311934625536e-05
-5.745342280704e-05
-7.653138800232e-05
-1.019036967793e-04
-1.356108522218e-04
-1.803251411297e-04
-2.395232466178e-04
-3.176885225107e-04
-4.205341477572e-04
-5.552249273474e-04
-7.305539761514e-04
-9.569998934341e-04
-1.246553340239e-03
-1.612171124049e-03
-2.066717391715e-03
-2.621326818285e-03
-3.283314593984e-03
-4.054059796848e-03
-4.927597184828e-03
-5.890744511266e-03
-6.925240388394e-03
-8.011574039558e-03
-9.133335976941e-03
-1.028057596102e-02
-1.145110225123e-02
-1.264960650969e-02
-1.388534095400e-02
-1.516938386633e-02
-1.651231912130e-02
-1.792271799571e-02
-1.940642942638e-02
-2.096647945962e-02
-2.260333472136e-02
-2.431532786353e-02
-2.609911277101e-02
-2.795007933220e-02
-2.986270039611e-02
-3.183080814047e-02
-3.384780863367e-02
-3.590684708248e-02
-3.800093592530e-02
-4.012305591551e-02
-4.226623791507e-02
-4.442363088345e-02
-4.658855972114e-02
-4.875457524313e-02
-5.091549757091e-02
-5.306545356949e-02
-5.519890854966e-02
-5.731069224171e-02
-5.939601897464e-02
-6.094390701447e-02
-6.297304199611e-02
-6.547118711671e-02
-6.741241613608e-02
-6.930913450217e-02
-7.115897874127e-02
-7.295996178126e-02
-7.471045472272e-02
-7.640916640033e-02
-7.805512141553e-02
-7.964763725955e-02
-8.118630106321e-02
-8.267094641740e-02
-8.410163061417e-02
-8.547861257118e-02
-8.680233162567e-02
-8.807338732228e-02
-8.929252027081e-02
-9.046059411511e-02
-9.157857862994e-02
-9.264753394687e-02
-9.366859589951e-02
-9.464296247150e-02
-9.557188132547e-02
-9.645663838698e-02
-9.729854745290e-02
-9.809894079010e-02
-9.885916068564e-02
-9.958055190607e-02
-1.002644550197e-01
-1.009122005328e-01
-1.015251037876e-01
-1.021044605703e-01
-1.026515433739e-01
-1.031675982631e-01
-1.036538422875e-01
-1.041114613919e-01
-1.045416087742e-01
-1.049454036426e-01
-1.053239303289e-01
-1.056782377138e-01
-1.060093389282e-01
-1.063182112916e-01
-1.066057964580e-01
-1.068730007358e-01
-1.071206955591e-01
-1.073497180814e-01
-1.075608718746e-01
-1.077549277101e-01
-1.079326244078e-01
-1.080946697365e-01
-1.082417413525e-01
-1.083744877663e-01
-1.084935293260e-01
-1.085994592090e-01
-1.086928444164e-01
-1.087742267614e-01
-1.088441238487e-01
-1.089030300391e-01
-1.089514173968e-01
-1.089897366153e-01
-1.090184179210e-01
-1.090378719515e-01
-1.090484906077e-01
-1.090506478795e-01
-1.090447006425e-01
-1.090309894271e-01
-1.090098391601e-01
-1.089815598762e-01
-1.089464474035e-01
-1.089047840196e-01
-1.088568390821e-01
-1.088028696314e-01
-1.087431209680e-01
-1.086778272046e-01
-1.086072117937e-01
-1.085314880319e-01
-1.084508595404e-01
-1.083655207244e-01
-1.082756572110e-01
-1.081814462664e-01
-1.080830571937e-01
-1.079806517122e-01
-1.078743843185e-01
-1.077644026299e-01
-1.076508477122e-01
-1.075338543911e-01
-1.074135515490e-01
-1.072900624073e-01
-1.071635047947e-01
-1.070339914030e-01
-1.069016300305e-01
-1.067665238129e-01
-1.066287714434e-01
-1.064884673825e-01
-1.063457020567e-01
-1.062005620481e-01
-1.060531302745e-01
-1.059034861613e-01
-1.057517058041e-01
-1.055978621238e-01
-1.054420250149e-01
-1.052842614852e-01
-1.051246357902e-01
-1.049632095596e-01
-1.048000419188e-01
-1.046351896040e-01
-1.044687070717e-01
-1.043006466033e-01
-1.041310584046e-01
-1.039599906998e-01
-1.037874898223e-01
-1.036136003001e-01
-1.034383649376e-01
-1.032618248933e-01
-1.030840197543e-01
-1.029049876063e-01
-1.027247651016e-01
-1.025433875228e-01
-1.023608888437e-01
-1.021773017883e-01
-1.019926578856e-01
-1.018069875227e-01
-1.016203199955e-01
-1.014326835566e-01
-1.012441054613e-01
-1.010546120112e-01
-1.008642285962e-01
-1.006729797342e-01
-1.004808891091e-01
-1.002879796070e-01
-1.000942733508e-01
-9.989979173350e-02
-9.970455544938e-02
-9.950858452424e-02
-9.931189834411e-02
-9.911451568252e-02
-9.891645472709e-02
-9.871773310442e-02
-9.851836790359e-02
-9.831837569939e-02
-9.811777257390e-02
-9.791657413743e-02
-9.771479554838e-02
-9.751245153224e-02
-9.730955639973e-02
-9.710612406425e-02
-9.690216805837e-02
-9.669770154967e-02
-9.649273735609e-02
-9.628728796021e-02
-9.608136552308e-02
-9.587498189764e-02
-9.566814864133e-02
-9.546087702805e-02
-9.525317805988e-02
-9.504506247810e-02
-9.483654077374e-02
-9.462762319781e-02
-9.441831977081e-02
-9.420864029212e-02
-9.399859434880e-02
-9.378819132403e-02
-9.357744040527e-02
-9.336635059197e-02
-9.315493070295e-02
-9.294318938357e-02
-9.273113511231e-02
-9.251877620753e-02
-9.230612083348e-02
-9.209317700619e-02
-9.187995259932e-02
-9.166645534947e-02
-9.145269286127e-02
-9.123867261254e-02
-9.102440195895e-02
-9.080988813848e-02
-9.059513827580e-02
-9.038015938650e-02
-9.016495838098e-02
-8.994954206815e-02
-8.973391715927e-02
-8.951809027122e-02
-8.930206792991e-02
-8.908585657340e-02
-8.886946255491e-02
-8.865289214581e-02
-8.843615153827e-02
-8.821924684793e-02
-8.800218411641e-02
-8.778496931379e-02
-8.756760834079e-02
-8.735010703110e-02
-8.713247115327e-02
-8.691470641298e-02
-8.669681845480e-02
-8.647881286393e-02
-8.626069516806e-02
-8.604247083905e-02
-8.582414529448e-02
-8.560572389908e-02
-8.538721196621e-02
-8.516861475931e-02
-8.494993749322e-02
-8.473118533516e-02
-8.451236340632e-02
-8.429347678262e-02
-8.407453049603e-02
-8.385552953551e-02
-8.363647884798e-02
-8.341738333924e-02
-8.319824787488e-02
-8.297907728108e-02
-8.275987634549e-02
-8.254064981788e-02
-8.232140241095e-02
-8.210213880098e-02
-8.188286362858e-02
-8.166358150495e-02
-8.144429699816e-02
-8.122501462656e-02
-8.100573890041e-02
-8.078647430246e-02
-8.056722526586e-02
-8.034799619613e-02
-8.012879146726e-02
-7.990961542195e-02
-7.969047237191e-02
-7.947136659843e-02
-7.925230235265e-02
-7.903328385571e-02
-7.881431529924e-02
-7.859540084557e-02
-7.837654462806e-02
-7.815775075120e-02
-7.793898906714e-02
</dep>
