#   Hz   S  RI   R   50
!
0.0 -0.8986105673870677 0.0
75000000.0 -0.8959073934293805 0.07188241866706224
150000000.0 -0.8878333118860678 0.14320835390511058
225000000.0 -0.8744938436931337 0.21343152796370862
300000000.0 -0.8560622127437417 0.28202581254435555
375000000.0 -0.8327754573264688 0.34849465690812176
450000000.0 -0.8049291390315454 0.4123797624162759
525000000.0 -0.7728707953041731 0.4732687883682125
600000000.0 -0.7369923146036934 0.5308019025832629
675000000.0 -0.697721440129557 0.5846770233264804
750000000.0 -0.6555126289059314 0.6346536356370344
825000000.0 -0.6108375075985749 0.6805551037175306
900000000.0 -0.5641751749153168 0.7222694408121149
975000000.0 -0.5160026030615449 0.7597485382033475
1050000000.0 -0.46678538770449185 0.7930058950729866
1125000000.0 -0.4169690873298308 0.8221129306235342
1200000000.0 -0.3669713786352669 0.847193998690088
1275000000.0 -0.31717523437985334 0.8684202626009593
1350000000.0 -0.2679233034466115 0.8860026235077065
1425000000.0 -0.21951363934960894 0.900183927645575
1500000000.0 -0.17219688282028736 0.911230705411446
1575000000.0 -0.1261749566973696 0.9194247157803355
1650000000.0 -0.08160127805702871 0.9250545812222436
1725000000.0 -0.03858243512777022 0.9284077987728644
1800000000.0 0.0028187823138238416 0.9297634004877431
1875000000.0 0.04257916725841243 0.9293855101628388
1950000000.0 0.08070991369474462 0.9275180030149746
2025000000.0 0.11725072909023289 0.9243804223658987
2100000000.0 0.1522635290967194 0.9201652449918133
2175000000.0 0.18582601390624787 0.9150365186000659
2250000000.0 0.21802541955687155 0.90912982561648
2325000000.0 0.2489527139848914 0.9025534621674357
2400000000.0 0.2786974685498556 0.8953906646108996
2475000000.0 0.30734358436193976 0.8877026721770827
2550000000.0 0.3349659932966312 0.8795323859254788
2625000000.0 0.361628390887598 0.870908372497296
2700000000.0 0.38738199710501225 0.8618489656762001
2775000000.0 0.4122652855659957 0.8523662378226079
2850000000.0 0.43630457526780503 0.8424696440285543
2925000000.0 0.45951534361757723 0.8321691809384633
3000000000.0 0.4819040963016098 0.8214779459951017
3075000000.0 0.5034706182627414 0.8104140279929918
3150000000.0 0.5242104297488388 0.7990017033252111
3225000000.0 0.5441172804849794 0.7872719519087203
3300000000.0 0.563185531620284 0.7752623408758961
3375000000.0 0.5814122972445986 0.7630163517827075
3450000000.0 0.5987992430946828 0.750582247907453
3525000000.0 0.615353967910179 0.738011592208756
3600000000.0 0.631090921334397 0.7253575339668089
3675000000.0 0.6460318400957149 0.7126729835072199
3750000000.0 0.6602057104612312 0.7000087902589592
3825000000.0 0.6736482887858035 0.6874120303441981
3900000000.0 0.6864012326619487 0.6749244966105871
3975000000.0 0.6985109120804778 0.6625814672366954
4050000000.0 0.7100269826114638 0.6504108095975413
4125000000.0 0.721000810512287 0.6384324548972448
4200000000.0 0.7314838426360397 0.6266582571800932
4275000000.0 0.7415260120352565 0.6150922288023887
4350000000.0 0.7511742634664775 0.6037311243771888
4425000000.0 0.7604712720966289 0.5925653276225968
4500000000.0 0.769454414338564 0.5815799813420292
4575000000.0 0.7781550328538717 0.5707562906186652
4650000000.0 0.7865980194505288 0.5600729236221503
4725000000.0 0.794801721020884 0.5495074333069756
4800000000.0 0.8027781559260547 0.5390376265283486
4875000000.0 0.8105335123291775 0.5286428142375719
4950000000.0 0.8180688867146729 0.518304886749368
5025000000.0 0.825381210770238 0.508009170753867
5100000000.0 0.8324643082640892 0.49774503886123717
5175000000.0 0.8393100205855137 0.4875062571068037
5250000000.0 0.8459093400757783 0.47729107016678923
5325000000.0 0.8522534938253733 0.46710203731222066
5400000000.0 0.8583349267909309 0.4569456437770824
5475000000.0 0.8641481413504338 0.4468317218061938
5550000000.0 0.8696903601919407 0.43677272289865565
5625000000.0 0.8749619901408154 0.4267828875312953
5700000000.0 0.8799668756179883 0.41687736091007244
5775000000.0 0.8847123413704139 0.407071303133392
5850000000.0 0.8892090344558802 0.3973790397218647
5925000000.0 0.8934705847828902 0.38781329400785336
6000000000.0 0.8975131114462568 0.37838453668045724
6075000000.0 0.9013546083687171 0.3691004801963175
6150000000.0 0.9050142471386221 0.35996573718797525
6225000000.0 0.9085116372849006 0.3509816528587149
6300000000.0 0.9118660845040873 0.34214631209606544
6375000000.0 0.9150958855978354 0.3334547131185052
6450000000.0 0.918217695239593 0.3248990913255525
6525000000.0 0.9212459944079809 0.3164693700416319
6600000000.0 0.9241926837283867 0.3081537093536907
6675000000.0 0.9270668174463381 0.299939120479045
6750000000.0 0.9298744857517378 0.2918121111984748
6825000000.0 0.9326188451316839 0.2837593278751744
6900000000.0 0.935300288785963 0.2757681613685498
6975000000.0 0.9379167422854815 0.2678272875590766
7050000000.0 0.9404640639160752 0.2599271179594326
7125000000.0 0.9429365247720941 0.25206014167003893
7200000000.0 0.9453273407977715 0.24422114638018635
7275000000.0 0.9476292276782512 0.2364073128446014
7350000000.0 0.9498349497265288 0.22861818391751787
7425000000.0 0.9519378355899994 0.2208555154716953
7500000000.0 0.9539322365396274 0.21312302208413478
7575000000.0 0.9558139070865965 0.2054260350049496
7650000000.0 0.9575802924439586 0.19777109347289856
7725000000.0 0.9592307126447235 0.1901654927939487
7800000000.0 0.9607664386684658 0.18261681371119803
7875000000.0 0.9621906614473918 0.175132457475104
7950000000.0 0.9635083598664379 0.16771920973352394
8025000000.0 0.9647260786101282 0.16038285400939067
8100000000.0 0.9658516307412609 0.15312785226874623
8175000000.0 0.9668937430590933 0.14595710608684584
8250000000.0 0.9678616644557225 0.13887180740630364
8325000000.0 0.9687647585939317 0.13187138307930682
8400000000.0 0.9696121022437506 0.12495353253608159
8475000000.0 0.9704121095666784 0.11811435326331504
8550000000.0 0.9711722006061136 0.11134854453580197
8625000000.0 0.9718985293586943 0.10464967622441866
8700000000.0 0.972595783234486 0.09801050667062156
8775000000.0 0.9732670616673698 0.09142333169428317
8850000000.0 0.9739138373344841 0.0848803458589097
8925000000.0 0.9745359991167762 0.0783739971725477
9000000000.0 0.9751319718071059 0.07189731741608575
9075000000.0 0.9756989038545488 0.06544421217488472
9150000000.0 0.976232911299844 0.059009697273124176
9225000000.0 0.9767293636446893 0.05259007150767018
9300000000.0 0.9771831957995597 0.04618301916199261
9375000000.0 0.9775892295165576 0.03978763955228665
9450000000.0 0.9779424878348327 0.03340440461998076
9525000000.0 0.9782384870024677 0.027035049150673267
9600000000.0 0.9784734920088636 0.020682401402473932
9675000000.0 0.9786447241529225 0.014350164626210547
9750000000.0 0.9787505118485191 0.00804266204653581
9825000000.0 0.9787903789777405 0.0017645592708955657
9900000000.0 0.9787650683836991 -0.004479421238240815
9975000000.0 0.9786765013866557 -0.010684779059700096
10050000000.0 0.9785276773533137 -0.016847494286018654
10125000000.0 0.9783225202046495 -0.022964253205614567
10200000000.0 0.9780656811845481 -0.029032630818908074
10275000000.0 0.9777623091239844 -0.0350512222577535
10350000000.0 0.977417800743787 -0.04101971794860162
10425000000.0 0.9770375441932062 -0.04693892031476204
10500000000.0 0.9766266690035825 -0.052810702803164446
10575000000.0 0.9761898149613282 -0.058637914897499976
10650000000.0 0.9757309311196586 -0.06442423940150917
10725000000.0 0.9752531143514479 -0.0701740105170655
10800000000.0 0.9747584945998076 -0.07589200299656604
10875000000.0 0.9742481714324174 -0.08158320383979523
10950000000.0 0.9737222037877113 -0.08725257858454022
11025000000.0 0.9731796520589926 -0.09290484419359252
11100000000.0 0.9726186690373252 -0.09854425988725728
11175000000.0 0.9720366338565849 -0.10417444606038011
11250000000.0 0.971430321068408 -0.10979823973394529
11325000000.0 0.970796095412405 -0.11541759292362089
11400000000.0 0.9701301218029708 -0.12103351797731696
11475000000.0 0.969428579564482 -0.12664608146608097
11550000000.0 0.9686878700186342 -0.1322544457349381
11625000000.0 0.9679048071399889 -0.13785695485559693
11700000000.0 0.9670767821016633 -0.14345125958419694
11775000000.0 0.9662018940636513 -0.14903447411220055
11850000000.0 0.9652790414248187 -0.1546033559860721
11925000000.0 0.9643079698664643 -0.16015449961879652
12000000000.0 0.963289275752616 -0.1656845333576354
12075000000.0 0.96222436570909 -0.17119031011794808
12150000000.0 0.9611153753705343 -0.1766690821289475
12225000000.0 0.959965052259612 -0.18211865132789662
12300000000.0 0.95877660945314 -0.18753748832795233
12375000000.0 0.957553558019275 -0.1929248145970985
12450000000.0 0.9562995271186517 -0.19828064443250573
12525000000.0 0.9550180811125047 -0.20360578539689259
12600000000.0 0.9537125429967559 -0.20890179799609904
12675000000.0 0.9523858329907727 -0.21417091741453867
12750000000.0 0.9510403301842493 -0.21941594198655698
12825000000.0 0.9496777638382623 -0.2246400946758804
12900000000.0 0.9482991393188769 -0.22984686508570684
12975000000.0 0.9469047018005936 -0.23503984037053433
13050000000.0 0.9454939389097344 -0.24022253383101666
13125000000.0 0.9440656214869045 -0.24539821993173508
13200000000.0 0.942617879734641 -0.25056978399911556
13275000000.0 0.9411483102770698 -0.25573959396585066
13350000000.0 0.9396541081774862 -0.26090940028238124
13425000000.0 0.9381322168068059 -0.2660802685855874
13500000000.0 0.9365794876818576 -0.2712525479828246
13575000000.0 0.9349928420281866 -0.27642587596688445
13650000000.0 0.9333694258767935 -0.2815992191185445
13725000000.0 0.931706750966495 -0.2867709469705726
13800000000.0 0.9300028145621497 -0.2919389347867475
13875000000.0 0.9282561924652347 -0.29710068962797936
13950000000.0 0.9264661009239697 -0.3022534929980435
14025000000.0 0.9246324247709174 -0.3073945526310834
14100000000.0 0.922755710844767 -0.31252115563179605
14175000000.0 0.9208371275041007 -0.3176308152184804
14250000000.0 0.9188783927288118 -0.32272140374176395
14325000000.0 0.9168816748479439 -0.327791265432594
14400000000.0 0.9148494712571434 -0.3328393034298944
14475000000.0 0.9127844715317406 -0.337865036994316
14550000000.0 0.9106894120537694 -0.34286862636057447
14625000000.0 0.9085669296202785 -0.34785086433887547
14700000000.0 0.9064194214714871 -0.35281313546246296
14775000000.0 0.9042489187748464 -0.3577573451087727
14850000000.0 0.9020569798478337 -0.36268582251445314
14925000000.0 0.8998446083390255 -0.3676012028853425
15000000000.0 0.8976122002699127 -0.3725062948081145
15075000000.0 0.8953595223381209 -0.37740393985204107
15150000000.0 0.893085722274174 -0.3822968715754417
15225000000.0 0.8907893704116345 -0.3871875811088189
15300000000.0 0.8884685300575372 -0.3920781960814584
15375000000.0 0.8861208528157963 -0.39697037891510956
15450000000.0 0.8837436937915976 -0.4018652494688468
15525000000.0 0.8813342406490434 -0.40676333573953666
15600000000.0 0.8788896498521097 -0.4116645548698774
15675000000.0 0.8764071831185241 -0.416568225165703
15750000000.0 0.8738843371681557 -0.4214731082547277
15825000000.0 0.8713189602450085 -0.4263774790083141
15900000000.0 0.8687093496112457 -0.4312792194702525
15975000000.0 0.8660543252138408 -0.4361759318583278
16050000000.0 0.8633532759574334 -0.4410650647816237
16125000000.0 0.8606061764181627 -0.4459440461920101
16200000000.0 0.857813573332791 -0.4508104162904203
16275000000.0 0.8549765427211631 -0.45566195364986484
16350000000.0 0.8520966199731091 -0.46049678819385714
16425000000.0 0.8491757065811226 -0.4653134953612393
16500000000.0 0.8462159583612535 -0.4701111667612318
16575000000.0 0.8432196609196436 -0.47488945382730097
16650000000.0 0.8401890987457097 -0.4796485823549741
16725000000.0 0.8371264246142576 -0.48438933728831585
16800000000.0 0.8340335359426994 -0.489113018628207
16875000000.0 0.8309119643778546 -0.4938213707969002
16950000000.0 0.8277627841983765 -0.498516489133763
17025000000.0 0.8245865441486434 -0.5032007083486564
17100000000.0 0.8213832261175439 -0.5078764786637016
17175000000.0 0.8181522327024904 -0.5125462359854667
17250000000.0 0.8148924042255528 -0.5172122727372447
17325000000.0 0.8116020642701761 -0.5218766159313013
17400000000.0 0.8082790913599803 -0.5265409186772868
17475000000.0 0.8049210130789496 -0.531206370626255
17550000000.0 0.8015251178015322 -0.5358736318765825
17625000000.0 0.7980885783179634 -0.5405427936689846
17700000000.0 0.7946085810479178 -0.5452133678343356
17775000000.0 0.791082454262602 -0.5498843054992768
17850000000.0 0.7875077887938516 -0.5545540440740184
17925000000.0 0.7838825450943742 -0.5592205801180985
18000000000.0 0.7802051412056853 -0.5638815643738301
18075000000.0 0.7764745171544527 -0.5685344141380079
18150000000.0 0.7726901724858003 -0.5731764372650601
18225000000.0 0.7688521749950104 -0.5778049615022492
18300000000.0 0.7649611401704022 -0.5824174625791351
18375000000.0 0.7610181823386658 -0.5870116845235207
18450000000.0 0.7570248399366846 -0.591585746053064
18525000000.0 0.7529829786498385 -0.5961382275783002
18600000000.0 0.7488946772900446 -0.6006682343165077
18675000000.0 0.7447621021798143 -0.6051754322103373
18750000000.0 0.7405873764151084 -0.6096600547121355
18825000000.0 0.736372450667278 -0.614122879967062
18900000000.0 0.7321189821359447 -0.6185651794318208
18975000000.0 0.7278282278803451 -0.6229886404252017
19050000000.0 0.7235009580534796 -0.6273952664471318
19125000000.0 0.7191373935750219 -0.6317872602552762
19200000000.0 0.7147371715540585 -0.6361668955924125
19275000000.0 0.7102993403726529 -0.6405363840659234
19350000000.0 0.7058223848367392 -0.6448977439602488
19425000000.0 0.7013042802685133 -0.6492526776980837
19500000000.0 0.6967425729325587 -0.653602464258549
19575000000.0 0.69213448283217 -0.6579478721300968
19650000000.0 0.6874770237520924 -0.6622890973588185
19725000000.0 0.6827671345184961 -0.6666257299998406
19800000000.0 0.6780018148427979 -0.6709567508534394
19875000000.0 0.6731782588440919 -0.6752805588395456
19950000000.0 0.6682939794200184 -0.6795950278107881
20025000000.0 0.663346917055291 -0.6838975901024906
20100000000.0 0.6583355274013598 -0.6881853427430658
20175000000.0 0.6532588429945742 -0.692455171068733
20250000000.0 0.6481165057542306 -0.6967038835621215
20325000000.0 0.642908768354898 -0.700928351112551
20400000000.0 0.6376364641290063 -0.7051256436099683
20475000000.0 0.6323009467497074 -0.7092931568521329
20550000000.0 0.6269040024916744 -0.7134287231661331
20625000000.0 0.6214477392913286 -0.7175306999041408
20700000000.0 0.6159344580551702 -0.7215980310359069
20775000000.0 0.6103665126311489 -0.725630278377892
20850000000.0 0.6047461655108444 -0.7296276205084395
20925000000.0 0.599075446631914 -0.7335908190464483
21000000000.0 0.5933560225800696 -0.7375211536366381
21075000000.0 0.5875890830458003 -0.7414203286031718
21150000000.0 0.5817752505904247 -0.7452903557214245
21225000000.0 0.575914518654772 -0.7491334188367509
21300000000.0 0.570006221355379 -0.7529517270603584
21375000000.0 0.5640490370255518 -0.7567473639407015
21450000000.0 0.5580410257514735 -0.7605221403055229
21525000000.0 0.5519796994133274 -0.7642774583753243
21600000000.0 0.545862121057256 -0.7680141942642855
21675000000.0 0.539685028882838 -0.7717326051303203
21750000000.0 0.5334449788127859 -0.7754322660522486
21825000000.0 0.5271384985857895 -0.7791120402560832
21900000000.0 0.520762245634721 -0.7827700846554038
21975000000.0 0.5143131607179794 -0.7864038908944605
22050000000.0 0.5077886093804524 -0.7900103602748878
22125000000.0 0.5011865038308925 -0.7935859091978797
22200000000.0 0.4945053987138123 -0.7971266001510494
22275000000.0 0.4877445554866452 -0.8006282918944565
22350000000.0 0.48090397163051946 -0.8040868014247281
22425000000.0 0.47398437265453985 -0.8074980695776169
22500000000.0 0.46698716671682566 -0.8108583218092882
22575000000.0 0.4599143635901938 -0.814164215798197
22650000000.0 0.4527684615525158 -0.8174129680355912
22725000000.0 0.445552307487323 -0.8206024525060158
22800000000.0 0.438268936950517 -0.8237312658613177
22875000000.0 0.4309214021143183 -0.8267987551052968
22950000000.0 0.4235125962739549 -0.829805005656076
23025000000.0 0.4160450839476378 -0.832750789650772
23100000000.0 0.40852094548833384 -0.8356374764025996
23175000000.0 0.40094164455210995 -0.8384669089098994
23250000000.0 0.39330792575163076 -0.8412412521452157
23325000000.0 0.3856197484080655 -0.8439628204220019
23400000000.0 0.37787626056540197 -0.8466338923596919
23475000000.0 0.3700758154326025 -0.8492565227740245
23550000000.0 0.36221603027036703 -0.8518323611588938
23625000000.0 0.3542938855496207 -0.8543624862724359
23700000000.0 0.3463058600908206 -0.8568472656932878
23775000000.0 0.3382480959575558 -0.859286248098145
23850000000.0 0.33011658522668774 -0.8616780944789577
23925000000.0 0.32190736947957727 -0.8640205526391103
24000000000.0 0.3136167420251391 -0.8663104771730495
24075000000.0 0.3052414425249041 -0.8685438948467873
24150000000.0 0.2967788338677519 -0.8707161129701227
24225000000.0 0.28822705183782577 -0.8728218661008851
24300000000.0 0.2795851193078438 -0.8748554943605352
24375000000.0 0.27085301832240516 -0.8768111448752296
24450000000.0 0.2620317154403564 -0.8786829864806638
24525000000.0 0.2531231379909551 -0.8804654269200656
24600000000.0 0.24413010135877639 -0.8821533213791467
24675000000.0 0.23505618992911137 -0.8837421613728242
24750000000.0 0.22590559677447772 -0.8852282337330972
24825000000.0 0.21668292941843031 -0.8866087407252424
24900000000.0 0.20739299095499633 -0.8878818740922458
24975000000.0 0.19804054732159382 -0.8890468380201708
25050000000.0 0.18863009252874807 -0.8901038185306703
25125000000.0 0.17916562407276654 -0.8910538995210545
25200000000.0 0.1696504405572727 -0.8918989284521935
25275000000.0 0.16008697271717315 -0.8926413373867211
25350000000.0 0.15047665759900206 -0.8932839275594473
25425000000.0 0.14081986366285848 -0.8938296277818945
25500000000.0 0.13111587212310102 -0.8942812386207842
25575000000.0 0.12136291705485976 -0.8946411753472897
25650000000.0 0.11155828380000343 -0.8949112230590957
25725000000.0 0.10169846216178659 -0.8950923170944752
25800000000.0 0.09177934794078621 -0.8951843608856392
25875000000.0 0.08179648369061669 -0.8951860917736032
25950000000.0 0.07174532730448266 -0.8950950030990015
26025000000.0 0.06162153530738537 -0.8949073281944423
26100000000.0 0.051421246622874936 -0.894618088860934
26175000000.0 0.04114135217729454 -0.8942212076605393
26250000000.0 0.030779736032936624 -0.8937096800579085
26325000000.0 0.020335474806237614 -0.8930757992588589
26400000000.0 0.00980898389191225 -0.8923114236847276
26475000000.0 -0.0007978985888181909 -0.8914082745392475
26550000000.0 -0.011481896269396708 -0.8903582490041511
26625000000.0 -0.022238350270246832 -0.8891537333537436
26700000000.0 -0.033061345421525216 -0.8877878997915972
26775000000.0 -0.043943902552084003 -0.8862549711353066
26850000000.0 -0.05487822885724828 -0.8845504386225452
26925000000.0 -0.06585601507991042 -0.8826712200571816
27000000000.0 -0.07686876542591982 -0.880615748190945
27075000000.0 -0.08790814395049848 -0.878383982535618
27150000000.0 -0.09896631973771142 -0.8759773415764386
27225000000.0 -0.11003629265644688 -0.8733985564302165
27300000000.0 -0.12111218187792812 -0.8706514511569239
27375000000.0 -0.13218946069748366 -0.8677406589722274
27450000000.0 -0.14326512348033021 -0.8646712872985234
27525000000.0 -0.15433777365797458 -0.8614485477217606
27600000000.0 -0.1654076254994228 -0.8580773693028498
27675000000.0 -0.17647641668666605 -0.8545620151728391
27750000000.0 -0.18754723332129306 -0.8509057228143286
27825000000.0 -0.19862425364044414 -0.8471103878436542
27900000000.0 -0.20971242118064973 -0.8431763094631888
27975000000.0 -0.22081706215791946 -0.8391020131105001
28050000000.0 -0.23194346521159123 -0.8348841623055695
28125000000.0 -0.2430964441993768 -0.8305175674490545
28200000000.0 -0.2542799062820542 -0.8259952945539241
28275000000.0 -0.2654964479975432 -0.8213088718263393
28350000000.0 -0.276747001344304 -0.8164485868951921
