<Qucs Dataset 25.1.1>
<indep time 505>
0.000000000000e+00
1.000000000000e-11
2.000000000000e-11
4.000000000000e-11
8.000000000000e-11
1.600000000000e-10
3.200000000000e-10
6.400000000000e-10
1.000000000000e-09
1.064000000000e-09
1.192000000000e-09
1.448000000000e-09
1.960000000000e-09
2.984000000000e-09
5.032000000000e-09
9.128000000000e-09
1.732000000000e-08
3.370400000000e-08
6.647200000000e-08
1.320080000000e-07
2.630800000000e-07
5.252240000000e-07
1.049512000000e-06
2.098088000000e-06
4.195240000000e-06
8.389544000000e-06
1.677815200000e-05
3.355536800000e-05
6.710980000000e-05
1.173611000000e-04
1.676124000000e-04
2.178637000000e-04
2.681150000000e-04
3.183663000000e-04
3.686176000000e-04
4.188689000000e-04
4.691202000000e-04
5.000010000000e-04
5.000011000000e-04
5.000013000000e-04
5.000017000000e-04
5.000020000000e-04
5.000020750067e-04
5.000022250202e-04
5.000025250471e-04
5.000031251010e-04
5.000043252088e-04
5.000067254243e-04
5.000115258552e-04
5.000211267172e-04
5.000403284412e-04
5.000787318891e-04
5.001555387849e-04
5.003091525765e-04
5.006163801597e-04
5.012308353260e-04
5.024597456588e-04
5.049175663244e-04
5.098332076555e-04
5.196644903177e-04
5.393270556421e-04
5.786521862909e-04
6.289034862909e-04
6.791547862909e-04
7.294060862909e-04
7.796573862909e-04
8.299086862909e-04
8.801599862909e-04
9.304112862909e-04
9.806625862909e-04
1.000002000000e-03
1.000002100000e-03
1.000002300000e-03
1.000002700000e-03
1.000003000000e-03
1.000003075144e-03
1.000003225431e-03
1.000003526007e-03
1.000004127157e-03
1.000005329459e-03
1.000007734061e-03
1.000012543266e-03
1.000022161675e-03
1.000041398494e-03
1.000079872131e-03
1.000156819406e-03
1.000310713955e-03
1.000618503055e-03
1.001234081253e-03
1.002465237650e-03
1.004927550444e-03
1.009852176032e-03
1.019701427207e-03
1.039399929558e-03
1.078796934260e-03
1.129048234260e-03
1.179299534260e-03
1.229550834260e-03
1.279802134260e-03
1.330053434260e-03
1.380304734260e-03
1.430556034260e-03
1.480807334260e-03
1.500003000000e-03
1.500003100000e-03
1.500003300000e-03
1.500003700000e-03
1.500004000000e-03
1.500004075393e-03
1.500004226179e-03
1.500004527752e-03
1.500005130897e-03
1.500006337187e-03
1.500008749768e-03
1.500013574929e-03
1.500023225251e-03
1.500042525895e-03
1.500081127183e-03
1.500158329759e-03
1.500312734912e-03
1.500621545217e-03
1.501239165826e-03
1.502474407046e-03
1.504944889485e-03
1.509885854363e-03
1.519767784119e-03
1.539531643631e-03
1.579059362655e-03
1.629310662655e-03
1.679561962655e-03
1.729813262655e-03
1.780064562655e-03
1.830315862655e-03
1.880567162655e-03
1.930818462655e-03
1.981069762655e-03
2.000004000000e-03
2.000004100000e-03
2.000004300000e-03
2.000004700000e-03
2.000005000000e-03
2.000005074550e-03
2.000005223650e-03
2.000005521850e-03
2.000006118249e-03
2.000007311049e-03
2.000009696648e-03
2.000014467846e-03
2.000024010241e-03
2.000043095033e-03
2.000081264616e-03
2.000157603782e-03
2.000310282113e-03
2.000615638776e-03
2.001226352102e-03
2.002447778754e-03
2.004890632058e-03
2.009776338666e-03
2.019547751883e-03
2.039090578315e-03
2.078176231180e-03
2.128427531180e-03
2.178678831180e-03
2.228930131180e-03
2.279181431180e-03
2.329432731180e-03
2.379684031180e-03
2.429935331180e-03
2.480186631180e-03
2.500005000000e-03
2.505030130000e-03
2.515080390000e-03
2.530536799656e-03
2.532828360741e-03
2.537411482911e-03
2.546577727251e-03
2.564910215932e-03
2.601575193292e-03
2.651826493292e-03
2.702077793292e-03
2.752329093292e-03
2.802580393292e-03
2.852831693292e-03
2.903082993292e-03
2.953334293292e-03
3.000006000000e-03
3.000006100000e-03
3.000006300000e-03
3.000006700000e-03
3.000007000000e-03
3.000007075494e-03
3.000007226483e-03
3.000007528461e-03
3.000008132417e-03
3.000009340329e-03
3.000011756152e-03
3.000016587798e-03
3.000026251090e-03
3.000045577675e-03
3.000084230845e-03
3.000161537185e-03
3.000316149864e-03
3.000625375222e-03
3.001243825939e-03
3.002480727372e-03
3.004954530239e-03
3.009902135972e-03
3.019797347439e-03
3.039587770372e-03
3.079168616238e-03
3.129419916238e-03
3.179671216238e-03
3.229922516238e-03
3.280173816238e-03
3.330425116238e-03
3.380676416238e-03
3.430927716238e-03
3.481179016238e-03
3.500007000000e-03
3.505032130000e-03
3.515082390000e-03
3.530205282604e-03
3.548443050351e-03
3.584918585845e-03
3.635169885845e-03
3.685421185845e-03
3.735672485845e-03
3.785923785845e-03
3.836175085845e-03
3.886426385845e-03
3.936677685845e-03
3.986928985845e-03
4.000008000000e-03
4.000008100000e-03
4.000008300000e-03
4.000008700000e-03
4.000009000000e-03
4.000009075065e-03
4.000009225194e-03
4.000009525452e-03
4.000010125970e-03
4.000011327004e-03
4.000013729072e-03
4.000018533209e-03
4.000028141482e-03
4.000047358029e-03
4.000085791123e-03
4.000162657311e-03
4.000316389686e-03
4.000623854436e-03
4.001238783938e-03
4.002468642940e-03
4.004928360944e-03
4.009847796953e-03
4.019686668971e-03
4.039364413007e-03
4.078719901079e-03
4.128971201079e-03
4.179222501079e-03
4.229473801079e-03
4.279725101079e-03
4.329976401079e-03
4.380227701079e-03
4.430479001079e-03
4.480730301079e-03
4.500009000000e-03
4.505034130000e-03
4.515084390000e-03
4.530356601936e-03
4.532641225921e-03
4.537210473891e-03
4.546348969830e-03
4.564625961708e-03
4.601179945465e-03
4.651431245465e-03
4.701682545465e-03
4.751933845465e-03
4.802185145465e-03
4.852436445465e-03
4.902687745465e-03
4.952939045465e-03
5.000010000000e-03
5.000010100000e-03
5.000010300000e-03
5.000010700000e-03
5.000011000000e-03
5.000011075494e-03
5.000011226483e-03
5.000011528461e-03
5.000012132417e-03
5.000013340329e-03
5.000015756152e-03
5.000020587798e-03
5.000030251090e-03
5.000049577675e-03
5.000088230845e-03
5.000165537184e-03
5.000320149863e-03
5.000629375221e-03
5.001247825936e-03
5.002484727367e-03
5.004958530229e-03
5.009906135952e-03
5.019801347398e-03
5.039591770290e-03
5.079172616074e-03
5.129423916074e-03
5.179675216074e-03
5.229926516074e-03
5.280177816074e-03
5.330429116074e-03
5.380680416074e-03
5.430931716074e-03
5.481183016074e-03
5.500011000000e-03
5.505036130000e-03
5.515086390000e-03
5.530209282657e-03
5.548447050416e-03
5.584922585934e-03
5.635173885934e-03
5.685425185934e-03
5.735676485934e-03
5.785927785934e-03
5.836179085934e-03
5.886430385934e-03
5.936681685934e-03
5.986932985934e-03
6.000012000000e-03
6.003903740751e-03
6.011687222252e-03
6.022195236390e-03
6.034514285969e-03
6.059152385126e-03
6.108428583441e-03
6.158679883441e-03
6.208931183441e-03
6.259182483441e-03
6.309433783441e-03
6.359685083441e-03
6.409936383441e-03
6.460187683441e-03
6.500013000000e-03
6.500641141250e-03
6.501897423750e-03
6.503531991942e-03
6.505344969802e-03
6.508970925524e-03
6.516222836968e-03
6.530726659855e-03
6.559734305629e-03
6.609985605629e-03
6.660236905629e-03
6.710488205629e-03
6.760739505629e-03
6.810990805629e-03
6.861242105629e-03
6.911493405629e-03
6.961744705629e-03
7.000014000000e-03
7.000014100000e-03
7.000014300000e-03
7.000014700000e-03
7.000015000000e-03
7.000015075150e-03
7.000015225449e-03
7.000015526049e-03
7.000016127247e-03
7.000017329643e-03
7.000019734437e-03
7.000024544023e-03
7.000034163195e-03
7.000053401541e-03
7.000091878231e-03
7.000168831612e-03
7.000322738374e-03
7.000630551897e-03
7.001246178944e-03
7.002477433037e-03
7.004939941224e-03
7.009864957597e-03
7.019714990344e-03
7.039415055838e-03
7.078815186825e-03
7.129066486825e-03
7.179317786825e-03
7.229569086825e-03
7.279820386825e-03
7.330071686825e-03
7.380322986825e-03
7.430574286825e-03
7.480825586825e-03
7.500015000000e-03
7.505040130000e-03
7.515090390000e-03
7.530331807153e-03
7.532615253338e-03
7.537182145710e-03
7.546315930452e-03
7.564583499937e-03
7.601118638907e-03
7.651369938907e-03
7.701621238907e-03
7.751872538907e-03
7.802123838907e-03
7.852375138907e-03
7.902626438907e-03
7.952877738907e-03
8.000016000000e-03
8.000016100000e-03
8.000016300000e-03
8.000016700000e-03
8.000017000000e-03
8.000017075494e-03
8.000017226483e-03
8.000017528461e-03
8.000018132417e-03
8.000019340329e-03
8.000021756152e-03
8.000026587798e-03
8.000036251090e-03
8.000055577675e-03
8.000094230845e-03
8.000171537184e-03
8.000326149863e-03
8.000635375220e-03
8.001253825935e-03
8.002490727365e-03
8.004964530224e-03
8.009912135943e-03
8.019807347381e-03
8.039597770256e-03
8.079178616007e-03
8.129429916007e-03
8.179681216007e-03
8.229932516007e-03
8.280183816007e-03
8.330435116007e-03
8.380686416007e-03
8.430937716007e-03
8.481189016007e-03
8.500017000000e-03
8.505042130000e-03
8.515092390000e-03
8.530215282680e-03
8.548453050445e-03
8.584928585977e-03
8.635179885977e-03
8.685431185977e-03
8.735682485977e-03
8.785933785977e-03
8.836185085977e-03
8.886436385977e-03
8.936687685977e-03
8.986938985977e-03
9.000018000000e-03
9.000018100000e-03
9.000018300000e-03
9.000018700000e-03
9.000019000000e-03
9.000019075065e-03
9.000019225194e-03
9.000019525452e-03
9.000020125970e-03
9.000021327004e-03
9.000023729072e-03
9.000028533209e-03
9.000038141482e-03
9.000057358029e-03
9.000095791123e-03
9.000172657311e-03
9.000326389686e-03
9.000633854436e-03
9.001248783937e-03
9.002478642938e-03
9.004938360940e-03
9.009857796945e-03
9.019696668955e-03
9.039374412975e-03
9.078729901014e-03
9.128981201014e-03
9.179232501014e-03
9.229483801014e-03
9.279735101014e-03
9.329986401014e-03
9.380237701014e-03
9.430489001014e-03
9.480740301014e-03
9.500019000000e-03
9.505044130000e-03
9.515094390000e-03
9.530366601959e-03
9.532651225944e-03
9.537220473916e-03
9.546358969858e-03
9.564635961743e-03
9.601189945514e-03
9.651441245514e-03
9.701692545514e-03
9.751943845514e-03
9.802195145514e-03
9.852446445514e-03
9.902697745514e-03
9.952949045514e-03
1.000000000000e-02
</indep>
<dep tran.v(vin) time>
0.000000000000e+00
1.200000000000e-02
2.400000000000e-02
4.800000000000e-02
9.600000000000e-02
1.920000000000e-01
3.840000000000e-01
7.680000000000e-01
1.200000000000e+00
1.200000000000e+00
1.200000000000e+00
1.200000000000e+00
1.200000000000e+00
1.200000000000e+00
1.200000000000e+00
1.200000000000e+00
1.200000000000e+00
1.200000000000e+00
1.200000000000e+00
1.200000000000e+00
1.200000000000e+00
1.200000000000e+00
1.200000000000e+00
1.200000000000e+00
1.200000000000e+00
1.200000000000e+00
1.200000000000e+00
1.200000000000e+00
1.200000000000e+00
1.200000000000e+00
1.200000000000e+00
1.200000000000e+00
1.200000000000e+00
1.200000000000e+00
1.200000000000e+00
1.200000000000e+00
1.200000000000e+00
1.200000000000e+00
1.079999999959e+00
8.400000000073e-01
3.599999999738e-01
0.000000000000e+00
0.000000000000e+00
0.000000000000e+00
0.000000000000e+00
0.000000000000e+00
0.000000000000e+00
0.000000000000e+00
0.000000000000e+00
0.000000000000e+00
0.000000000000e+00
0.000000000000e+00
0.000000000000e+00
0.000000000000e+00
0.000000000000e+00
0.000000000000e+00
0.000000000000e+00
0.000000000000e+00
0.000000000000e+00
0.000000000000e+00
0.000000000000e+00
0.000000000000e+00
0.000000000000e+00
0.000000000000e+00
0.000000000000e+00
0.000000000000e+00
0.000000000000e+00
0.000000000000e+00
0.000000000000e+00
0.000000000000e+00
0.000000000000e+00
1.200000000409e-01
3.600000001228e-01
8.400000000262e-01
1.199999999889e+00
1.200000000000e+00
1.200000000000e+00
1.200000000000e+00
1.200000000000e+00
1.200000000000e+00
1.200000000000e+00
1.200000000000e+00
1.200000000000e+00
1.200000000000e+00
1.200000000000e+00
1.200000000000e+00
1.200000000000e+00
1.200000000000e+00
1.200000000000e+00
1.200000000000e+00
1.200000000000e+00
1.200000000000e+00
1.200000000000e+00
1.200000000000e+00
1.200000000000e+00
1.200000000000e+00
1.200000000000e+00
1.200000000000e+00
1.200000000000e+00
1.200000000000e+00
1.200000000000e+00
1.200000000000e+00
1.200000000000e+00
1.199999999870e+00
1.079999999829e+00
8.399999997471e-01
3.599999998437e-01
0.000000000000e+00
0.000000000000e+00
0.000000000000e+00
0.000000000000e+00
0.000000000000e+00
0.000000000000e+00
0.000000000000e+00
0.000000000000e+00
0.000000000000e+00
0.000000000000e+00
0.000000000000e+00
0.000000000000e+00
0.000000000000e+00
0.000000000000e+00
0.000000000000e+00
0.000000000000e+00
0.000000000000e+00
0.000000000000e+00
0.000000000000e+00
0.000000000000e+00
0.000000000000e+00
0.000000000000e+00
0.000000000000e+00
0.000000000000e+00
0.000000000000e+00
0.000000000000e+00
0.000000000000e+00
0.000000000000e+00
0.000000000000e+00
0.000000000000e+00
1.200000000409e-01
3.600000001228e-01
8.400000002864e-01
1.199999999889e+00
1.200000000000e+00
1.200000000000e+00
1.200000000000e+00
1.200000000000e+00
1.200000000000e+00
1.200000000000e+00
1.200000000000e+00
1.200000000000e+00
1.200000000000e+00
1.200000000000e+00
1.200000000000e+00
1.200000000000e+00
1.200000000000e+00
1.200000000000e+00
1.200000000000e+00
1.200000000000e+00
1.200000000000e+00
1.200000000000e+00
1.200000000000e+00
1.200000000000e+00
1.200000000000e+00
1.200000000000e+00
1.200000000000e+00
1.200000000000e+00
1.200000000000e+00
1.200000000000e+00
1.200000000000e+00
1.200000000000e+00
1.200000000000e+00
0.000000000000e+00
0.000000000000e+00
0.000000000000e+00
0.000000000000e+00
0.000000000000e+00
0.000000000000e+00
0.000000000000e+00
0.000000000000e+00
0.000000000000e+00
0.000000000000e+00
0.000000000000e+00
0.000000000000e+00
0.000000000000e+00
0.000000000000e+00
0.000000000000e+00
0.000000000000e+00
1.200000000409e-01
3.600000001228e-01
8.400000002864e-01
1.199999999889e+00
1.200000000000e+00
1.200000000000e+00
1.200000000000e+00
1.200000000000e+00
1.200000000000e+00
1.200000000000e+00
1.200000000000e+00
1.200000000000e+00
1.200000000000e+00
1.200000000000e+00
1.200000000000e+00
1.200000000000e+00
1.200000000000e+00
1.200000000000e+00
1.200000000000e+00
1.200000000000e+00
1.200000000000e+00
1.200000000000e+00
1.200000000000e+00
1.200000000000e+00
1.200000000000e+00
1.200000000000e+00
1.200000000000e+00
1.200000000000e+00
1.200000000000e+00
1.200000000000e+00
1.200000000000e+00
1.200000000000e+00
1.200000000000e+00
0.000000000000e+00
0.000000000000e+00
0.000000000000e+00
0.000000000000e+00
0.000000000000e+00
0.000000000000e+00
0.000000000000e+00
0.000000000000e+00
0.000000000000e+00
0.000000000000e+00
0.000000000000e+00
0.000000000000e+00
0.000000000000e+00
0.000000000000e+00
1.200000005613e-01
3.600000006432e-01
8.400000008069e-01
1.200000000000e+00
1.200000000000e+00
1.200000000000e+00
1.200000000000e+00
1.200000000000e+00
1.200000000000e+00
1.200000000000e+00
1.200000000000e+00
1.200000000000e+00
1.200000000000e+00
1.200000000000e+00
1.200000000000e+00
1.200000000000e+00
1.200000000000e+00
1.200000000000e+00
1.200000000000e+00
1.200000000000e+00
1.200000000000e+00
1.200000000000e+00
1.200000000000e+00
1.200000000000e+00
1.200000000000e+00
1.200000000000e+00
1.200000000000e+00
1.200000000000e+00
1.200000000000e+00
1.200000000000e+00
1.200000000000e+00
1.200000000000e+00
1.200000000000e+00
0.000000000000e+00
0.000000000000e+00
0.000000000000e+00
0.000000000000e+00
0.000000000000e+00
0.000000000000e+00
0.000000000000e+00
0.000000000000e+00
0.000000000000e+00
0.000000000000e+00
0.000000000000e+00
0.000000000000e+00
0.000000000000e+00
0.000000000000e+00
0.000000000000e+00
0.000000000000e+00
1.200000005613e-01
3.600000006432e-01
8.400000008069e-01
1.200000000000e+00
1.200000000000e+00
1.200000000000e+00
1.200000000000e+00
1.200000000000e+00
1.200000000000e+00
1.200000000000e+00
1.200000000000e+00
1.200000000000e+00
1.200000000000e+00
1.200000000000e+00
1.200000000000e+00
1.200000000000e+00
1.200000000000e+00
1.200000000000e+00
1.200000000000e+00
1.200000000000e+00
1.200000000000e+00
1.200000000000e+00
1.200000000000e+00
1.200000000000e+00
1.200000000000e+00
1.200000000000e+00
1.200000000000e+00
1.200000000000e+00
1.200000000000e+00
1.200000000000e+00
1.200000000000e+00
1.200000000000e+00
1.200000000000e+00
0.000000000000e+00
0.000000000000e+00
0.000000000000e+00
0.000000000000e+00
0.000000000000e+00
0.000000000000e+00
0.000000000000e+00
0.000000000000e+00
0.000000000000e+00
0.000000000000e+00
0.000000000000e+00
0.000000000000e+00
0.000000000000e+00
0.000000000000e+00
1.200000000000e+00
1.200000000000e+00
1.200000000000e+00
1.200000000000e+00
1.200000000000e+00
1.200000000000e+00
1.200000000000e+00
1.200000000000e+00
1.200000000000e+00
1.200000000000e+00
1.200000000000e+00
1.200000000000e+00
1.200000000000e+00
1.200000000000e+00
0.000000000000e+00
0.000000000000e+00
0.000000000000e+00
0.000000000000e+00
0.000000000000e+00
0.000000000000e+00
0.000000000000e+00
0.000000000000e+00
0.000000000000e+00
0.000000000000e+00
0.000000000000e+00
0.000000000000e+00
0.000000000000e+00
0.000000000000e+00
0.000000000000e+00
0.000000000000e+00
0.000000000000e+00
1.199999995205e-01
3.599999996023e-01
8.399999997660e-01
1.200000000000e+00
1.200000000000e+00
1.200000000000e+00
1.200000000000e+00
1.200000000000e+00
1.200000000000e+00
1.200000000000e+00
1.200000000000e+00
1.200000000000e+00
1.200000000000e+00
1.200000000000e+00
1.200000000000e+00
1.200000000000e+00
1.200000000000e+00
1.200000000000e+00
1.200000000000e+00
1.200000000000e+00
1.200000000000e+00
1.200000000000e+00
1.200000000000e+00
1.200000000000e+00
1.200000000000e+00
1.200000000000e+00
1.200000000000e+00
1.200000000000e+00
1.200000000000e+00
1.200000000000e+00
1.200000000000e+00
1.200000000000e+00
1.200000000000e+00
0.000000000000e+00
0.000000000000e+00
0.000000000000e+00
0.000000000000e+00
0.000000000000e+00
0.000000000000e+00
0.000000000000e+00
0.000000000000e+00
0.000000000000e+00
0.000000000000e+00
0.000000000000e+00
0.000000000000e+00
0.000000000000e+00
0.000000000000e+00
0.000000000000e+00
0.000000000000e+00
1.199999995205e-01
3.599999985615e-01
8.399999987252e-01
1.199999999368e+00
1.200000000000e+00
1.200000000000e+00
1.200000000000e+00
1.200000000000e+00
1.200000000000e+00
1.200000000000e+00
1.200000000000e+00
1.200000000000e+00
1.200000000000e+00
1.200000000000e+00
1.200000000000e+00
1.200000000000e+00
1.200000000000e+00
1.200000000000e+00
1.200000000000e+00
1.200000000000e+00
1.200000000000e+00
1.200000000000e+00
1.200000000000e+00
1.200000000000e+00
1.200000000000e+00
1.200000000000e+00
1.200000000000e+00
1.200000000000e+00
1.200000000000e+00
1.200000000000e+00
1.200000000000e+00
1.200000000000e+00
1.200000000000e+00
0.000000000000e+00
0.000000000000e+00
0.000000000000e+00
0.000000000000e+00
0.000000000000e+00
0.000000000000e+00
0.000000000000e+00
0.000000000000e+00
0.000000000000e+00
0.000000000000e+00
0.000000000000e+00
0.000000000000e+00
0.000000000000e+00
0.000000000000e+00
1.199999995205e-01
3.599999985615e-01
8.399999987252e-01
1.199999999368e+00
1.200000000000e+00
1.200000000000e+00
1.200000000000e+00
1.200000000000e+00
1.200000000000e+00
1.200000000000e+00
1.200000000000e+00
1.200000000000e+00
1.200000000000e+00
1.200000000000e+00
1.200000000000e+00
1.200000000000e+00
1.200000000000e+00
1.200000000000e+00
1.200000000000e+00
1.200000000000e+00
1.200000000000e+00
1.200000000000e+00
1.200000000000e+00
1.200000000000e+00
1.200000000000e+00
1.200000000000e+00
1.200000000000e+00
1.200000000000e+00
1.200000000000e+00
1.200000000000e+00
1.200000000000e+00
1.200000000000e+00
1.200000000000e+00
0.000000000000e+00
0.000000000000e+00
0.000000000000e+00
0.000000000000e+00
0.000000000000e+00
0.000000000000e+00
0.000000000000e+00
0.000000000000e+00
0.000000000000e+00
0.000000000000e+00
0.000000000000e+00
0.000000000000e+00
0.000000000000e+00
0.000000000000e+00
0.000000000000e+00
0.000000000000e+00
</dep>
<dep tran.v(vout) time>
2.542861865311e-08
1.247975471422e-05
4.914750362047e-06
-2.932019269705e-06
1.097323764937e-06
-6.559219301640e-06
1.964607014078e-05
-4.339831635810e-04
1.726712158954e-04
7.626966229637e-05
-4.453695078698e-05
3.340871758796e-05
-2.846652284405e-05
2.634586381766e-05
-2.520870262093e-05
2.475915063462e-05
-2.443382844402e-05
2.437356011632e-05
-2.424241327720e-05
2.427786468700e-05
-2.419470461211e-05
2.425398936940e-05
-2.418278980063e-05
2.424802962709e-05
-2.417981275393e-05
2.424655239565e-05
-2.417905890904e-05
2.424622512107e-05
-2.417870362962e-05
2.424689986883e-05
-2.417693282126e-05
2.424746569318e-05
-2.417704981935e-05
2.424749184908e-05
-2.417702396944e-05
2.424744182749e-05
