<Qucs Dataset 25.1.2>
<indep dc1.i(pr1) 1>
5.967636000000e-03+j0.000000000000e+00
</indep>
<indep dc1.v(vd) 1>
7.224715000000e-01+j0.000000000000e+00
</indep>
<indep dc1.v(vpol) 1>
4.087970000000e-01+j0.000000000000e+00
</indep>
<indep dc1.gm 1>
1.459804000000e-02+j0.000000000000e+00
</indep>
<indep sw1.res-sweep 150>
1.000000000000e+00
2.000000000000e+00
3.000000000000e+00
4.000000000000e+00
5.000000000000e+00
6.000000000000e+00
7.000000000000e+00
8.000000000000e+00
9.000000000000e+00
1.000000000000e+01
1.100000000000e+01
1.200000000000e+01
1.300000000000e+01
1.400000000000e+01
1.500000000000e+01
1.600000000000e+01
1.700000000000e+01
1.800000000000e+01
1.900000000000e+01
2.000000000000e+01
2.100000000000e+01
2.200000000000e+01
2.300000000000e+01
2.400000000000e+01
2.500000000000e+01
2.600000000000e+01
2.700000000000e+01
2.800000000000e+01
2.900000000000e+01
3.000000000000e+01
3.100000000000e+01
3.200000000000e+01
3.300000000000e+01
3.400000000000e+01
3.500000000000e+01
3.600000000000e+01
3.700000000000e+01
3.800000000000e+01
3.900000000000e+01
4.000000000000e+01
4.100000000000e+01
4.200000000000e+01
4.300000000000e+01
4.400000000000e+01
4.500000000000e+01
4.600000000000e+01
4.700000000000e+01
4.800000000000e+01
4.900000000000e+01
5.000000000000e+01
5.100000000000e+01
5.200000000000e+01
5.300000000000e+01
5.400000000000e+01
5.500000000000e+01
5.600000000000e+01
5.700000000000e+01
5.800000000000e+01
5.900000000000e+01
6.000000000000e+01
6.100000000000e+01
6.200000000000e+01
6.300000000000e+01
6.400000000000e+01
6.500000000000e+01
6.600000000000e+01
6.700000000000e+01
6.800000000000e+01
6.900000000000e+01
7.000000000000e+01
7.100000000000e+01
7.200000000000e+01
7.300000000000e+01
7.400000000000e+01
7.500000000000e+01
7.600000000000e+01
7.700000000000e+01
7.800000000000e+01
7.900000000000e+01
8.000000000000e+01
8.100000000000e+01
8.200000000000e+01
8.300000000000e+01
8.400000000000e+01
8.500000000000e+01
8.600000000000e+01
8.700000000000e+01
8.800000000000e+01
8.900000000000e+01
9.000000000000e+01
9.100000000000e+01
9.200000000000e+01
9.300000000000e+01
9.400000000000e+01
9.500000000000e+01
9.600000000000e+01
9.700000000000e+01
9.800000000000e+01
9.900000000000e+01
1.000000000000e+02
1.010000000000e+02
1.020000000000e+02
1.030000000000e+02
1.040000000000e+02
1.050000000000e+02
1.060000000000e+02
1.070000000000e+02
1.080000000000e+02
1.090000000000e+02
1.100000000000e+02
1.110000000000e+02
1.120000000000e+02
1.130000000000e+02
1.140000000000e+02
1.150000000000e+02
1.160000000000e+02
1.170000000000e+02
1.180000000000e+02
1.190000000000e+02
1.200000000000e+02
1.210000000000e+02
1.220000000000e+02
1.230000000000e+02
1.240000000000e+02
1.250000000000e+02
1.260000000000e+02
1.270000000000e+02
1.280000000000e+02
1.290000000000e+02
1.300000000000e+02
1.310000000000e+02
1.320000000000e+02
1.330000000000e+02
1.340000000000e+02
1.350000000000e+02
1.360000000000e+02
1.370000000000e+02
1.380000000000e+02
1.390000000000e+02
1.400000000000e+02
1.410000000000e+02
1.420000000000e+02
1.430000000000e+02
1.440000000000e+02
1.450000000000e+02
1.460000000000e+02
1.470000000000e+02
1.480000000000e+02
1.490000000000e+02
1.500000000000e+02
</indep>
<dep sw1.i(pr1) sw1.res-sweep>
1.896916900554e-01
1.289119121796e-01
9.824825648634e-02
7.992215763153e-02
6.769799521584e-02
5.893342362934e-02
5.230452064420e-02
4.713415286710e-02
4.296907227541e-02
3.953632932987e-02
3.665488945609e-02
3.419935773539e-02
3.208000339172e-02
3.023086061013e-02
2.860231141928e-02
2.715629199219e-02
2.586309764473e-02
2.469919588685e-02
2.364569417867e-02
2.268724407525e-02
2.181124299700e-02
2.100724318288e-02
2.026650754064e-02
1.958167139081e-02
1.894648170299e-02
1.835559382283e-02
1.780441138939e-02
1.728895907572e-02
1.680578054026e-02
1.635185593375e-02
1.592453471365e-02
1.552148054309e-02
1.514062580563e-02
1.478013382833e-02
1.443836732706e-02
1.411386190708e-02
1.380530369613e-02
1.351151037536e-02
1.323141501900e-02
1.296405226809e-02
1.270854645318e-02
1.246410135185e-02
1.222999132398e-02
1.200555361242e-02
1.179018163391e-02
1.158331911426e-02
1.138445494610e-02
1.119311866716e-02
1.100887647316e-02
1.083132769286e-02
1.066010166374e-02
1.049485495606e-02
1.033526890066e-02
1.018104738234e-02
1.003191486598e-02
9.887614627302e-03
9.747907163699e-03
9.612568764188e-03
9.481390220093e-03
9.354175660537e-03
9.230741498804e-03
9.110915477462e-03
8.994535801538e-03
8.881450350414e-03
8.771515960202e-03
8.664597769323e-03
8.560568620889e-03
8.459308516179e-03
8.360704114189e-03
8.264648272761e-03
8.171039627329e-03
8.079782203674e-03
7.990785061579e-03
7.903961966492e-03
7.819231086662e-03
7.736514713497e-03
7.655739003039e-03
7.576833736746e-03
7.499732099911e-03
7.424370476201e-03
7.350688256971e-03
7.278627664130e-03
7.208133585422e-03
7.139153421154e-03
7.071636941397e-03
7.005536152895e-03
6.940805174867e-03
6.877400123036e-03
6.815279001254e-03
6.754401600147e-03
6.694729402255e-03
6.636225493164e-03
6.578854478223e-03
6.522582404440e-03
6.467376687127e-03
6.413206041052e-03
6.360040415686e-03
6.307850934333e-03
6.256609836832e-03
6.206290425590e-03
6.156867014757e-03
6.108314882280e-03
6.060610224693e-03
6.013730114430e-03
5.967652459509e-03
5.922355965441e-03
5.877820099213e-03
5.834025055211e-03
5.790951722974e-03
5.748581656656e-03
5.706897046089e-03
5.665880689358e-03
5.625515966787e-03
5.585786816268e-03
5.546677709814e-03
5.508173631333e-03
5.470260055468e-03
5.432922927516e-03
5.396148644307e-03
5.359924036034e-03
5.324236348938e-03
5.289073228842e-03
5.254422705446e-03
5.220273177381e-03
5.186613397942e-03
5.153432461490e-03
5.120719790494e-03
5.088465123125e-03
5.056658501449e-03
5.025290260135e-03
4.994351015665e-03
4.963831656017e-03
4.933723330817e-03
4.904017441899e-03
4.874705634286e-03
4.845779787557e-03
4.817232007580e-03
4.789054618582e-03
4.761240155584e-03
4.733781357119e-03
4.706671158258e-03
4.679902683940e-03
4.653469242555e-03
4.627364319797e-03
4.601581572758e-03
4.576114824266e-03
4.550958057438e-03
4.526105410454e-03
4.501551171540e-03
4.477289774129e-03
</dep>
<dep sw1.v(vd) sw1.res-sweep>
3.533598553448e-01
4.256276725811e-01
4.685996030219e-01
4.976868679438e-01
5.192199374639e-01
5.360883953546e-01
5.493897065843e-01
5.609869785999e-01
5.709245590113e-01
5.795653078694e-01
5.871833469902e-01
5.939771991311e-01
6.000941787786e-01
6.056463750782e-01
6.107209197308e-01
6.153867916766e-01
6.196994659218e-01
6.237041742827e-01
6.274382453504e-01
6.309328176215e-01
6.342141160938e-01
6.373044186682e-01
6.402227981440e-01
6.429856992238e-01
6.456073924370e-01
6.481003350166e-01
6.504754605841e-01
6.527424137560e-01
6.549097417012e-01
6.569850517364e-01
6.589751418908e-01
6.608861097857e-01
6.627234439828e-01
6.644921010625e-01
6.661965710074e-01
6.678409329442e-01
6.694289028901e-01
6.709638748313e-01
6.724489562144e-01
6.738869987310e-01
6.752806251206e-01
6.766322525904e-01
6.779441133469e-01
6.792182726546e-01
6.804566447685e-01
6.816610070295e-01
6.828330123732e-01
6.839742004556e-01
6.850860075784e-01
6.861697755609e-01
6.872267596922e-01
6.882581358724e-01
6.892650070411e-01
6.902484089751e-01
6.912093155287e-01
6.921486433776e-01
6.930672563231e-01
6.939659692032e-01
6.948455514529e-01
6.957067303503e-01
6.965501939814e-01
6.973765939514e-01
6.981865478685e-01
6.989806416228e-01
6.997594314786e-01
7.005234460002e-01
7.012731878247e-01
7.020091352973e-01
7.027317439813e-01
7.034414480537e-01
7.041386615967e-01
7.048237797951e-01
7.054971800461e-01
7.061592229900e-01
7.068102534683e-01
7.074506014153e-01
7.080805826879e-01
7.087004998400e-01
7.093106428440e-01
7.099112897653e-01
7.105027073931e-01
7.110851518290e-01
7.116588690401e-01
7.122240953758e-01
7.127810580529e-01
7.133299756111e-01
7.138710583406e-01
7.144045086837e-01
7.149305216134e-01
7.154492849886e-01
7.159609798898e-01
7.164657809347e-01
7.169638565761e-01
7.174553693831e-01
7.179404763066e-01
7.184193289304e-01
7.188920737082e-01
7.193588521878e-01
7.198198012240e-01
7.202750531794e-01
7.207247361154e-01
7.211689739724e-01
7.216078867421e-01
7.220415906295e-01
7.224701982080e-01
7.228938185660e-01
7.233125574465e-01
7.237265173800e-01
7.241357978109e-01
7.245404952174e-01
7.249407032264e-01
7.253365127224e-01
7.257280119517e-01
7.261152866212e-01
7.264984199937e-01
7.268774929775e-01
7.272525842131e-01
7.276237701552e-01
7.279911251520e-01
7.283547215198e-01
7.287146296153e-01
7.290709179043e-01
7.294236530277e-01
7.297728998643e-01
7.301187215918e-01
7.304611797438e-01
7.308003342660e-01
7.311362435689e-01
7.314689645791e-01
7.317985527880e-01
7.321250622987e-01
7.324485458714e-01
7.327690549663e-01
7.330866397852e-01
7.334013493115e-01
7.337132313489e-01
7.340223325576e-01
7.343286984904e-01
7.346323736265e-01
7.349334014045e-01
7.352318242540e-01
7.355276836259e-01
7.358210200220e-01
7.361118730228e-01
7.364002813151e-01
7.366862827180e-01
7.369699142083e-01
7.372512119449e-01
7.375302112919e-01
7.378069468421e-01
</dep>
<dep sw1.v(vpol) sw1.res-sweep>
8.526527216991e-01
7.542653605988e-01
7.016390565306e-01
6.670520206676e-01
6.418251205417e-01
6.222316464611e-01
6.068310101268e-01
5.934930928129e-01
5.820950437382e-01
5.722015899307e-01
5.634904018707e-01
5.557293070983e-01
5.487466409714e-01
5.424121941799e-01
5.366250293715e-01
5.313054338060e-01
5.263894389409e-01
5.218249879208e-01
5.175691929796e-01
5.135863327086e-01
5.098463631937e-01
5.063237933797e-01
5.029968233160e-01
4.998466752585e-01
4.968570683522e-01
4.940138016509e-01
4.913044198842e-01
4.887179431398e-01
4.862446464228e-01
4.838758785112e-01
4.816039120424e-01
4.794218186272e-01
4.773233641696e-01
4.753029206187e-01
4.733553911717e-01
4.714761465559e-01
4.696609704903e-01
4.679060127952e-01
4.662077489060e-01
4.645629447761e-01
4.629686263376e-01
4.614220528305e-01
4.599206934324e-01
4.584622067128e-01
4.570444225149e-01
4.556653259316e-01
4.543230430933e-01
4.530158285287e-01
4.517420538955e-01
4.505001979094e-01
4.492888373197e-01
4.481066388083e-01
4.469523516978e-01
4.458248013784e-01
4.447228833668e-01
4.436455579295e-01
4.425918452054e-01
4.415608207751e-01
4.405516116273e-01
4.395633924829e-01
4.385953824372e-01
4.376468418902e-01
4.367170697346e-01
4.358054007764e-01
4.349112033658e-01
4.340338772186e-01
4.331728514098e-01
4.323275825223e-01
4.314975529393e-01
4.306822692650e-01
4.298812608626e-01
4.290940785008e-01
4.283202930975e-01
4.275594945542e-01
4.268112906714e-01
4.260753061412e-01
4.253511816073e-01
4.246385727900e-01
4.239371496692e-01
4.232465957217e-01
4.225666072082e-01
4.218968925060e-01
4.212371714845e-01
4.205871749200e-01
4.199466439468e-01
4.193153295419e-01
4.186929920414e-01
4.180794006855e-01
4.174743331906e-01
4.168775753468e-01
4.162889206386e-01
4.157081698872e-01
4.151351309132e-01
4.145696182187e-01
4.140114526864e-01
4.134604612954e-01
4.129164768531e-01
4.123793377407e-01
4.118488876726e-01
4.113249754687e-01
4.108074548386e-01
4.102961841763e-01
4.097910263664e-01
4.092918485995e-01
4.087985221970e-01
4.083109224445e-01
4.078289284341e-01
4.073524229133e-01
4.068812921422e-01
4.064154257568e-01
4.059547166396e-01
4.054990607953e-01
4.050483572333e-01
4.046025078549e-01
4.041614173461e-01
4.037249930750e-01
4.032931449940e-01
4.028657855464e-01
4.024428295769e-01
4.020241942465e-01
4.016097989503e-01
4.011995652399e-01
4.007934167480e-01
4.003912791174e-01
3.999930799320e-01
3.995987486510e-01
3.992082165462e-01
3.988214166415e-01
3.984382836546e-01
3.980587539419e-01
3.976827654449e-01
3.973102576389e-01
3.969411714841e-01
3.965754493779e-01
3.962130351098e-01
3.958538738177e-01
3.954979119459e-01
3.951450972045e-01
3.947953785311e-01
3.944487060528e-01
3.941050310505e-01
3.937643059242e-01
3.934264841599e-01
3.930915202970e-01
3.927593698974e-01
3.924299895161e-01
3.921033366716e-01
3.917793698190e-01
3.914580483224e-01
3.911393324298e-01
</dep>
<dep sw1.gm sw1.res-sweep>
2.224723916354e-01
1.709105560576e-01
1.400267781223e-01
1.198139802560e-01
1.054773224842e-01
9.471299630343e-02
8.619289352896e-02
7.941819953696e-02
7.381796622280e-02
6.909510568885e-02
6.504971395454e-02
6.153959724688e-02
5.846050070878e-02
5.573410947659e-02
5.330036777174e-02
5.111239273312e-02
4.913301015026e-02
4.733233643528e-02
4.568605415691e-02
4.417415852434e-02
4.278003056084e-02
4.148974126699e-02
4.029152194003e-02
3.917535588779e-02
3.813266009800e-02
3.715603443316e-02
3.623906211828e-02
3.537614961796e-02
3.456239706838e-02
3.379349263254e-02
3.306562575021e-02
3.237541543128e-02
3.171985061690e-02
3.109624029004e-02
3.050217151455e-02
2.993547396187e-02
2.939418977802e-02
2.887654787002e-02
2.838094186947e-02
2.790591117020e-02
2.745012454840e-02
2.701236596125e-02
2.659152219159e-02
2.618657206295e-02
2.579657699538e-02
2.542067271057e-02
2.505806192527e-02
2.470800789746e-02
2.436982871094e-02
2.404289220055e-02
2.372661143583e-02
2.342044069193e-02
2.312387184721e-02
2.283643115563e-02
2.255767634857e-02
2.228719402773e-02
2.202459731491e-02
2.176952372978e-02
2.152163326990e-02
2.128060667089e-02
2.104614382698e-02
2.081796235505e-02
2.059579628711e-02
2.037939487765e-02
2.016852151459e-02
1.996295272310e-02
1.976247725324e-02
1.956689524329e-02
1.937601745144e-02
1.918966454942e-02
1.900766647225e-02
1.882986181894e-02
1.865609729956e-02
1.848622722448e-02
1.832011303212e-02
1.815762285167e-02
1.799863109804e-02
1.784301809605e-02
1.769066973156e-02
1.754147712722e-02
1.739533634085e-02
1.725214808462e-02
1.711181746343e-02
1.697425373073e-02
1.683937006083e-02
1.670708333602e-02
1.657731394752e-02
1.644998560940e-02
1.632502518419e-02
1.620236251941e-02
1.608193029451e-02
1.596366387698e-02
1.584750118734e-02
1.573338257226e-02
1.562125068520e-02
1.551105037418e-02
1.540272857598e-02
1.529623421660e-02
1.519151811729e-02
1.508853290603e-02
1.498723293377e-02
1.488757419566e-02
1.478951425625e-02
1.469301217907e-02
1.459802845978e-02
1.450452496304e-02
1.441246486269e-02
1.432181258511e-02
1.423253375530e-02
1.414459514618e-02
1.405796463006e-02
1.397261113277e-02
1.388850459006e-02
1.380561590615e-02
1.372391691438e-02
1.364338033971e-02
1.356397976313e-02
1.348568958764e-02
1.340848500599e-02
1.333234196991e-02
1.325723716080e-02
1.318314796160e-02
1.311005243031e-02
1.303792927441e-02
1.296675782658e-02
1.289651802147e-02
1.282719037359e-02
1.275875595605e-02
1.269119638031e-02
1.262449377691e-02
1.255863077678e-02
1.249359049364e-02
1.242935650695e-02
1.236591284568e-02
1.230324397274e-02
1.224133477001e-02
1.218017052409e-02
1.211973691262e-02
1.206001999097e-02
1.200100617983e-02
1.194268225289e-02
1.188503532538e-02
1.182805284281e-02
1.177172257024e-02
1.171603258201e-02
1.166097125187e-02
1.160652724336e-02
1.155268950072e-02
1.149944724009e-02
1.144678994098e-02
</dep>
