<Qucs Dataset 25.1.1>
<indep frequency 98>
1.000000000000e+05
1.166203783128e+05
1.360031263783e+05
1.586073604997e+05
1.849685038467e+05
2.157109689456e+05
2.515629480467e+05
2.933736617070e+05
3.421334741529e+05
3.989973518919e+05
4.653122212346e+05
5.426488727396e+05
6.328391682993e+05
7.380194321825e+05
8.606810538335e+05
1.003729501048e+06
1.170553141359e+06
1.365103501806e+06
1.591988868168e+06
1.856583440756e+06
2.165154632303e+06
2.525011523249e+06
2.944677990856e+06
3.434094613031e+06
4.004854129338e+06
4.670476036511e+06
5.446726822790e+06
6.351993426404e+06
7.407718764279e+06
8.638909647253e+06
1.007472911273e+07
1.174918720526e+07
1.370194656746e+07
1.597926192319e+07
1.863507570643e+07
2.173229578772e+07
2.534428556370e+07
2.955660170507e+07
3.446902072488e+07
4.019790237008e+07
4.687894581781e+07
5.467040396181e+07
6.375683192541e+07
7.435345859170e+07
8.671128469832e+07
1.011230282551e+08
1.179300581125e+08
1.375304799153e+08
1.603885659727e+08
1.870457524079e+08
2.181334640762e+08
2.543880710326e+08
2.966683308209e+08
3.459757297378e+08
4.034782048908e+08
4.705378089535e+08
5.487429729065e+08
6.399461309687e+08
7.463075989340e+08
8.703467452543e+08
1.015001666949e+09
1.183698783878e+09
1.380433999843e+09
1.609867352975e+09
1.877433397375e+09
2.189469930590e+09
2.553368116100e+09
2.977747556715e+09
3.472660465842e+09
4.049829772786e+09
4.722926802049e+09
5.507895103988e+09
6.423328107345e+09
7.490909539060e+09
8.735927043524e+09
1.018787116729e+10
1.188113389732e+10
1.385582329891e+10
1.615871354955e+10
1.884435287197e+10
2.197635560990e+10
2.562890905164e+10
2.988853069347e+10
3.485611756687e+10
4.064933617166e+10
4.740540962504e+10
5.528436804547e+10
6.447283916249e+10
7.518846894033e+10
8.768507692584e+10
1.022586684348e+11
1.192544459864e+11
1.390749860642e+11
1.621897748866e+11
1.891463290574e+11
2.205831645116e+11
2.572449209479e+11
3.000000000000e+11
</indep>
<dep ac.v(vdd) frequency>
0.000000000000e+00+j0.000000000000e+00
0.000000000000e+00+j0.000000000000e+00
0.000000000000e+00+j0.000000000000e+00
0.000000000000e+00+j0.000000000000e+00
0.000000000000e+00+j0.000000000000e+00
0.000000000000e+00+j0.000000000000e+00
0.000000000000e+00+j0.000000000000e+00
0.000000000000e+00+j0.000000000000e+00
0.000000000000e+00+j0.000000000000e+00
0.000000000000e+00+j0.000000000000e+00
0.000000000000e+00+j0.000000000000e+00
0.000000000000e+00+j0.000000000000e+00
0.000000000000e+00+j0.000000000000e+00
0.000000000000e+00+j0.000000000000e+00
0.000000000000e+00+j0.000000000000e+00
0.000000000000e+00+j0.000000000000e+00
0.000000000000e+00+j0.000000000000e+00
0.000000000000e+00+j0.000000000000e+00
0.000000000000e+00+j0.000000000000e+00
0.000000000000e+00+j0.000000000000e+00
0.000000000000e+00+j0.000000000000e+00
0.000000000000e+00+j0.000000000000e+00
0.000000000000e+00+j0.000000000000e+00
0.000000000000e+00+j0.000000000000e+00
0.000000000000e+00+j0.000000000000e+00
0.000000000000e+00+j0.000000000000e+00
0.000000000000e+00+j0.000000000000e+00
0.000000000000e+00+j0.000000000000e+00
0.000000000000e+00+j0.000000000000e+00
0.000000000000e+00+j0.000000000000e+00
0.000000000000e+00+j0.000000000000e+00
0.000000000000e+00+j0.000000000000e+00
0.000000000000e+00+j0.000000000000e+00
0.000000000000e+00+j0.000000000000e+00
0.000000000000e+00+j0.000000000000e+00
0.000000000000e+00+j0.000000000000e+00
0.000000000000e+00+j0.000000000000e+00
0.000000000000e+00+j0.000000000000e+00
0.000000000000e+00+j0.000000000000e+00
0.000000000000e+00+j0.000000000000e+00
0.000000000000e+00+j0.000000000000e+00
0.000000000000e+00+j0.000000000000e+00
0.000000000000e+00+j0.000000000000e+00
0.000000000000e+00+j0.000000000000e+00
0.000000000000e+00+j0.000000000000e+00
0.000000000000e+00+j0.000000000000e+00
0.000000000000e+00+j0.000000000000e+00
0.000000000000e+00+j0.000000000000e+00
0.000000000000e+00+j0.000000000000e+00
0.000000000000e+00+j0.000000000000e+00
0.000000000000e+00+j0.000000000000e+00
0.000000000000e+00+j0.000000000000e+00
0.000000000000e+00+j0.000000000000e+00
0.000000000000e+00+j0.000000000000e+00
0.000000000000e+00+j0.000000000000e+00
0.000000000000e+00+j0.000000000000e+00
0.000000000000e+00+j0.000000000000e+00
0.000000000000e+00+j0.000000000000e+00
0.000000000000e+00+j0.000000000000e+00
0.000000000000e+00+j0.000000000000e+00
0.000000000000e+00+j0.000000000000e+00
0.000000000000e+00+j0.000000000000e+00
0.000000000000e+00+j0.000000000000e+00
0.000000000000e+00+j0.000000000000e+00
0.000000000000e+00+j0.000000000000e+00
0.000000000000e+00+j0.000000000000e+00
0.000000000000e+00+j0.000000000000e+00
0.000000000000e+00+j0.000000000000e+00
0.000000000000e+00+j0.000000000000e+00
0.000000000000e+00+j0.000000000000e+00
0.000000000000e+00+j0.000000000000e+00
0.000000000000e+00+j0.000000000000e+00
0.000000000000e+00+j0.000000000000e+00
0.000000000000e+00+j0.000000000000e+00
0.000000000000e+00+j0.000000000000e+00
0.000000000000e+00+j0.000000000000e+00
0.000000000000e+00+j0.000000000000e+00
0.000000000000e+00+j0.000000000000e+00
0.000000000000e+00+j0.000000000000e+00
0.000000000000e+00+j0.000000000000e+00
0.000000000000e+00+j0.000000000000e+00
0.000000000000e+00+j0.000000000000e+00
0.000000000000e+00+j0.000000000000e+00
0.000000000000e+00+j0.000000000000e+00
0.000000000000e+00+j0.000000000000e+00
0.000000000000e+00+j0.000000000000e+00
0.000000000000e+00+j0.000000000000e+00
0.000000000000e+00+j0.000000000000e+00
0.000000000000e+00+j0.000000000000e+00
0.000000000000e+00+j0.000000000000e+00
0.000000000000e+00+j0.000000000000e+00
0.000000000000e+00+j0.000000000000e+00
0.000000000000e+00+j0.000000000000e+00
0.000000000000e+00+j0.000000000000e+00
0.000000000000e+00+j0.000000000000e+00
0.000000000000e+00+j0.000000000000e+00
0.000000000000e+00+j0.000000000000e+00
0.000000000000e+00+j0.000000000000e+00
</dep>
<dep ac.v(vb1) frequency>
0.000000000000e+00+j0.000000000000e+00
0.000000000000e+00+j0.000000000000e+00
0.000000000000e+00+j0.000000000000e+00
0.000000000000e+00+j0.000000000000e+00
0.000000000000e+00+j0.000000000000e+00
0.000000000000e+00+j0.000000000000e+00
0.000000000000e+00+j0.000000000000e+00
0.000000000000e+00+j0.000000000000e+00
0.000000000000e+00+j0.000000000000e+00
0.000000000000e+00+j0.000000000000e+00
0.000000000000e+00+j0.000000000000e+00
0.000000000000e+00+j0.000000000000e+00
0.000000000000e+00+j0.000000000000e+00
0.000000000000e+00+j0.000000000000e+00
0.000000000000e+00+j0.000000000000e+00
0.000000000000e+00+j0.000000000000e+00
0.000000000000e+00+j0.000000000000e+00
0.000000000000e+00+j0.000000000000e+00
0.000000000000e+00+j0.000000000000e+00
0.000000000000e+00+j0.000000000000e+00
0.000000000000e+00+j0.000000000000e+00
0.000000000000e+00+j0.000000000000e+00
0.000000000000e+00+j0.000000000000e+00
0.000000000000e+00+j0.000000000000e+00
0.000000000000e+00+j0.000000000000e+00
0.000000000000e+00+j0.000000000000e+00
0.000000000000e+00+j0.000000000000e+00
0.000000000000e+00+j0.000000000000e+00
0.000000000000e+00+j0.000000000000e+00
0.000000000000e+00+j0.000000000000e+00
0.000000000000e+00+j0.000000000000e+00
0.000000000000e+00+j0.000000000000e+00
0.000000000000e+00+j0.000000000000e+00
0.000000000000e+00+j0.000000000000e+00
0.000000000000e+00+j0.000000000000e+00
0.000000000000e+00+j0.000000000000e+00
0.000000000000e+00+j0.000000000000e+00
0.000000000000e+00+j0.000000000000e+00
0.000000000000e+00+j0.000000000000e+00
0.000000000000e+00+j0.000000000000e+00
0.000000000000e+00+j0.000000000000e+00
0.000000000000e+00+j0.000000000000e+00
0.000000000000e+00+j0.000000000000e+00
0.000000000000e+00+j0.000000000000e+00
0.000000000000e+00+j0.000000000000e+00
0.000000000000e+00+j0.000000000000e+00
0.000000000000e+00+j0.000000000000e+00
0.000000000000e+00+j0.000000000000e+00
0.000000000000e+00+j0.000000000000e+00
0.000000000000e+00+j0.000000000000e+00
0.000000000000e+00+j0.000000000000e+00
0.000000000000e+00+j0.000000000000e+00
0.000000000000e+00+j0.000000000000e+00
0.000000000000e+00+j0.000000000000e+00
0.000000000000e+00+j0.000000000000e+00
0.000000000000e+00+j0.000000000000e+00
0.000000000000e+00+j0.000000000000e+00
0.000000000000e+00+j0.000000000000e+00
0.000000000000e+00+j0.000000000000e+00
0.000000000000e+00+j0.000000000000e+00
0.000000000000e+00+j0.000000000000e+00
0.000000000000e+00+j0.000000000000e+00
0.000000000000e+00+j0.000000000000e+00
0.000000000000e+00+j0.000000000000e+00
0.000000000000e+00+j0.000000000000e+00
0.000000000000e+00+j0.000000000000e+00
0.000000000000e+00+j0.000000000000e+00
0.000000000000e+00+j0.000000000000e+00
0.000000000000e+00+j0.000000000000e+00
0.000000000000e+00+j0.000000000000e+00
0.000000000000e+00+j0.000000000000e+00
0.000000000000e+00+j0.000000000000e+00
0.000000000000e+00+j0.000000000000e+00
0.000000000000e+00+j0.000000000000e+00
0.000000000000e+00+j0.000000000000e+00
0.000000000000e+00+j0.000000000000e+00
0.000000000000e+00+j0.000000000000e+00
0.000000000000e+00+j0.000000000000e+00
0.000000000000e+00+j0.000000000000e+00
0.000000000000e+00+j0.000000000000e+00
0.000000000000e+00+j0.000000000000e+00
0.000000000000e+00+j0.000000000000e+00
0.000000000000e+00+j0.000000000000e+00
0.000000000000e+00+j0.000000000000e+00
0.000000000000e+00+j0.000000000000e+00
0.000000000000e+00+j0.000000000000e+00
0.000000000000e+00+j0.000000000000e+00
0.000000000000e+00+j0.000000000000e+00
0.000000000000e+00+j0.000000000000e+00
0.000000000000e+00+j0.000000000000e+00
0.000000000000e+00+j0.000000000000e+00
0.000000000000e+00+j0.000000000000e+00
0.000000000000e+00+j0.000000000000e+00
0.000000000000e+00+j0.000000000000e+00
0.000000000000e+00+j0.000000000000e+00
0.000000000000e+00+j0.000000000000e+00
0.000000000000e+00+j0.000000000000e+00
0.000000000000e+00+j0.000000000000e+00
</dep>
<dep ac.v(vb2) frequency>
0.000000000000e+00+j0.000000000000e+00
0.000000000000e+00+j0.000000000000e+00
0.000000000000e+00+j0.000000000000e+00
0.000000000000e+00+j0.000000000000e+00
0.000000000000e+00+j0.000000000000e+00
0.000000000000e+00+j0.000000000000e+00
0.000000000000e+00+j0.000000000000e+00
0.000000000000e+00+j0.000000000000e+00
0.000000000000e+00+j0.000000000000e+00
0.000000000000e+00+j0.000000000000e+00
0.000000000000e+00+j0.000000000000e+00
0.000000000000e+00+j0.000000000000e+00
0.000000000000e+00+j0.000000000000e+00
0.000000000000e+00+j0.000000000000e+00
0.000000000000e+00+j0.000000000000e+00
0.000000000000e+00+j0.000000000000e+00
0.000000000000e+00+j0.000000000000e+00
0.000000000000e+00+j0.000000000000e+00
0.000000000000e+00+j0.000000000000e+00
0.000000000000e+00+j0.000000000000e+00
0.000000000000e+00+j0.000000000000e+00
0.000000000000e+00+j0.000000000000e+00
0.000000000000e+00+j0.000000000000e+00
0.000000000000e+00+j0.000000000000e+00
0.000000000000e+00+j0.000000000000e+00
0.000000000000e+00+j0.000000000000e+00
0.000000000000e+00+j0.000000000000e+00
0.000000000000e+00+j0.000000000000e+00
0.000000000000e+00+j0.000000000000e+00
0.000000000000e+00+j0.000000000000e+00
0.000000000000e+00+j0.000000000000e+00
0.000000000000e+00+j0.000000000000e+00
0.000000000000e+00+j0.000000000000e+00
0.000000000000e+00+j0.000000000000e+00
0.000000000000e+00+j0.000000000000e+00
0.000000000000e+00+j0.000000000000e+00
0.000000000000e+00+j0.000000000000e+00
0.000000000000e+00+j0.000000000000e+00
0.000000000000e+00+j0.000000000000e+00
0.000000000000e+00+j0.000000000000e+00
0.000000000000e+00+j0.000000000000e+00
0.000000000000e+00+j0.000000000000e+00
0.000000000000e+00+j0.000000000000e+00
0.000000000000e+00+j0.000000000000e+00
0.000000000000e+00+j0.000000000000e+00
0.000000000000e+00+j0.000000000000e+00
0.000000000000e+00+j0.000000000000e+00
0.000000000000e+00+j0.000000000000e+00
0.000000000000e+00+j0.000000000000e+00
0.000000000000e+00+j0.000000000000e+00
0.000000000000e+00+j0.000000000000e+00
0.000000000000e+00+j0.000000000000e+00
0.000000000000e+00+j0.000000000000e+00
0.000000000000e+00+j0.000000000000e+00
0.000000000000e+00+j0.000000000000e+00
0.000000000000e+00+j0.000000000000e+00
0.000000000000e+00+j0.000000000000e+00
0.000000000000e+00+j0.000000000000e+00
0.000000000000e+00+j0.000000000000e+00
0.000000000000e+00+j0.000000000000e+00
0.000000000000e+00+j0.000000000000e+00
0.000000000000e+00+j0.000000000000e+00
0.000000000000e+00+j0.000000000000e+00
0.000000000000e+00+j0.000000000000e+00
0.000000000000e+00+j0.000000000000e+00
0.000000000000e+00+j0.000000000000e+00
0.000000000000e+00+j0.000000000000e+00
0.000000000000e+00+j0.000000000000e+00
0.000000000000e+00+j0.000000000000e+00
0.000000000000e+00+j0.000000000000e+00
0.000000000000e+00+j0.000000000000e+00
0.000000000000e+00+j0.000000000000e+00
0.000000000000e+00+j0.000000000000e+00
0.000000000000e+00+j0.000000000000e+00
0.000000000000e+00+j0.000000000000e+00
0.000000000000e+00+j0.000000000000e+00
0.000000000000e+00+j0.000000000000e+00
0.000000000000e+00+j0.000000000000e+00
0.000000000000e+00+j0.000000000000e+00
0.000000000000e+00+j0.000000000000e+00
0.000000000000e+00+j0.000000000000e+00
0.000000000000e+00+j0.000000000000e+00
0.000000000000e+00+j0.000000000000e+00
0.000000000000e+00+j0.000000000000e+00
0.000000000000e+00+j0.000000000000e+00
0.000000000000e+00+j0.000000000000e+00
0.000000000000e+00+j0.000000000000e+00
0.000000000000e+00+j0.000000000000e+00
0.000000000000e+00+j0.000000000000e+00
0.000000000000e+00+j0.000000000000e+00
0.000000000000e+00+j0.000000000000e+00
0.000000000000e+00+j0.000000000000e+00
0.000000000000e+00+j0.000000000000e+00
0.000000000000e+00+j0.000000000000e+00
0.000000000000e+00+j0.000000000000e+00
0.000000000000e+00+j0.000000000000e+00
0.000000000000e+00+j0.000000000000e+00
0.000000000000e+00+j0.000000000000e+00
</dep>
<dep ac.v(vin) frequency>
1.000000000000e+00+j0.000000000000e+00
1.000000000000e+00+j0.000000000000e+00
1.000000000000e+00+j0.000000000000e+00
1.000000000000e+00+j0.000000000000e+00
1.000000000000e+00+j0.000000000000e+00
1.000000000000e+00+j0.000000000000e+00
1.000000000000e+00+j0.000000000000e+00
1.000000000000e+00+j0.000000000000e+00
1.000000000000e+00+j0.000000000000e+00
1.000000000000e+00+j0.000000000000e+00
1.000000000000e+00+j0.000000000000e+00
1.000000000000e+00+j0.000000000000e+00
1.000000000000e+00+j0.000000000000e+00
1.000000000000e+00+j0.000000000000e+00
1.000000000000e+00+j0.000000000000e+00
1.000000000000e+00+j0.000000000000e+00
1.000000000000e+00+j0.000000000000e+00
1.000000000000e+00+j0.000000000000e+00
1.000000000000e+00+j0.000000000000e+00
1.000000000000e+00+j0.000000000000e+00
1.000000000000e+00+j0.000000000000e+00
1.000000000000e+00+j0.000000000000e+00
1.000000000000e+00+j0.000000000000e+00
1.000000000000e+00+j0.000000000000e+00
1.000000000000e+00+j0.000000000000e+00
1.000000000000e+00+j0.000000000000e+00
1.000000000000e+00+j0.000000000000e+00
1.000000000000e+00+j0.000000000000e+00
1.000000000000e+00+j0.000000000000e+00
1.000000000000e+00+j0.000000000000e+00
1.000000000000e+00+j0.000000000000e+00
1.000000000000e+00+j0.000000000000e+00
1.000000000000e+00+j0.000000000000e+00
1.000000000000e+00+j0.000000000000e+00
1.000000000000e+00+j0.000000000000e+00
1.000000000000e+00+j0.000000000000e+00
1.000000000000e+00+j0.000000000000e+00
1.000000000000e+00+j0.000000000000e+00
1.000000000000e+00+j0.000000000000e+00
1.000000000000e+00+j0.000000000000e+00
1.000000000000e+00+j0.000000000000e+00
1.000000000000e+00+j0.000000000000e+00
1.000000000000e+00+j0.000000000000e+00
1.000000000000e+00+j0.000000000000e+00
1.000000000000e+00+j0.000000000000e+00
1.000000000000e+00+j0.000000000000e+00
1.000000000000e+00+j0.000000000000e+00
1.000000000000e+00+j0.000000000000e+00
1.000000000000e+00+j0.000000000000e+00
1.000000000000e+00+j0.000000000000e+00
1.000000000000e+00+j0.000000000000e+00
1.000000000000e+00+j0.000000000000e+00
1.000000000000e+00+j0.000000000000e+00
1.000000000000e+00+j0.000000000000e+00
1.000000000000e+00+j0.000000000000e+00
1.000000000000e+00+j0.000000000000e+00
1.000000000000e+00+j0.000000000000e+00
1.000000000000e+00+j0.000000000000e+00
1.000000000000e+00+j0.000000000000e+00
1.000000000000e+00+j0.000000000000e+00
1.000000000000e+00+j0.000000000000e+00
1.000000000000e+00+j0.000000000000e+00
1.000000000000e+00+j0.000000000000e+00
1.000000000000e+00+j0.000000000000e+00
1.000000000000e+00+j0.000000000000e+00
1.000000000000e+00+j0.000000000000e+00
1.000000000000e+00+j0.000000000000e+00
1.000000000000e+00+j0.000000000000e+00
1.000000000000e+00+j0.000000000000e+00
1.000000000000e+00+j0.000000000000e+00
1.000000000000e+00+j0.000000000000e+00
1.000000000000e+00+j0.000000000000e+00
1.000000000000e+00+j0.000000000000e+00
1.000000000000e+00+j0.000000000000e+00
1.000000000000e+00+j0.000000000000e+00
1.000000000000e+00+j0.000000000000e+00
1.000000000000e+00+j0.000000000000e+00
1.000000000000e+00+j0.000000000000e+00
1.000000000000e+00+j0.000000000000e+00
1.000000000000e+00+j0.000000000000e+00
1.000000000000e+00+j0.000000000000e+00
1.000000000000e+00+j0.000000000000e+00
1.000000000000e+00+j0.000000000000e+00
1.000000000000e+00+j0.000000000000e+00
1.000000000000e+00+j0.000000000000e+00
1.000000000000e+00+j0.000000000000e+00
1.000000000000e+00+j0.000000000000e+00
1.000000000000e+00+j0.000000000000e+00
1.000000000000e+00+j0.000000000000e+00
1.000000000000e+00+j0.000000000000e+00
1.000000000000e+00+j0.000000000000e+00
1.000000000000e+00+j0.000000000000e+00
1.000000000000e+00+j0.000000000000e+00
1.000000000000e+00+j0.000000000000e+00
1.000000000000e+00+j0.000000000000e+00
1.000000000000e+00+j0.000000000000e+00
1.000000000000e+00+j0.000000000000e+00
1.000000000000e+00+j0.000000000000e+00
</dep>
<dep ac.v(vout) frequency>
-5.537606235478e-09+j1.068516369135e-12
-7.531317641362e-09+j1.694745580851e-12
-1.024282751371e-08+j2.687991539421e-12
-1.393056576654e-08+j4.263351824352e-12
-1.894600518358e-08+j6.761990273274e-12
-2.576715977838e-08+j1.072501440956e-11
-3.504414362645e-08+j1.701066262676e-11
-4.766113232979e-08+j2.698016463021e-11
-6.482063259826e-08+j4.279252820150e-11
-8.815809161150e-08+j6.787210507161e-11
-1.198977695141e-07+j1.076501639566e-10
-1.630647312131e-07+j1.707411052820e-10
-2.217731624651e-07+j2.708080036259e-10
-3.016184899018e-07+j4.295215259853e-10
-4.102106786247e-07+j6.812529663655e-10
-5.578995374890e-07+j1.080517805438e-09
-7.587611641492e-07+j1.713781753662e-09
-1.031939554446e-06+j2.718186125836e-09
-1.403471257692e-06+j4.311247848304e-09
-1.908767010380e-06+j6.837966290418e-09
-2.595986919698e-06+j1.084553914385e-08
-3.530630974237e-06+j1.720186932480e-08
-4.801782569916e-06+j2.728353001857e-08
-6.530600433031e-06+j4.327390067810e-08
-8.881868886625e-06+j6.863605298696e-08
-1.207970839773e-05+j1.088628272805e-07
-1.642894578889e-05+j1.726666042229e-07
-2.234418464483e-05+j2.738665764584e-07
-3.038935355236e-05+j4.343825452460e-07
-4.133151439755e-05+j6.889842632182e-07
-5.621408311593e-05+j1.092826317529e-06
-7.645648603768e-05+j1.733403497184e-06
-1.039898328335e-04+j2.749522594742e-06
-1.414416913190e-04+j4.361414108055e-06
-1.923878632722e-04+j6.918537219507e-06
-2.616956984515e-04+j1.097550110470e-05
-3.559926857915e-04+j1.741269758858e-05
-4.843069110694e-04+j2.762810530912e-05
-6.589441034819e-04+j4.384254151726e-05
-8.966919594062e-04+j6.958610342378e-05
-1.220480388197e-03+j1.104747988437e-04
-1.661683422790e-03+j1.754538131107e-04
-2.263337838411e-03+j2.787955850249e-04
-3.084700464422e-03+j4.433295714911e-04
-4.207823599308e-03+j7.057085407296e-04
-5.747312671856e-03+j1.125110211742e-03
-7.865416705171e-03+j1.797912723853e-03
-1.079677566030e-02+j2.883243609508e-03
-1.489234437126e-02+j4.649688019779e-03
-2.070558292643e-02+j7.567220027768e-03
-2.918344915433e-02+j1.250875767538e-02
-4.215710163279e-02+j2.126530509346e-02
-6.387492712289e-02+j3.818635910786e-02
-1.074828974241e-01+j7.757399816878e-02
-2.448324933037e-01+j2.328609181389e-01
1.147155759254e+00-j4.318346090594e-01
1.898821746905e-01-j1.725852042041e-01
9.886172788008e-02-j1.122450428882e-01
6.328715138847e-02-j8.643532126140e-02
4.360431669802e-02-j7.104228009102e-02
3.092560770583e-02-j6.007365006715e-02
2.213044595453e-02-j5.143662450386e-02
1.580316917895e-02-j4.426244992329e-02
1.117232691119e-02-j3.814406250046e-02
7.757821603716e-03-j3.286486409839e-02
5.233748817289e-03-j2.829059452674e-02
