<Qucs Dataset 25.1.1>
<indep time 436>
0.000000000000e+00
1.000000000000e-11
2.000000000000e-11
4.000000000000e-11
8.000000000000e-11
1.175142172872e-10
1.531494249238e-10
2.090893824483e-10
2.650259198020e-10
3.768989945092e-10
4.888321195213e-10
6.116152598947e-10
7.357436055461e-10
9.342475830162e-10
1.000000000000e-09
1.039700795494e-09
1.119102386482e-09
1.277905568458e-09
1.500761353204e-09
1.761413892310e-09
2.226637270642e-09
2.732775067679e-09
3.745050661754e-09
5.769601849904e-09
9.818704226203e-09
1.791690897880e-08
3.411331848400e-08
6.073980707359e-08
8.610035897166e-08
1.136247253426e-07
1.479672581638e-07
1.890448236704e-07
2.359123036898e-07
2.837214566355e-07
3.636642313081e-07
4.817284289160e-07
7.178568241317e-07
9.487891685731e-07
1.176161927728e-06
1.481463629744e-06
1.822213966260e-06
2.384088021290e-06
2.920875930883e-06
3.580086493840e-06
4.591866490491e-06
6.615426483795e-06
1.066254647040e-05
1.875678644362e-05
3.220975803863e-05
5.911570122864e-05
1.093670012286e-04
1.596183012286e-04
2.098696012286e-04
2.601209012286e-04
3.103722012286e-04
3.606235012286e-04
4.108748012286e-04
4.611261012286e-04
5.113774012286e-04
5.616287012286e-04
6.118800012286e-04
6.621313012286e-04
7.123826012286e-04
7.626339012286e-04
8.128852012286e-04
8.631365012286e-04
9.133878012286e-04
9.636391012286e-04
1.000001000000e-03
1.000001100000e-03
1.000001300000e-03
1.000001700000e-03
1.000002000000e-03
1.000002080000e-03
1.000002240000e-03
1.000002560000e-03
1.000003200000e-03
1.000004480000e-03
1.000007040000e-03
1.000012160000e-03
1.000022400000e-03
1.000042880000e-03
1.000083840000e-03
1.000165760000e-03
1.000329600000e-03
1.000657280000e-03
1.001312640000e-03
1.002623360000e-03
1.005244800000e-03
1.010487679999e-03
1.020973439998e-03
1.041944959996e-03
1.083887999992e-03
1.134139299992e-03
1.184390599992e-03
1.234641899992e-03
1.284893199992e-03
1.335144499992e-03
1.385395799992e-03
1.435647099992e-03
1.485898399992e-03
1.536149699992e-03
1.586400999992e-03
1.636652299992e-03
1.686903599992e-03
1.737154899992e-03
1.787406199992e-03
1.837657499992e-03
1.887908799992e-03
1.938160099992e-03
1.988411399992e-03
2.000002000000e-03
2.000002100000e-03
2.000002300000e-03
2.000002700000e-03
2.000003000000e-03
2.000003080000e-03
2.000003240000e-03
2.000003560000e-03
2.000004200000e-03
2.000005480000e-03
2.000008040000e-03
2.000013160000e-03
2.000023400000e-03
2.000043880000e-03
2.000084840000e-03
2.000166760000e-03
2.000330600000e-03
2.000658280000e-03
2.001313640000e-03
2.002624360000e-03
2.005245800000e-03
2.010488679999e-03
2.020974439998e-03
2.041945959996e-03
2.083888999992e-03
2.134140299992e-03
2.184391599992e-03
2.234642899992e-03
2.284894199992e-03
2.335145499992e-03
2.385396799992e-03
2.435648099992e-03
2.485899399992e-03
2.536150699992e-03
2.586401999992e-03
2.636653299992e-03
2.686904599992e-03
2.737155899992e-03
2.787407199992e-03
2.837658499992e-03
2.887909799992e-03
2.938161099992e-03
2.988412399992e-03
3.000003000000e-03
3.000003100000e-03
3.000003300000e-03
3.000003700000e-03
3.000004000000e-03
3.000004080000e-03
3.000004240000e-03
3.000004560000e-03
3.000005200000e-03
3.000006480000e-03
3.000009040000e-03
3.000014160000e-03
3.000024400000e-03
3.000044880000e-03
3.000085840000e-03
3.000167760000e-03
3.000331600000e-03
3.000659280000e-03
3.001314640000e-03
3.002625360000e-03
3.005246800000e-03
3.010489679999e-03
3.020975439998e-03
3.041946959996e-03
3.083889999992e-03
3.134141299992e-03
3.184392599992e-03
3.234643899992e-03
3.284895199992e-03
3.335146499992e-03
3.385397799992e-03
3.435649099992e-03
3.485900399992e-03
3.536151699992e-03
3.586402999992e-03
3.636654299992e-03
3.686905599992e-03
3.737156899992e-03
3.787408199992e-03
3.837659499992e-03
3.887910799992e-03
3.938162099992e-03
3.988413399992e-03
4.000004000000e-03
4.000004100000e-03
4.000004300000e-03
4.000004700000e-03
4.000005000000e-03
4.000005080000e-03
4.000005240000e-03
4.000005560000e-03
4.000006200000e-03
4.000007480000e-03
4.000010040000e-03
4.000015160000e-03
4.000025400000e-03
4.000045880000e-03
4.000086840000e-03
4.000168760000e-03
4.000332600000e-03
4.000660280000e-03
4.001315640000e-03
4.002626360001e-03
4.005247800002e-03
4.010490680004e-03
4.020976440007e-03
4.041947960014e-03
4.083891000029e-03
4.134142300029e-03
4.184393600029e-03
4.234644900029e-03
4.284896200029e-03
4.335147500029e-03
4.385398800029e-03
4.435650100029e-03
4.485901400029e-03
4.536152700029e-03
4.586404000029e-03
4.636655300029e-03
4.686906600029e-03
4.737157900029e-03
4.787409200029e-03
4.837660500029e-03
4.887911800029e-03
4.938163100029e-03
4.988414400029e-03
5.000005000000e-03
5.005030130000e-03
5.015080390000e-03
5.035180910000e-03
5.075381950000e-03
5.125633250000e-03
5.175884550000e-03
5.226135850000e-03
5.276387150000e-03
5.326638450000e-03
5.376889750000e-03
5.427141050000e-03
5.477392350000e-03
5.527643650000e-03
5.577894950000e-03
5.628146250000e-03
5.678397550000e-03
5.728648850000e-03
5.778900150000e-03
5.829151450000e-03
5.879402750000e-03
5.929654050000e-03
5.979905350000e-03
6.000006000000e-03
6.000006100000e-03
6.000006300000e-03
6.000006700000e-03
6.000007000000e-03
6.000007080000e-03
6.000007240000e-03
6.000007560000e-03
6.000008200000e-03
6.000009480000e-03
6.000012040000e-03
6.000017160000e-03
6.000027400000e-03
6.000047880000e-03
6.000088840000e-03
6.000170760000e-03
6.000334600000e-03
6.000662280000e-03
6.001317640000e-03
6.002628360001e-03
6.005249800002e-03
6.010492680004e-03
6.020978440007e-03
6.041949960014e-03
6.083893000029e-03
6.134144300029e-03
6.184395600029e-03
6.234646900029e-03
6.284898200029e-03
6.335149500029e-03
6.385400800029e-03
6.435652100029e-03
6.485903400029e-03
6.536154700029e-03
6.586406000029e-03
6.636657300029e-03
6.686908600029e-03
6.737159900029e-03
6.787411200029e-03
6.837662500029e-03
6.887913800029e-03
6.938165100029e-03
6.988416400029e-03
7.000007000000e-03
7.000007100000e-03
7.000007300000e-03
7.000007700000e-03
7.000008000000e-03
7.000008080000e-03
7.000008240000e-03
7.000008560000e-03
7.000009200000e-03
7.000010480000e-03
7.000013040000e-03
7.000018160000e-03
7.000028400000e-03
7.000048880000e-03
7.000089840000e-03
7.000171760000e-03
7.000335600000e-03
7.000663280000e-03
7.001318639999e-03
7.002629359999e-03
7.005250799997e-03
7.010493679994e-03
7.020979439989e-03
7.041950959978e-03
7.083893999956e-03
7.134145299956e-03
7.184396599956e-03
7.234647899956e-03
7.284899199956e-03
7.335150499956e-03
7.385401799956e-03
7.435653099956e-03
7.485904399956e-03
7.536155699956e-03
7.586406999956e-03
7.636658299956e-03
7.686909599956e-03
7.737160899956e-03
7.787412199956e-03
7.837663499956e-03
7.887914799956e-03
7.938166099956e-03
7.988417399956e-03
8.000008000000e-03
8.000008100000e-03
8.000008300000e-03
8.000008700000e-03
8.000009000000e-03
8.000009080000e-03
8.000009240000e-03
8.000009560000e-03
8.000010200000e-03
8.000011480000e-03
8.000014040000e-03
8.000019160000e-03
8.000029400000e-03
8.000049880000e-03
8.000090840000e-03
8.000172760000e-03
8.000336600000e-03
8.000664280000e-03
8.001319639999e-03
8.002630359999e-03
8.005251799997e-03
8.010494679994e-03
8.020980439989e-03
8.041951959978e-03
8.083894999956e-03
8.134146299956e-03
8.184397599956e-03
8.234648899956e-03
8.284900199956e-03
8.335151499956e-03
8.385402799956e-03
8.435654099956e-03
8.485905399956e-03
8.536156699956e-03
8.586407999956e-03
8.636659299956e-03
8.686910599956e-03
8.737161899956e-03
8.787413199956e-03
8.837664499956e-03
8.887915799956e-03
8.938167099956e-03
8.988418399956e-03
9.000009000000e-03
9.000009100000e-03
9.000009300000e-03
9.000009700000e-03
9.000010000000e-03
9.000010080000e-03
9.000010240000e-03
9.000010560000e-03
9.000011200000e-03
9.000012480000e-03
9.000015040000e-03
9.000020160000e-03
9.000030400000e-03
9.000050880000e-03
9.000091840000e-03
9.000173760000e-03
9.000337600000e-03
9.000665280000e-03
9.001320639999e-03
9.002631359999e-03
9.005252799997e-03
9.010495679994e-03
9.020981439989e-03
9.041952959978e-03
9.083895999956e-03
9.134147299956e-03
9.184398599956e-03
9.234649899956e-03
9.284901199956e-03
9.335152499956e-03
9.385403799956e-03
9.435655099956e-03
9.485906399956e-03
9.536157699956e-03
9.586408999956e-03
9.636660299956e-03
9.686911599956e-03
9.737162899956e-03
9.787414199956e-03
9.837665499956e-03
9.887916799956e-03
9.938168099956e-03
9.988419399956e-03
1.000000000000e-02
</indep>
<dep tran.v(vin) time>
0.000000000000e+00
1.000000000000e-02
2.000000000000e-02
4.000000000000e-02
8.000000000000e-02
1.175142172872e-01
1.531494249238e-01
2.090893824483e-01
2.650259198020e-01
3.768989945092e-01
4.888321195213e-01
6.116152598947e-01
7.357436055461e-01
9.342475830162e-01
1.000000000000e+00
1.000000000000e+00
1.000000000000e+00
1.000000000000e+00
1.000000000000e+00
1.000000000000e+00
1.000000000000e+00
1.000000000000e+00
1.000000000000e+00
1.000000000000e+00
1.000000000000e+00
1.000000000000e+00
1.000000000000e+00
1.000000000000e+00
1.000000000000e+00
1.000000000000e+00
1.000000000000e+00
1.000000000000e+00
1.000000000000e+00
1.000000000000e+00
1.000000000000e+00
1.000000000000e+00
1.000000000000e+00
1.000000000000e+00
1.000000000000e+00
1.000000000000e+00
1.000000000000e+00
1.000000000000e+00
1.000000000000e+00
1.000000000000e+00
1.000000000000e+00
1.000000000000e+00
1.000000000000e+00
1.000000000000e+00
1.000000000000e+00
1.000000000000e+00
1.000000000000e+00
1.000000000000e+00
1.000000000000e+00
1.000000000000e+00
1.000000000000e+00
1.000000000000e+00
1.000000000000e+00
1.000000000000e+00
1.000000000000e+00
1.000000000000e+00
1.000000000000e+00
1.000000000000e+00
1.000000000000e+00
1.000000000000e+00
1.000000000000e+00
1.000000000000e+00
1.000000000000e+00
1.000000000000e+00
1.000000000000e+00
8.999999999659e-01
6.999999998977e-01
2.999999999781e-01
0.000000000000e+00
0.000000000000e+00
0.000000000000e+00
0.000000000000e+00
0.000000000000e+00
0.000000000000e+00
0.000000000000e+00
0.000000000000e+00
0.000000000000e+00
0.000000000000e+00
0.000000000000e+00
0.000000000000e+00
0.000000000000e+00
0.000000000000e+00
0.000000000000e+00
0.000000000000e+00
0.000000000000e+00
0.000000000000e+00
0.000000000000e+00
0.000000000000e+00
0.000000000000e+00
0.000000000000e+00
0.000000000000e+00
0.000000000000e+00
0.000000000000e+00
0.000000000000e+00
0.000000000000e+00
0.000000000000e+00
0.000000000000e+00
0.000000000000e+00
0.000000000000e+00
0.000000000000e+00
0.000000000000e+00
0.000000000000e+00
0.000000000000e+00
0.000000000000e+00
0.000000000000e+00
0.000000000000e+00
0.000000000000e+00
0.000000000000e+00
1.000000000341e-01
3.000000001023e-01
7.000000002387e-01
9.999999999073e-01
1.000000000000e+00
1.000000000000e+00
1.000000000000e+00
1.000000000000e+00
1.000000000000e+00
1.000000000000e+00
1.000000000000e+00
1.000000000000e+00
1.000000000000e+00
1.000000000000e+00
1.000000000000e+00
1.000000000000e+00
1.000000000000e+00
1.000000000000e+00
1.000000000000e+00
1.000000000000e+00
1.000000000000e+00
1.000000000000e+00
1.000000000000e+00
1.000000000000e+00
1.000000000000e+00
1.000000000000e+00
1.000000000000e+00
1.000000000000e+00
1.000000000000e+00
1.000000000000e+00
1.000000000000e+00
1.000000000000e+00
1.000000000000e+00
1.000000000000e+00
1.000000000000e+00
1.000000000000e+00
1.000000000000e+00
1.000000000000e+00
1.000000000000e+00
1.000000000000e+00
1.000000000000e+00
1.000000000000e+00
1.000000000000e+00
8.999999999659e-01
6.999999998977e-01
2.999999997613e-01
0.000000000000e+00
0.000000000000e+00
0.000000000000e+00
0.000000000000e+00
0.000000000000e+00
0.000000000000e+00
0.000000000000e+00
0.000000000000e+00
0.000000000000e+00
0.000000000000e+00
0.000000000000e+00
0.000000000000e+00
0.000000000000e+00
0.000000000000e+00
0.000000000000e+00
0.000000000000e+00
0.000000000000e+00
0.000000000000e+00
0.000000000000e+00
0.000000000000e+00
0.000000000000e+00
0.000000000000e+00
0.000000000000e+00
0.000000000000e+00
0.000000000000e+00
0.000000000000e+00
0.000000000000e+00
0.000000000000e+00
0.000000000000e+00
0.000000000000e+00
0.000000000000e+00
0.000000000000e+00
0.000000000000e+00
0.000000000000e+00
0.000000000000e+00
0.000000000000e+00
0.000000000000e+00
0.000000000000e+00
0.000000000000e+00
0.000000000000e+00
1.000000004678e-01
3.000000005360e-01
7.000000006724e-01
1.000000000000e+00
1.000000000000e+00
1.000000000000e+00
1.000000000000e+00
1.000000000000e+00
1.000000000000e+00
1.000000000000e+00
1.000000000000e+00
1.000000000000e+00
1.000000000000e+00
1.000000000000e+00
1.000000000000e+00
1.000000000000e+00
1.000000000000e+00
1.000000000000e+00
1.000000000000e+00
1.000000000000e+00
1.000000000000e+00
1.000000000000e+00
1.000000000000e+00
1.000000000000e+00
1.000000000000e+00
1.000000000000e+00
1.000000000000e+00
1.000000000000e+00
1.000000000000e+00
1.000000000000e+00
1.000000000000e+00
1.000000000000e+00
1.000000000000e+00
1.000000000000e+00
1.000000000000e+00
1.000000000000e+00
1.000000000000e+00
1.000000000000e+00
1.000000000000e+00
1.000000000000e+00
1.000000000000e+00
1.000000000000e+00
1.000000000000e+00
0.000000000000e+00
0.000000000000e+00
0.000000000000e+00
0.000000000000e+00
0.000000000000e+00
0.000000000000e+00
0.000000000000e+00
0.000000000000e+00
0.000000000000e+00
0.000000000000e+00
0.000000000000e+00
0.000000000000e+00
0.000000000000e+00
0.000000000000e+00
0.000000000000e+00
0.000000000000e+00
0.000000000000e+00
0.000000000000e+00
0.000000000000e+00
0.000000000000e+00
0.000000000000e+00
0.000000000000e+00
0.000000000000e+00
9.999999960042e-02
2.999999996686e-01
6.999999998050e-01
1.000000000000e+00
1.000000000000e+00
1.000000000000e+00
1.000000000000e+00
1.000000000000e+00
1.000000000000e+00
1.000000000000e+00
1.000000000000e+00
1.000000000000e+00
1.000000000000e+00
1.000000000000e+00
1.000000000000e+00
1.000000000000e+00
1.000000000000e+00
1.000000000000e+00
1.000000000000e+00
1.000000000000e+00
1.000000000000e+00
1.000000000000e+00
1.000000000000e+00
1.000000000000e+00
1.000000000000e+00
1.000000000000e+00
1.000000000000e+00
1.000000000000e+00
1.000000000000e+00
1.000000000000e+00
1.000000000000e+00
1.000000000000e+00
1.000000000000e+00
1.000000000000e+00
1.000000000000e+00
1.000000000000e+00
1.000000000000e+00
1.000000000000e+00
1.000000000000e+00
1.000000000000e+00
1.000000000000e+00
1.000000000000e+00
9.999999995663e-01
8.999999999659e-01
6.999999998977e-01
2.999999997613e-01
0.000000000000e+00
0.000000000000e+00
0.000000000000e+00
0.000000000000e+00
0.000000000000e+00
0.000000000000e+00
0.000000000000e+00
0.000000000000e+00
0.000000000000e+00
0.000000000000e+00
0.000000000000e+00
0.000000000000e+00
0.000000000000e+00
0.000000000000e+00
0.000000000000e+00
0.000000000000e+00
0.000000000000e+00
0.000000000000e+00
0.000000000000e+00
0.000000000000e+00
0.000000000000e+00
0.000000000000e+00
0.000000000000e+00
0.000000000000e+00
0.000000000000e+00
0.000000000000e+00
0.000000000000e+00
0.000000000000e+00
0.000000000000e+00
0.000000000000e+00
0.000000000000e+00
0.000000000000e+00
0.000000000000e+00
0.000000000000e+00
0.000000000000e+00
0.000000000000e+00
0.000000000000e+00
0.000000000000e+00
0.000000000000e+00
0.000000000000e+00
9.999999960042e-02
2.999999988013e-01
6.999999989377e-01
9.999999994736e-01
1.000000000000e+00
1.000000000000e+00
1.000000000000e+00
1.000000000000e+00
1.000000000000e+00
1.000000000000e+00
1.000000000000e+00
1.000000000000e+00
1.000000000000e+00
1.000000000000e+00
1.000000000000e+00
1.000000000000e+00
1.000000000000e+00
1.000000000000e+00
1.000000000000e+00
1.000000000000e+00
1.000000000000e+00
1.000000000000e+00
1.000000000000e+00
1.000000000000e+00
1.000000000000e+00
1.000000000000e+00
1.000000000000e+00
1.000000000000e+00
1.000000000000e+00
1.000000000000e+00
1.000000000000e+00
1.000000000000e+00
1.000000000000e+00
1.000000000000e+00
1.000000000000e+00
1.000000000000e+00
1.000000000000e+00
1.000000000000e+00
1.000000000000e+00
1.000000000000e+00
1.000000000000e+00
1.000000000000e+00
9.999999995663e-01
8.999999999659e-01
7.000000007651e-01
3.000000006287e-01
0.000000000000e+00
0.000000000000e+00
0.000000000000e+00
0.000000000000e+00
0.000000000000e+00
0.000000000000e+00
0.000000000000e+00
0.000000000000e+00
0.000000000000e+00
0.000000000000e+00
0.000000000000e+00
0.000000000000e+00
0.000000000000e+00
0.000000000000e+00
0.000000000000e+00
0.000000000000e+00
0.000000000000e+00
0.000000000000e+00
0.000000000000e+00
0.000000000000e+00
0.000000000000e+00
0.000000000000e+00
0.000000000000e+00
0.000000000000e+00
0.000000000000e+00
0.000000000000e+00
0.000000000000e+00
0.000000000000e+00
0.000000000000e+00
0.000000000000e+00
0.000000000000e+00
0.000000000000e+00
0.000000000000e+00
0.000000000000e+00
0.000000000000e+00
0.000000000000e+00
0.000000000000e+00
0.000000000000e+00
0.000000000000e+00
0.000000000000e+00
</dep>
<dep tran.v(vout) time>
0.000000000000e+00
0.000000000000e+00
0.000000000000e+00
0.000000000000e+00
0.000000000000e+00
1.200000000000e+00
1.200000000000e+00
1.200000000000e+00
1.200000000000e+00
0.000000000000e+00
0.000000000000e+00
1.200000000000e+00
0.000000000000e+00
1.200000000000e+00
1.200000000000e+00
1.200000000000e+00
1.200000000000e+00
0.000000000000e+00
1.200000000000e+00
1.200000000000e+00
1.200000000000e+00
1.200000000000e+00
1.200000000000e+00
1.200000000000e+00
1.200000000000e+00
1.200000000000e+00
1.200000000000e+00
0.000000000000e+00
0.000000000000e+00
0.000000000000e+00
1.200000000000e+00
1.200000000000e+00
0.000000000000e+00
1.200000000000e+00
0.000000000000e+00
1.200000000000e+00
1.200000000000e+00
0.000000000000e+00
0.000000000000e+00
0.000000000000e+00
0.000000000000e+00
1.200000000000e+00
1.200000000000e+00
1.200000000000e+00
1.200000000000e+00
1.200000000000e+00
1.200000000000e+00
1.200000000000e+00
1.200000000000e+00
1.200000000000e+00
1.200000000000e+00
1.200000000000e+00
1.200000000000e+00
1.200000000000e+00
1.200000000000e+00
1.200000000000e+00
1.200000000000e+00
0.000000000000e+00
0.000000000000e+00
0.000000000000e+00
0.000000000000e+00
0.000000000000e+00
0.000000000000e+00
0.000000000000e+00
0.000000000000e+00
1.200000000000e+00
1.200000000000e+00
1.200000000000e+00
1.200000000000e+00
0.000000000000e+00
1.200000000000e+00
1.200000000000e+00
0.000000000000e+00
1.200000000000e+00
1.200000000000e+00
1.200000000000e+00
0.000000000000e+00
0.000000000000e+00
0.000000000000e+00
1.200000000000e+00
0.000000000000e+00
0.000000000000e+00
1.200000000000e+00
0.000000000000e+00
1.200000000000e+00
1.200000000000e+00
1.200000000000e+00
1.200000000000e+00
0.000000000000e+00
1.200000000000e+00
1.200000000000e+00
0.000000000000e+00
1.200000000000e+00
1.200000000000e+00
1.200000000000e+00
0.000000000000e+00
0.000000000000e+00
0.000000000000e+00
0.000000000000e+00
1.200000000000e+00
1.200000000000e+00
1.200000000000e+00
1.200000000000e+00
0.000000000000e+00
0.000000000000e+00
0.000000000000e+00
0.000000000000e+00
1.200000000000e+00
1.200000000000e+00
1.200000000000e+00
1.200000000000e+00
0.000000000000e+00
1.200000000000e+00
0.000000000000e+00
0.000000000000e+00
1.200000000000e+00
1.200000000000e+00
0.000000000000e+00
0.000000000000e+00
1.200000000000e+00
1.200000000000e+00
0.000000000000e+00
1.200000000000e+00
0.000000000000e+00
0.000000000000e+00
0.000000000000e+00
0.000000000000e+00
0.000000000000e+00
0.000000000000e+00
1.200000000000e+00
1.200000000000e+00
1.200000000000e+00
1.200000000000e+00
0.000000000000e+00
1.200000000000e+00
0.000000000000e+00
1.200000000000e+00
1.200000000000e+00
1.200000000000e+00
1.200000000000e+00
1.200000000000e+00
1.200000000000e+00
1.200000000000e+00
1.200000000000e+00
0.000000000000e+00
0.000000000000e+00
0.000000000000e+00
0.000000000000e+00
0.000000000000e+00
0.000000000000e+00
0.000000000000e+00
0.000000000000e+00
1.200000000000e+00
1.200000000000e+00
1.200000000000e+00
0.000000000000e+00
1.200000000000e+00
1.200000000000e+00
0.000000000000e+00
1.200000000000e+00
1.200000000000e+00
1.200000000000e+00
0.000000000000e+00
0.000000000000e+00
0.000000000000e+00
1.200000000000e+00
0.000000000000e+00
1.200000000000e+00
1.200000000000e+00
0.000000000000e+00
1.200000000000e+00
0.000000000000e+00
1.200000000000e+00
1.200000000000e+00
0.000000000000e+00
