<Qucs Dataset 25.1.2>
<indep dc1.i(pr1) 1>
1.332294000000e-03+j0.000000000000e+00
</indep>
<indep dc1.gm 1>
0.000000000000e+00+j0.000000000000e+00
</indep>
<indep sw1.v(v-sweep) 201>
1.000000000000e-01
1.055000000000e-01
1.110000000000e-01
1.165000000000e-01
1.220000000000e-01
1.275000000000e-01
1.330000000000e-01
1.385000000000e-01
1.440000000000e-01
1.495000000000e-01
1.550000000000e-01
1.605000000000e-01
1.660000000000e-01
1.715000000000e-01
1.770000000000e-01
1.825000000000e-01
1.880000000000e-01
1.935000000000e-01
1.990000000000e-01
2.045000000000e-01
2.100000000000e-01
2.155000000000e-01
2.210000000000e-01
2.265000000000e-01
2.320000000000e-01
2.375000000000e-01
2.430000000000e-01
2.485000000000e-01
2.540000000000e-01
2.595000000000e-01
2.650000000000e-01
2.705000000000e-01
2.760000000000e-01
2.815000000000e-01
2.870000000000e-01
2.925000000000e-01
2.980000000000e-01
3.035000000000e-01
3.090000000000e-01
3.145000000000e-01
3.200000000000e-01
3.255000000000e-01
3.310000000000e-01
3.365000000000e-01
3.420000000000e-01
3.475000000000e-01
3.530000000000e-01
3.585000000000e-01
3.640000000000e-01
3.695000000000e-01
3.750000000000e-01
3.805000000000e-01
3.860000000000e-01
3.915000000000e-01
3.970000000000e-01
4.025000000000e-01
4.080000000000e-01
4.135000000000e-01
4.190000000000e-01
4.245000000000e-01
4.300000000000e-01
4.355000000000e-01
4.410000000000e-01
4.465000000000e-01
4.520000000000e-01
4.575000000000e-01
4.630000000000e-01
4.685000000000e-01
4.740000000000e-01
4.795000000000e-01
4.850000000000e-01
4.905000000000e-01
4.960000000000e-01
5.015000000000e-01
5.070000000000e-01
5.125000000000e-01
5.180000000000e-01
5.235000000000e-01
5.290000000000e-01
5.345000000000e-01
5.400000000000e-01
5.455000000000e-01
5.510000000000e-01
5.565000000000e-01
5.620000000000e-01
5.675000000000e-01
5.730000000000e-01
5.785000000000e-01
5.840000000000e-01
5.895000000000e-01
5.950000000000e-01
6.005000000000e-01
6.060000000000e-01
6.115000000000e-01
6.170000000000e-01
6.225000000000e-01
6.280000000000e-01
6.335000000000e-01
6.390000000000e-01
6.445000000000e-01
6.500000000000e-01
6.555000000000e-01
6.610000000000e-01
6.665000000000e-01
6.720000000000e-01
6.775000000000e-01
6.830000000000e-01
6.885000000000e-01
6.940000000000e-01
6.995000000000e-01
7.050000000000e-01
7.105000000000e-01
7.160000000000e-01
7.215000000000e-01
7.270000000000e-01
7.325000000000e-01
7.380000000000e-01
7.435000000000e-01
7.490000000000e-01
7.545000000000e-01
7.600000000000e-01
7.655000000000e-01
7.710000000000e-01
7.765000000000e-01
7.820000000000e-01
7.875000000000e-01
7.930000000000e-01
7.985000000000e-01
8.040000000000e-01
8.095000000000e-01
8.150000000000e-01
8.205000000000e-01
8.260000000000e-01
8.315000000000e-01
8.370000000000e-01
8.425000000000e-01
8.480000000000e-01
8.535000000000e-01
8.590000000000e-01
8.645000000000e-01
8.700000000000e-01
8.755000000000e-01
8.810000000000e-01
8.865000000000e-01
8.920000000000e-01
8.975000000000e-01
9.030000000000e-01
9.085000000000e-01
9.140000000000e-01
9.195000000000e-01
9.250000000000e-01
9.305000000000e-01
9.360000000000e-01
9.415000000000e-01
9.470000000000e-01
9.525000000000e-01
9.580000000000e-01
9.635000000000e-01
9.690000000000e-01
9.745000000000e-01
9.800000000000e-01
9.855000000000e-01
9.910000000000e-01
9.965000000000e-01
1.002000000000e+00
1.007500000000e+00
1.013000000000e+00
1.018500000000e+00
1.024000000000e+00
1.029500000000e+00
1.035000000000e+00
1.040500000000e+00
1.046000000000e+00
1.051500000000e+00
1.057000000000e+00
1.062500000000e+00
1.068000000000e+00
1.073500000000e+00
1.079000000000e+00
1.084500000000e+00
1.090000000000e+00
1.095500000000e+00
1.101000000000e+00
1.106500000000e+00
1.112000000000e+00
1.117500000000e+00
1.123000000000e+00
1.128500000000e+00
1.134000000000e+00
1.139500000000e+00
1.145000000000e+00
1.150500000000e+00
1.156000000000e+00
1.161500000000e+00
1.167000000000e+00
1.172500000000e+00
1.178000000000e+00
1.183500000000e+00
1.189000000000e+00
1.194500000000e+00
1.200000000000e+00
</indep>
<dep sw1.i(pr1) sw1.v(v-sweep)>
2.687724975131e-06
3.133390686212e-06
3.653044562276e-06
4.258969313755e-06
4.965482771072e-06
5.789273257325e-06
6.749789384381e-06
7.869692904998e-06
9.175384434392e-06
1.069761324120e-05
1.247218383512e-05
1.454077374255e-05
1.695187864485e-05
1.976190291997e-05
2.303641552546e-05
2.685159299775e-05
3.129587299617e-05
3.647184310174e-05
4.249839024427e-05
4.951313582617e-05
5.767517989476e-05
6.716817400041e-05
7.820373594578e-05
9.102520960869e-05
1.059117583987e-04
1.231827605945e-04
1.432024477289e-04
1.663846924522e-04
1.931978095133e-04
2.241691831013e-04
2.598894776774e-04
3.010161314951e-04
3.482757788351e-04
4.024652082687e-04
4.644504528240e-04
5.351636387985e-04
6.155973082935e-04
7.067960879078e-04
8.098458054011e-04
9.258604463893e-04
1.055967664707e-03
1.201293864425e-03
1.362950096470e-03
1.542020094929e-03
1.739551670412e-03
1.956552367461e-03
2.193989812734e-03
2.452796607113e-03
2.733879052275e-03
3.038128555550e-03
3.366434303619e-03
3.719695766909e-03
4.098833772900e-03
4.504799209353e-03
4.938578810176e-03
5.401197862468e-03
5.893719996865e-03
6.417244453725e-03
6.972901348258e-03
7.561845499646e-03
8.185249363778e-03
8.844295540416e-03
9.540169235055e-03
1.027405096047e-02
1.104710967416e-02
1.186049647200e-02
1.271533889821e-02
1.361273588638e-02
1.455375331489e-02
1.553942013993e-02
1.657072505778e-02
1.764861364275e-02
1.877398590676e-02
1.994769422847e-02
2.117054160376e-02
2.244328017370e-02
2.376660999101e-02
2.514117799021e-02
2.654156726916e-02
2.802007584428e-02
2.955146455846e-02
3.113616086761e-02
3.277453601369e-02
3.446690467626e-02
3.621352466772e-02
3.801459665132e-02
3.987026386509e-02
4.178061183584e-02
4.374566806763e-02
4.576540169041e-02
4.783972305548e-02
4.996848326574e-02
5.215147363103e-02
5.438842504055e-02
5.667900724724e-02
5.902282806181e-02
6.141943245747e-02
6.386830158970e-02
6.636885173929e-02
6.892043319053e-02
7.152232906000e-02
7.417375409526e-02
7.687385346592e-02
7.962170157286e-02
8.241630090381e-02
8.525658096613e-02
8.814139732936e-02
9.106953081123e-02
9.403968684231e-02
9.705049504406e-02
1.001005090557e-01
1.031882066444e-01
1.063119901319e-01
1.094701871705e-01
1.126610518971e-01
1.158827664953e-01
1.191334431880e-01
1.224111266839e-01
1.257137970953e-01
1.290393733403e-01
1.323857170391e-01
1.357506369062e-01
1.391318936372e-01
1.425272052800e-01
1.459342530753e-01
1.493506877426e-01
1.527741361803e-01
1.562022085427e-01
1.596325056470e-01
1.630626266567e-01
1.664901769816e-01
1.699127763278e-01
1.733280668254e-01
1.767337211578e-01
1.801274506146e-01
1.835070129858e-01
1.868702202191e-01
1.902149457589e-01
1.935391314953e-01
1.968407942485e-01
2.001180317295e-01
2.033690279167e-01
2.065920578047e-01
2.097854914866e-01
2.129477975427e-01
2.160775457208e-01
2.191734089021e-01
2.222341643574e-01
2.252586943099e-01
2.282459858284e-01
2.311951300828e-01
2.341053210026e-01
2.369758533835e-01
2.398061204919e-01
2.425956112212e-01
2.453439068557e-01
2.480506774977e-01
2.507156782153e-01
2.533387449648e-01
2.559197903416e-01
2.584587992101e-01
2.609558242590e-01
2.634109815256e-01
2.658244459301e-01
2.681964468517e-01
2.705272637820e-01
2.728172220781e-01
2.750666888421e-01
2.772760689423e-01
2.794458011949e-01
2.815763547141e-01
2.836682254429e-01
2.857219328671e-01
2.877380169190e-01
2.897170350684e-01
2.916595596033e-01
2.935661750954e-01
2.954374760471e-01
2.972740647162e-01
2.990765491101e-01
3.008455411450e-01
3.025816549607e-01
3.042855053860e-01
3.059577065441e-01
3.075988705920e-01
3.092096065854e-01
3.107905194606e-01
3.123422091265e-01
3.138652696585e-01
3.153602885875e-01
3.168278462764e-01
3.182685153775e-01
3.196828603649e-01
3.210714371352e-01
3.224347926708e-01
3.237734647606e-01
3.250879817726e-01
3.263788624749e-01
3.276466158987e-01
3.288917412402e-01
3.301147277986e-01
</dep>
<dep sw1.i(gm) sw1.v(v-sweep)>
7.430393270366e-05
8.775632568100e-05
1.023253291392e-04
1.193125637077e-04
1.391185393955e-04
1.622096916585e-04
1.891290585961e-04
2.205086401959e-04
2.570836661936e-04
2.997090354481e-04
3.493782262286e-04
4.072449818179e-04
4.746481066772e-04
5.531397160106e-04
6.445172793044e-04
7.508597693505e-04
8.745681903122e-04
1.018410658431e-03
1.185572065410e-03
1.379708148780e-03
1.605003469604e-03
1.866232367834e-03
2.168821418054e-03
2.518911131556e-03
2.923413725078e-03
3.390062665496e-03
3.927448349892e-03
4.545032888553e-03
5.253135513008e-03
6.062878923271e-03
6.986086216510e-03
8.035118286448e-03
9.222643342516e-03
1.056133399806e-02
1.206349368359e-02
1.374062322380e-02
1.560294991876e-02
1.765895428172e-02
1.991494167910e-02
2.237471448183e-02
2.503940163866e-02
2.790749379581e-02
3.097511186341e-02
3.423650672119e-02
3.768475204780e-02
4.131255839226e-02
4.511311269504e-02
4.908083995742e-02
5.321199531122e-02
5.750502284889e-02
6.196065557776e-02
6.658176993390e-02
7.137304022109e-02
7.634045793316e-02
8.149078664633e-02
8.683101697086e-02
9.236787193164e-02
9.810739558024e-02
1.040546405371e-01
1.102134559558e-01
1.165863673420e-01
1.231745337520e-01
1.299777654592e-01
1.369945853718e-01
1.442223192285e-01
1.516572021864e-01
1.592944922165e-01
1.671285833332e-01
1.751531139571e-01
1.833610675348e-01
1.917448638926e-01
2.002964408155e-01
2.090073259738e-01
2.178686997263e-01
2.268714495652e-01
2.360062170224e-01
2.452634378643e-01
2.522688434674e-01
2.617179867336e-01
2.736270262988e-01
2.832804566648e-01
2.930064959303e-01
3.027948916947e-01
3.126353321835e-01
3.225174522780e-01
3.324308361250e-01
3.423650167750e-01
3.523094729574e-01
3.622536231436e-01
3.721868170787e-01
3.820983250310e-01
3.919773250514e-01
4.018128886212e-01
4.115939651126e-01
4.213093655731e-01
4.309477463903e-01
4.404975934510e-01
4.499472074469e-01
4.592846909953e-01
4.684979382594e-01
4.775746277182e-01
4.865022187393e-01
4.952679525332e-01
5.038588580185e-01
5.122617630606e-01
5.204633114569e-01
5.284499859703e-01
5.362081376035e-01
5.437240212403e-01
5.509838376722e-01
5.579737819560e-01
5.646800979620e-01
5.710891388779e-01
5.771874333695e-01
5.829617570103e-01
5.883992085048e-01
5.934872901497e-01
5.982139918900e-01
6.025678782269e-01
6.065381771466e-01
6.101148701307e-01
6.132887822192e-01
6.160516710001e-01
6.183963133131e-01
6.203165883739e-01
6.218075559756e-01
6.228655283918e-01
6.234881345921e-01
6.236743754111e-01
6.234246683732e-01
6.227408809825e-01
6.216263514338e-01
6.200858958628e-01
6.181258014948e-01
6.157538052955e-01
6.129790579920e-01
6.098120736332e-01
6.062646651557e-01
6.023498667289e-01
5.980818438969e-01
5.934757928388e-01
5.885478302728e-01
5.833148756944e-01
5.777945278056e-01
5.720049370501e-01
5.659646762170e-01
5.596926110349e-01
5.532077726156e-01
5.465292334861e-01
5.396759887946e-01
5.326668440753e-01
5.255203107517e-01
5.182545103527e-01
5.108870881364e-01
5.034351366304e-01
4.959151293735e-01
4.883428648910e-01
4.807334208070e-01
4.731011178013e-01
4.654594929665e-01
4.578212820375e-01
4.501984098538e-01
4.426019883481e-01
4.350423213280e-01
4.275289152914e-01
4.200704954922e-01
4.126750265217e-01
4.053497366779e-01
3.981011454191e-01
3.909350932714e-01
3.838567735862e-01
3.768707656045e-01
3.699810683488e-01
3.631911349037e-01
3.565039067114e-01
3.499218475508e-01
3.434469769368e-01
3.370809026969e-01
3.308248525494e-01
3.246797045240e-01
3.186460161227e-01
3.127240521308e-01
3.069138110189e-01
3.012150499171e-01
2.956273081354e-01
2.901499292403e-01
2.847820817109e-01
2.795227781975e-01
2.743708934223e-01
2.693251807835e-01
2.643842876935e-01
2.595467697262e-01
2.548111036250e-01
2.501756992256e-01
2.456389103726e-01
2.411990448738e-01
2.368543735589e-01
2.326031385059e-01
2.284435604842e-01
2.243738456768e-01
2.203486125968e-01
</dep>
