<Qucs Dataset 25.1.1>
<indep time 507>
0.000000000000e+00
2.004010000000e-13
4.008020000000e-13
8.016040000000e-13
1.603208000000e-12
3.206416000000e-12
6.412832000000e-12
1.282566400000e-11
2.565132800000e-11
4.569142800000e-11
6.573152800000e-11
8.577162800000e-11
1.058117280000e-10
1.258518280000e-10
1.458919280000e-10
1.659320280000e-10
1.859721280000e-10
2.060122280000e-10
2.260523280000e-10
2.460924280000e-10
2.661325280000e-10
2.861726280000e-10
3.062127280000e-10
3.262528280000e-10
3.462929280000e-10
3.663330280000e-10
3.863731280000e-10
4.064132280000e-10
4.264533280000e-10
4.464934280000e-10
4.665335280000e-10
4.865736280000e-10
5.066137280000e-10
5.266538280000e-10
5.466939280000e-10
5.667340280000e-10
5.867741280000e-10
6.068142280000e-10
6.268543280000e-10
6.468944280000e-10
6.669345280000e-10
6.869746280000e-10
7.070147280000e-10
7.270548280000e-10
7.470949280000e-10
7.671350280000e-10
7.871751280000e-10
8.072152280000e-10
8.272553280000e-10
8.472954280000e-10
8.673355280000e-10
8.873756280000e-10
9.074157280000e-10
9.274558280000e-10
9.474959280000e-10
9.675360280000e-10
9.875761280000e-10
1.007616228000e-09
1.027656328000e-09
1.047696428000e-09
1.067736528000e-09
1.087776628000e-09
1.107816728000e-09
1.127856828000e-09
1.147896928000e-09
1.167937028000e-09
1.187977128000e-09
1.208017228000e-09
1.228057328000e-09
1.248097428000e-09
1.268137528000e-09
1.288177628000e-09
1.308217728000e-09
1.328257828000e-09
1.348297928000e-09
1.368338028000e-09
1.388378128000e-09
1.408418228000e-09
1.428458328000e-09
1.448498428000e-09
1.468538528000e-09
1.488578628000e-09
1.508618728000e-09
1.528658828000e-09
1.548698928000e-09
1.568739028000e-09
1.588779128000e-09
1.608819228000e-09
1.628859328000e-09
1.648899428000e-09
1.668939528000e-09
1.688979628000e-09
1.709019728000e-09
1.729059828000e-09
1.749099928000e-09
1.769140028000e-09
1.789180128000e-09
1.809220228000e-09
1.829260328000e-09
1.849300428000e-09
1.869340528000e-09
1.889380628000e-09
1.909420728000e-09
1.929460828000e-09
1.949500928000e-09
1.969541028000e-09
1.989581128000e-09
2.009621228000e-09
2.029661328000e-09
2.049701428000e-09
2.069741528000e-09
2.089781628000e-09
2.109821728000e-09
2.129861828000e-09
2.149901928000e-09
2.169942028000e-09
2.189982128000e-09
2.210022228000e-09
2.230062328000e-09
2.250102428000e-09
2.270142528000e-09
2.290182628000e-09
2.310222728000e-09
2.330262828000e-09
2.350302928000e-09
2.370343028000e-09
2.390383128000e-09
2.410423228000e-09
2.430463328000e-09
2.450503428000e-09
2.470543528000e-09
2.490583628000e-09
2.510623728000e-09
2.530663828000e-09
2.550703928000e-09
2.570744028000e-09
2.590784128000e-09
2.610824228000e-09
2.630864328000e-09
2.650904428000e-09
2.670944528000e-09
2.690984628000e-09
2.711024728000e-09
2.731064828000e-09
2.751104928000e-09
2.771145028000e-09
2.791185128000e-09
2.811225228000e-09
2.831265328000e-09
2.851305428000e-09
2.871345528000e-09
2.891385628000e-09
2.911425728000e-09
2.931465828000e-09
2.951505928000e-09
2.971546028000e-09
2.991586128000e-09
3.011626228000e-09
3.031666328000e-09
3.051706428000e-09
3.071746528000e-09
3.091786628000e-09
3.111826728000e-09
3.131866828000e-09
3.151906928000e-09
3.171947028000e-09
3.191987128000e-09
3.212027228000e-09
3.232067328000e-09
3.252107428000e-09
3.272147528000e-09
3.292187628000e-09
3.312227728000e-09
3.332267828000e-09
3.352307928000e-09
3.372348028000e-09
3.392388128000e-09
3.412428228000e-09
3.432468328000e-09
3.452508428000e-09
3.472548528000e-09
3.492588628000e-09
3.512628728000e-09
3.532668828000e-09
3.552708928000e-09
3.572749028000e-09
3.592789128000e-09
3.612829228000e-09
3.632869328000e-09
3.652909428000e-09
3.672949528000e-09
3.692989628000e-09
3.713029728000e-09
3.733069828000e-09
3.753109928000e-09
3.773150028000e-09
3.793190128000e-09
3.813230228000e-09
3.833270328000e-09
3.853310428000e-09
3.873350528000e-09
3.893390628000e-09
3.913430728000e-09
3.933470828000e-09
3.953510928000e-09
3.973551028000e-09
3.993591128000e-09
4.013631228000e-09
4.033671328000e-09
4.053711428000e-09
4.073751528000e-09
4.093791628000e-09
4.113831728000e-09
4.133871828000e-09
4.153911928000e-09
4.173952028000e-09
4.193992128000e-09
4.214032228000e-09
4.234072328000e-09
4.254112428000e-09
4.274152528000e-09
4.294192628000e-09
4.314232728000e-09
4.334272828000e-09
4.354312928000e-09
4.374353028000e-09
4.394393128000e-09
4.414433228000e-09
4.434473328000e-09
4.454513428000e-09
4.474553528000e-09
4.494593628000e-09
4.514633728000e-09
4.534673828000e-09
4.554713928000e-09
4.574754028000e-09
4.594794128000e-09
4.614834228000e-09
4.634874328000e-09
4.654914428000e-09
4.674954528000e-09
4.694994628000e-09
4.715034728000e-09
4.735074828000e-09
4.755114928000e-09
4.775155028000e-09
4.795195128000e-09
4.815235228000e-09
4.835275328000e-09
4.855315428000e-09
4.875355528000e-09
4.895395628000e-09
4.915435728000e-09
4.935475828000e-09
4.955515928000e-09
4.975556028000e-09
4.995596128000e-09
5.015636228000e-09
5.035676328000e-09
5.055716428000e-09
5.075756528000e-09
5.095796628000e-09
5.115836728000e-09
5.135876828000e-09
5.155916928000e-09
5.175957028000e-09
5.195997128000e-09
5.216037228000e-09
5.236077328000e-09
5.256117428000e-09
5.276157528000e-09
5.296197628000e-09
5.316237728000e-09
5.336277828000e-09
5.356317928000e-09
5.376358028000e-09
5.396398128000e-09
5.416438228000e-09
5.436478328000e-09
5.456518428000e-09
5.476558528000e-09
5.496598628000e-09
5.516638728000e-09
5.536678828000e-09
5.556718928000e-09
5.576759028000e-09
5.596799128000e-09
5.616839228000e-09
5.636879328000e-09
5.656919428000e-09
5.676959528000e-09
5.696999628000e-09
5.717039728000e-09
5.737079828000e-09
5.757119928000e-09
5.777160028000e-09
5.797200128000e-09
5.817240228000e-09
5.837280328000e-09
5.857320428000e-09
5.877360528000e-09
5.897400628000e-09
5.917440728000e-09
5.937480828000e-09
5.957520928000e-09
5.977561028000e-09
5.997601128000e-09
6.017641228000e-09
6.037681328000e-09
6.057721428000e-09
6.077761528000e-09
6.097801628000e-09
6.117841728000e-09
6.137881828000e-09
6.157921928000e-09
6.177962028000e-09
6.198002128000e-09
6.218042228000e-09
6.238082328000e-09
6.258122428000e-09
6.278162528000e-09
6.298202628000e-09
6.318242728000e-09
6.338282828000e-09
6.358322928000e-09
6.378363028000e-09
6.398403128000e-09
6.418443228000e-09
6.438483328000e-09
6.458523428000e-09
6.478563528000e-09
6.498603628000e-09
6.518643728000e-09
6.538683828000e-09
6.558723928000e-09
6.578764028000e-09
6.598804128000e-09
6.618844228000e-09
6.638884328000e-09
6.658924428000e-09
6.678964528000e-09
6.699004628000e-09
6.719044728000e-09
6.739084828000e-09
6.759124928000e-09
6.779165028000e-09
6.799205128000e-09
6.819245228000e-09
6.839285328000e-09
6.859325428000e-09
6.879365528000e-09
6.899405628000e-09
6.919445728000e-09
6.939485828000e-09
6.959525928000e-09
6.979566028000e-09
6.999606128000e-09
7.019646228000e-09
7.039686328000e-09
7.059726428000e-09
7.079766528000e-09
7.099806628000e-09
7.119846728000e-09
7.139886828000e-09
7.159926928000e-09
7.179967028000e-09
7.200007128000e-09
7.220047228000e-09
7.240087328000e-09
7.260127428000e-09
7.280167528000e-09
7.300207628000e-09
7.320247728000e-09
7.340287828000e-09
7.360327928000e-09
7.380368028000e-09
7.400408128000e-09
7.420448228000e-09
7.440488328000e-09
7.460528428000e-09
7.480568528000e-09
7.500608628000e-09
7.520648728000e-09
7.540688828000e-09
7.560728928000e-09
7.580769028000e-09
7.600809128000e-09
7.620849228000e-09
7.640889328000e-09
7.660929428000e-09
7.680969528000e-09
7.701009628000e-09
7.721049728000e-09
7.741089828000e-09
7.761129928000e-09
7.781170028000e-09
7.801210128000e-09
7.821250228000e-09
7.841290328000e-09
7.861330428000e-09
7.881370528000e-09
7.901410628000e-09
7.921450728000e-09
7.941490828000e-09
7.961530928000e-09
7.981571028000e-09
8.001611128000e-09
8.021651228000e-09
8.041691328000e-09
8.061731428000e-09
8.081771528000e-09
8.101811628000e-09
8.121851728000e-09
8.141891828000e-09
8.161931928000e-09
8.181972028000e-09
8.202012128000e-09
8.222052228000e-09
8.242092328000e-09
8.262132428000e-09
8.282172528000e-09
8.302212628000e-09
8.322252728000e-09
8.342292828000e-09
8.362332928000e-09
8.382373028000e-09
8.402413128000e-09
8.422453228000e-09
8.442493328000e-09
8.462533428000e-09
8.482573528000e-09
8.502613628000e-09
8.522653728000e-09
8.542693828000e-09
8.562733928000e-09
8.582774028000e-09
8.602814128000e-09
8.622854228000e-09
8.642894328000e-09
8.662934428000e-09
8.682974528000e-09
8.703014628000e-09
8.723054728000e-09
8.743094828000e-09
8.763134928000e-09
8.783175028000e-09
8.803215128000e-09
8.823255228000e-09
8.843295328000e-09
8.863335428000e-09
8.883375528000e-09
8.903415628000e-09
8.923455728000e-09
8.943495828000e-09
8.963535928000e-09
8.983576028000e-09
9.003616128000e-09
9.023656228000e-09
9.043696328000e-09
9.063736428000e-09
9.083776528000e-09
9.103816628000e-09
9.123856728000e-09
9.143896828000e-09
9.163936928000e-09
9.183977028000e-09
9.204017128000e-09
9.224057228000e-09
9.244097328000e-09
9.264137428000e-09
9.284177528000e-09
9.304217628000e-09
9.324257728000e-09
9.344297828000e-09
9.364337928000e-09
9.384378028000e-09
9.404418128000e-09
9.424458228000e-09
9.444498328000e-09
9.464538428000e-09
9.484578528000e-09
9.504618628000e-09
9.524658728000e-09
9.544698828000e-09
9.564738928000e-09
9.584779028000e-09
9.604819128000e-09
9.624859228000e-09
9.644899328000e-09
9.664939428000e-09
9.684979528000e-09
9.705019628000e-09
9.725059728000e-09
9.745099828000e-09
9.765139928000e-09
9.785180028000e-09
9.805220128000e-09
9.825260228000e-09
9.845300328000e-09
9.865340428000e-09
9.885380528000e-09
9.905420628000e-09
9.925460728000e-09
9.945500828000e-09
9.965540928000e-09
9.985581028000e-09
1.000000000000e-08
</indep>
<dep tran.v(vint) time>
0.000000000000e+00
4.008020000000e-05
8.016040000000e-05
1.603208000000e-04
3.206416000000e-04
6.412832000000e-04
1.282566400000e-03
2.565132800000e-03
5.130265600000e-03
9.138285600000e-03
1.314630560000e-02
1.715432560000e-02
2.116234560000e-02
2.517036560000e-02
2.917838560000e-02
3.318640560000e-02
3.719442560000e-02
4.120244560000e-02
4.521046560000e-02
4.921848560000e-02
5.322650560000e-02
5.723452560000e-02
6.124254560000e-02
6.525056560000e-02
6.925858560000e-02
7.326660560000e-02
7.727462560000e-02
8.128264560000e-02
8.529066560000e-02
8.929868560000e-02
9.330670560000e-02
9.731472560000e-02
1.013227456000e-01
1.053307656000e-01
1.093387856000e-01
1.133468056000e-01
1.173548256000e-01
1.213628456000e-01
1.253708656000e-01
1.293788856000e-01
1.333869056000e-01
1.373949256000e-01
1.414029456000e-01
1.454109656000e-01
1.494189856000e-01
1.534270056000e-01
1.574350256000e-01
1.614430456000e-01
1.654510656000e-01
1.694590856000e-01
1.734671056000e-01
1.774751256000e-01
1.814831456000e-01
1.854911656000e-01
1.894991856000e-01
1.935072056000e-01
1.975152256000e-01
2.015232456000e-01
2.055312656000e-01
2.095392856000e-01
2.135473056000e-01
2.175553256000e-01
2.215633456000e-01
2.255713656000e-01
2.295793856000e-01
2.335874056000e-01
2.375954256000e-01
2.416034456000e-01
2.456114656000e-01
2.496194856000e-01
2.536275056000e-01
2.576355256000e-01
2.616435456000e-01
2.656515656000e-01
2.696595856000e-01
2.736676056000e-01
2.776756256000e-01
2.816836456000e-01
2.856916656000e-01
2.896996856000e-01
2.937077056000e-01
2.977157256000e-01
3.017237456000e-01
3.057317656000e-01
3.097397856000e-01
3.137478056000e-01
3.177558256000e-01
3.217638456000e-01
3.257718656000e-01
3.297798856000e-01
3.337879056000e-01
3.377959256000e-01
3.418039456000e-01
3.458119656000e-01
3.498199856000e-01
3.538280056000e-01
3.578360256000e-01
3.618440456000e-01
3.658520656000e-01
3.698600856000e-01
3.738681056000e-01
3.778761256000e-01
3.818841456000e-01
3.858921656000e-01
3.899001856000e-01
3.939082056000e-01
3.979162256000e-01
4.019242456000e-01
4.059322656000e-01
4.099402856000e-01
4.139483056000e-01
4.179563256000e-01
4.219643456000e-01
4.259723656000e-01
4.299803856000e-01
4.339884056000e-01
4.379964256000e-01
4.420044456000e-01
4.460124656000e-01
4.500204856000e-01
4.540285056000e-01
4.580365256000e-01
4.620445456000e-01
4.660525656000e-01
4.700605856000e-01
4.740686056000e-01
4.780766256000e-01
4.820846456000e-01
4.860926656000e-01
4.901006856000e-01
4.941087056000e-01
4.981167256000e-01
5.021247456000e-01
5.061327656000e-01
5.101407856000e-01
5.141488056000e-01
5.181568256000e-01
5.221648456000e-01
5.261728656000e-01
5.301808856000e-01
5.341889056000e-01
5.381969256000e-01
5.422049456000e-01
5.462129656000e-01
5.502209856000e-01
5.542290056000e-01
5.582370256000e-01
5.622450456000e-01
5.662530656000e-01
5.702610856000e-01
5.742691056000e-01
5.782771256000e-01
5.822851456000e-01
5.862931656000e-01
5.903011856000e-01
5.943092056000e-01
5.983172256000e-01
6.023252456000e-01
6.063332656000e-01
6.103412856000e-01
6.143493056000e-01
6.183573256000e-01
6.223653456000e-01
6.263733656000e-01
6.303813856000e-01
6.343894056000e-01
6.383974256000e-01
6.424054456000e-01
6.464134656000e-01
6.504214856000e-01
6.544295056000e-01
6.584375256000e-01
6.624455456000e-01
6.664535656000e-01
6.704615856000e-01
6.744696056000e-01
6.784776256000e-01
6.824856456000e-01
6.864936656000e-01
6.905016856000e-01
6.945097056000e-01
6.985177256000e-01
7.025257456000e-01
7.065337656000e-01
7.105417856000e-01
7.145498056000e-01
7.185578256000e-01
7.225658456000e-01
7.265738656000e-01
7.305818856000e-01
7.345899056000e-01
7.385979256000e-01
7.426059456000e-01
7.466139656000e-01
7.506219856000e-01
7.546300056000e-01
7.586380256000e-01
7.626460456000e-01
7.666540656000e-01
7.706620856000e-01
7.746701056000e-01
7.786781256000e-01
7.826861456000e-01
7.866941656000e-01
7.907021856000e-01
7.947102056000e-01
7.987182256000e-01
8.027262456000e-01
8.067342656000e-01
8.107422856000e-01
8.147503056000e-01
8.187583256000e-01
8.227663456000e-01
8.267743656000e-01
8.307823856000e-01
8.347904056000e-01
8.387984256000e-01
8.428064456000e-01
8.468144656000e-01
8.508224856000e-01
8.548305056000e-01
8.588385256000e-01
8.628465456000e-01
8.668545656000e-01
8.708625856000e-01
8.748706056000e-01
8.788786256000e-01
8.828866456000e-01
8.868946656000e-01
8.909026856000e-01
8.949107056000e-01
8.989187256000e-01
9.029267456000e-01
9.069347656000e-01
9.109427856000e-01
9.149508056000e-01
9.189588256000e-01
9.229668456000e-01
9.269748656000e-01
9.309828856000e-01
9.349909056000e-01
9.389989256000e-01
9.430069456000e-01
9.470149656000e-01
9.510229856000e-01
9.550310056000e-01
9.590390256000e-01
9.630470456000e-01
9.670550656000e-01
9.710630856000e-01
9.750711056000e-01
9.790791256000e-01
9.830871456000e-01
9.870951656000e-01
9.911031856000e-01
9.951112056000e-01
9.991192256000e-01
1.003127245600e+00
1.007135265600e+00
1.011143285600e+00
1.015151305600e+00
1.019159325600e+00
1.023167345600e+00
1.027175365600e+00
1.031183385600e+00
1.035191405600e+00
1.039199425600e+00
1.043207445600e+00
1.047215465600e+00
1.051223485600e+00
1.055231505600e+00
1.059239525600e+00
1.063247545600e+00
1.067255565600e+00
1.071263585600e+00
1.075271605600e+00
1.079279625600e+00
1.083287645600e+00
1.087295665600e+00
1.091303685600e+00
1.095311705600e+00
1.099319725600e+00
1.103327745600e+00
1.107335765600e+00
1.111343785600e+00
1.115351805600e+00
1.119359825600e+00
1.123367845600e+00
1.127375865600e+00
1.131383885600e+00
1.135391905600e+00
1.139399925600e+00
1.143407945600e+00
1.147415965600e+00
1.151423985600e+00
1.155432005600e+00
1.159440025600e+00
1.163448045600e+00
1.167456065600e+00
1.171464085600e+00
1.175472105600e+00
1.179480125600e+00
1.183488145600e+00
1.187496165600e+00
1.191504185600e+00
1.195512205600e+00
1.199520225600e+00
1.203528245600e+00
1.207536265600e+00
1.211544285600e+00
1.215552305600e+00
1.219560325600e+00
1.223568345600e+00
1.227576365600e+00
1.231584385600e+00
1.235592405600e+00
1.239600425600e+00
1.243608445600e+00
1.247616465600e+00
1.251624485600e+00
1.255632505600e+00
1.259640525600e+00
1.263648545600e+00
1.267656565600e+00
1.271664585600e+00
1.275672605600e+00
1.279680625600e+00
1.283688645600e+00
1.287696665600e+00
1.291704685600e+00
1.295712705600e+00
1.299720725600e+00
1.303728745600e+00
1.307736765600e+00
1.311744785600e+00
1.315752805600e+00
1.319760825600e+00
1.323768845600e+00
1.327776865600e+00
1.331784885600e+00
1.335792905600e+00
1.339800925600e+00
1.343808945600e+00
1.347816965600e+00
1.351824985600e+00
1.355833005600e+00
1.359841025600e+00
1.363849045600e+00
1.367857065600e+00
1.371865085600e+00
1.375873105600e+00
1.379881125600e+00
1.383889145600e+00
1.387897165600e+00
1.391905185600e+00
1.395913205600e+00
1.399921225600e+00
1.403929245600e+00
1.407937265600e+00
1.411945285600e+00
1.415953305600e+00
1.419961325600e+00
1.423969345600e+00
1.427977365600e+00
1.431985385600e+00
1.435993405600e+00
1.440001425600e+00
1.444009445600e+00
1.448017465600e+00
1.452025485600e+00
1.456033505600e+00
1.460041525600e+00
1.464049545600e+00
1.468057565600e+00
1.472065585600e+00
1.476073605600e+00
1.480081625600e+00
1.484089645600e+00
1.488097665600e+00
1.492105685600e+00
1.496113705600e+00
1.500121725600e+00
1.504129745600e+00
1.508137765600e+00
1.512145785600e+00
1.516153805600e+00
1.520161825600e+00
1.524169845600e+00
1.528177865600e+00
1.532185885600e+00
1.536193905600e+00
1.540201925600e+00
1.544209945600e+00
1.548217965600e+00
1.552225985600e+00
1.556234005600e+00
1.560242025600e+00
1.564250045600e+00
1.568258065600e+00
1.572266085600e+00
1.576274105600e+00
1.580282125600e+00
1.584290145600e+00
1.588298165600e+00
1.592306185600e+00
1.596314205600e+00
1.600322225600e+00
1.604330245600e+00
1.608338265600e+00
1.612346285600e+00
1.616354305600e+00
1.620362325600e+00
1.624370345600e+00
1.628378365600e+00
1.632386385600e+00
1.636394405600e+00
1.640402425600e+00
1.644410445600e+00
1.648418465600e+00
1.652426485600e+00
1.656434505600e+00
1.660442525600e+00
1.664450545600e+00
1.668458565600e+00
1.672466585600e+00
1.676474605600e+00
1.680482625600e+00
1.684490645600e+00
1.688498665600e+00
1.692506685600e+00
1.696514705600e+00
1.700522725600e+00
1.704530745600e+00
1.708538765600e+00
1.712546785600e+00
1.716554805600e+00
1.720562825600e+00
1.724570845600e+00
1.728578865600e+00
1.732586885600e+00
1.736594905600e+00
1.740602925600e+00
1.744610945600e+00
1.748618965600e+00
1.752626985600e+00
1.756635005600e+00
1.760643025600e+00
1.764651045600e+00
1.768659065600e+00
1.772667085600e+00
1.776675105600e+00
1.780683125600e+00
1.784691145600e+00
1.788699165600e+00
1.792707185600e+00
1.796715205600e+00
1.800723225600e+00
1.804731245600e+00
1.808739265600e+00
1.812747285600e+00
1.816755305600e+00
1.820763325600e+00
1.824771345600e+00
1.828779365600e+00
1.832787385600e+00
1.836795405600e+00
1.840803425600e+00
1.844811445600e+00
1.848819465600e+00
1.852827485600e+00
1.856835505600e+00
1.860843525600e+00
1.864851545600e+00
1.868859565600e+00
1.872867585600e+00
1.876875605600e+00
1.880883625600e+00
1.884891645600e+00
1.888899665600e+00
1.892907685600e+00
1.896915705600e+00
1.900923725600e+00
1.904931745600e+00
1.908939765600e+00
1.912947785600e+00
1.916955805600e+00
1.920963825600e+00
1.924971845600e+00
1.928979865600e+00
1.932987885600e+00
1.936995905600e+00
1.941003925600e+00
1.945011945600e+00
1.949019965600e+00
1.953027985600e+00
1.957036005600e+00
1.961044025600e+00
1.965052045600e+00
1.969060065600e+00
1.973068085600e+00
1.977076105600e+00
1.981084125600e+00
1.985092145600e+00
1.989100165600e+00
1.993108185600e+00
1.997116205600e+00
2.000000000000e+00
</dep>
<dep tran.v(vout) time>
1.200000000000e+00
1.200000000000e+00
1.200000000000e+00
1.200000000000e+00
1.200000000000e+00
1.200000000000e+00
1.200000000000e+00
1.200000000000e+00
1.200000000000e+00
1.200000000000e+00
1.200000000000e+00
1.200000000000e+00
1.200000000000e+00
1.200000000000e+00
1.200000000000e+00
1.200000000000e+00
1.200000000000e+00
1.200000000000e+00
1.200000000000e+00
1.200000000000e+00
1.200000000000e+00
1.200000000000e+00
1.200000000000e+00
1.200000000000e+00
1.200000000000e+00
1.200000000000e+00
1.200000000000e+00
1.200000000000e+00
1.200000000000e+00
1.200000000000e+00
1.200000000000e+00
1.200000000000e+00
1.200000000000e+00
