#   Hz   S  RI   R   50
!
0.0 -0.8376412813357594 0.0
75000000.0 -0.8374495462386052 0.01788103483510391
150000000.0 -0.8368746305985652 0.03574957993142901
225000000.0 -0.8359174020660075 0.053593180655816426
300000000.0 -0.8345793023899574 0.07139945235838728
375000000.0 -0.8328623409555268 0.08915611479685713
450000000.0 -0.8307690858153669 0.10685102588722448
525000000.0 -0.8283026522928536 0.12447221456809922
600000000.0 -0.8254666892550477 0.14200791257579848
675000000.0 -0.8222653631724441 0.1594465849393432
750000000.0 -0.8187033400998945 0.17677695901844395
825000000.0 -0.8147857657286609 0.1939880519232297
900000000.0 -0.8105182436731269 0.21106919617160047
975000000.0 -0.805906812167142 0.22801006345841196
1050000000.0 -0.8009579193542131 0.24480068642990027
1125000000.0 -0.7956783973626895 0.2614314783766115
1200000000.0 -0.7900754353617268 0.2778932507782298
1275000000.0 -0.7841565517961867 0.2941772286539139
1350000000.0 -0.777929565998749 0.31027506369167784
1425000000.0 -0.7714025693755211 0.32617884514982814
1500000000.0 -0.7645838963574232 0.34188110854218995
1575000000.0 -0.7574820953037393 0.35737484213661713
1650000000.0 -0.7501058995366717 0.37265349131294406
1725000000.0 -0.7424641986766501 0.38771096084187145
1800000000.0 -0.7345660104377753 0.40254161516021225
1875000000.0 -0.7264204530312955 0.41714027673032744
1950000000.0 -0.7180367183126678 0.43150222258241044
2025000000.0 -0.709424045794704 0.4456231791474575
2100000000.0 -0.7005916976358368 0.4594993154963293
2175000000.0 -0.6915489346987626 0.47312723510623556
2250000000.0 -0.6823049937608978 0.4865039662803176
2325000000.0 -0.6728690659443568 0.49962695134882884
2400000000.0 -0.6632502764196904 0.5124940347817898
2475000000.0 -0.6534576654245595 0.5251034503429948
2550000000.0 -0.6435001706260013 0.5374538074140345
2625000000.0 -0.6333866108430365 0.5495440766146106
2700000000.0 -0.6231256711352096 0.5613735748420361
2775000000.0 -0.6127258892522834 0.5729419498485283
2850000000.0 -0.6021956434307895 0.5842491644698609
2925000000.0 -0.5915431415144934 0.5952954806132349
3000000000.0 -0.5807764113681161 0.6060814431060181
3075000000.0 -0.5699032925468114 0.6166078635003881
3150000000.0 -0.5589314291780091 0.6268758039219741
3225000000.0 -0.5478682640071737 0.6368865610435104
3300000000.0 -0.5367210335548689 0.6466416502572925
3375000000.0 -0.5254967643291522 0.6561427901130048
3450000000.0 -0.5142022700347499 0.6653918870803667
3525000000.0 -0.5028441497185964 0.6743910206890049
3600000000.0 -0.4914287867901547 0.6831424290911625
3675000000.0 -0.479962348854362 0.6916484950862808
3750000000.0 -0.4684507882950458 0.699911732640215
3825000000.0 -0.4568998435471696 0.707934773925885
3900000000.0 -0.44531504099719726 0.7157203569065431
3975000000.0 -0.43370169745222764 0.7232713134776256
4050000000.0 -0.42206492312021254 0.7305905581782575
4125000000.0 -0.4104096250455371 0.7376810774790256
4200000000.0 -0.39874051094644103 0.7445459196485396
4275000000.0 -0.3870620934031458 0.7511881851975819
4350000000.0 -0.37537869434807497 0.7576110178963293
4425000000.0 -0.3636944498122139 0.7638175963571537
4500000000.0 -0.3520133148843473 0.7698111261728974
4575000000.0 -0.34033906884267867 0.7755948325982401
4650000000.0 -0.3286753204210905 0.7811719537598133
4725000000.0 -0.3170255131750517 0.7865457343790676
4800000000.0 -0.3053929309149014 0.7917194199904996
4875000000.0 -0.29378070317686905 0.7966962516367537
4950000000.0 -0.2821918107048092 0.8014794610212229
5025000000.0 -0.27062909091809756 0.8060722660981147
5100000000.0 -0.25909524334355843 0.8104778670795042
5175000000.0 -0.2475928349915927 0.8146994428386121
5250000000.0 -0.23612430565884923 0.8187401476884486
5325000000.0 -0.22469197314188405 0.8226031085149816
5400000000.0 -0.21329803834818445 0.8262914222441663
5475000000.0 -0.20194459029278714 0.8298081536224411
5550000000.0 -0.19063361097043577 0.8331563332906696
5625000000.0 -0.17936698009481125 0.8363389561319601
5700000000.0 -0.1681464796978833 0.8393589798743272
5775000000.0 -0.15697379858375973 0.8422193239297352
5850000000.0 -0.1458505366326963 0.844922868451702
5925000000.0 -0.13477820895208717 0.8474724535943086
6000000000.0 -0.12375824987227912 0.8498708789561525
6075000000.0 -0.11279201678603584 0.852120903193506
6150000000.0 -0.10188079383132193 0.8542252437876714
6225000000.0 -0.09102579541784207 0.8561865769522563
6300000000.0 -0.08022816959848486 0.8580075376668371
6375000000.0 -0.06948900128740891 0.859690719824214
6450000000.0 -0.05880931532704998 0.8612386764791748
6525000000.0 -0.048190079406818395 0.8626539201874256
6600000000.0 -0.03763220683663601 0.8639389234240111
6675000000.0 -0.027136559178835225 0.865096119071267
6750000000.0 -0.01670394874221872 0.866127900966978
6825000000.0 -0.006335140942347527 0.867036624504079
6900000000.0 0.003969143467701393 0.8678246072738456
6975000000.0 0.0142082262916787 0.8684941297451108
7050000000.0 0.024381469905082387 0.8690474359726355
7125000000.0 0.03448827538602124 0.8694867343282802
7200000000.0 0.044528080757333305 0.8698141982491626
7275000000.0 0.05450035933526039 0.8700319669974842
7350000000.0 0.06440461817995162 0.8701421464271643
7425000000.0 0.07424039664309524 0.870146809752879
7500000000.0 0.0840072650080178 0.8700479983175238
7575000000.0 0.09370482321764155 0.8698477223545054
7650000000.0 0.10333269968575358 0.8695479617416527
7725000000.0 0.11289055018713144 0.8691506667438904
7800000000.0 0.1223780568221592 0.8686577587421378
7875000000.0 0.13179492705167156 0.868071130946213
7950000000.0 0.1411408927978656 0.8673926490898088
8025000000.0 0.15041570960726222 0.8666241521058798
8100000000.0 0.1596191558717902 0.8657674527810139
8175000000.0 0.1687510321042198 0.8648243383876211
8250000000.0 0.17781116026429067 0.8637965712929578
8325000000.0 0.1867993831320149 0.8626858895442289
8400000000.0 0.19571556372477292 0.8614940074291776
8475000000.0 0.2045595847549552 0.8602226160117455
8550000000.0 0.2133313481250418 0.8588733836425414
8625000000.0 0.22203077445713268 0.857447956444004
8700000000.0 0.2306578026541084 0.8559479587702612
8775000000.0 0.2392123894896966 0.8543749936418126
8850000000.0 0.24769450922488084 0.8527306431552734
8925000000.0 0.2561041532482029 0.8510164688685043
9000000000.0 0.2644413297376463 0.8492340121615434
9075000000.0 0.27270606334190317 0.8473847945738318
9150000000.0 0.28089839487896284 0.8454703181182964
9225000000.0 0.2890183810500651 0.8434920655729073
9300000000.0 0.29706609416719004 0.8414515007503888
9375000000.0 0.30504162189235673 0.839350068746796
9450000000.0 0.31294506698712704 0.837189196169728
9525000000.0 0.32077654707080516 0.8349702913469611
9600000000.0 0.32853619438592235 0.8326947445163247
9675000000.0 0.3362241555697185 0.8303639279976694
9750000000.0 0.34384059143039786 0.8279791963477774
9825000000.0 0.3513856767270455 0.8255418864990961
9900000000.0 0.35885959995218397 0.8230533178831777
9975000000.0 0.36626256311601096 0.8205147925397078
10050000000.0 0.37359478153147146 0.8179275952120147
10125000000.0 0.3808564835993691 0.8152929934299494
10200000000.0 0.38804791059280824 0.8126122375810161
10275000000.0 0.3951693164403347 0.8098865609706238
10350000000.0 0.40222096750719294 0.8071171798723421
10425000000.0 0.40920314237420075 0.8043052935689904
10500000000.0 0.4161161316137926 0.8014520843854187
10575000000.0 0.4229602375628445 0.7985587177137994
10650000000.0 0.42973577409194963 0.7956263420322278
10725000000.0 0.43644306637086633 0.7926560889174312
10800000000.0 0.44308245062989665 0.7896490730523401
10875000000.0 0.4496542739170337 0.7866063922292834
10950000000.0 0.4561588938507103 0.7835291273495077
11025000000.0 0.4625966783680752 0.780418342419749
11100000000.0 0.46896800546871864 0.7772750845465008
11175000000.0 0.4752732629538288 0.7741003839286608
11250000000.0 0.4815128481607933 0.7708952538491595
11325000000.0 0.4876871676932782 0.7676606906661817
11400000000.0 0.49379663714686145 0.7643976738045556
11475000000.0 0.4998416808303113 0.761107165747857
11550000000.0 0.505822731482637 0.7577901120317522
11625000000.0 0.5117402299860552 0.7544474412390771
11700000000.0 0.5175946250750372 0.7510800649971248
11775000000.0 0.5233863730416153 0.7476888779775872
11850000000.0 0.5291159374371677 0.7442747578995674
11925000000.0 0.5347837887708802 0.7408385655360633
12000000000.0 0.5403904042051303 0.7373811447242858
12075000000.0 0.5459362672480339 0.7339033223801616
12150000000.0 0.551421867443406 0.7304059085173357
12225000000.0 0.5568477000584104 0.7268896962709747
12300000000.0 0.5622142657691616 0.7233554619266406
12375000000.0 0.5675220703445664 0.7198039649544846
12450000000.0 0.5727716243286911 0.7162359480489907
12525000000.0 0.5779634427219427 0.712652137174473
12600000000.0 0.5830980446613585 0.7090532416165068
12675000000.0 0.5881759531003076 0.7054399540394652
12750000000.0 0.593197694487896 0.7018129505502948
12825000000.0 0.5981637984483825 0.6981728907686557
12900000000.0 0.603074797460897 0.6945204179035375
12975000000.0 0.6079312265397687 0.6908561588364245
13050000000.0 0.6127336229157576 0.6871807242110882
13125000000.0 0.6174825257184821 0.6834947085300509
13200000000.0 0.622178475660343 0.6797986902577627
13275000000.0 0.6268220147222218 0.6760932319304995
13350000000.0 0.6314136858412497 0.6723788802729957
13425000000.0 0.6359540326009193 0.6686561663217938
13500000000.0 0.6404435989238181 0.6649256055552899
13575000000.0 0.6448829287672526 0.6611876980304319
13650000000.0 0.6492725658220306 0.6574429285260256
13725000000.0 0.6536130532146538 0.6536917666925777
13800000000.0 0.6579049332131779 0.6499346672086099
13875000000.0 0.6621487469369849 0.6461720699433502
13950000000.0 0.6663450340707028 0.6424044001257128
14025000000.0 0.6704943325825069 0.638632068519455
14100000000.0 0.6745971784470275 0.6348554716044029
14175000000.0 0.6786541053730737 0.6310749917636134
14250000000.0 0.6826656445363948 0.6272909974763518
14325000000.0 0.6866323243176695 0.6235038435167408
14400000000.0 0.6905546700459222 0.619713871157929
14475000000.0 0.6944332037475472 0.6159214083816399
14550000000.0 0.6982684439011314 0.6121267700929289
14625000000.0 0.7020609051982287 0.6083302583399927
14700000000.0 0.7058110983102631 0.604532162538855
14775000000.0 0.7095195296617075 0.600732759702761
14850000000.0 0.7131867012096889 0.5969323146760918
14925000000.0 0.7168131102301547 0.5931310803726262
15000000000.0 0.7203992491107412 0.5893292980179516
15075000000.0 0.7239456051504578 0.5855271973958431
15150000000.0 0.7274526603663085 0.5817249970984137
15225000000.0 0.7309208913069619 0.5779229047798334
15300000000.0 0.7343507688735693 0.5741211174134326
15375000000.0 0.7377427581478223 0.5703198215519703
15450000000.0 0.7410973182273453 0.5665191935908812
15525000000.0 0.7444149020684968 0.5627194000342889
15600000000.0 0.7476959563366552 0.5589205977635751
15675000000.0 0.7509409212640559 0.5551229343083096
15750000000.0 0.7541502305152413 0.5513265481193227
15825000000.0 0.7573243110601766 0.5475315688437137
15900000000.0 0.7604635830550748 0.5437381176015886
15975000000.0 0.7635684597309802 0.5399463072643147
16050000000.0 0.7666393472901356 0.5361562427340798
16125000000.0 0.7696766448101685 0.5323680212245521
16200000000.0 0.7726807441561172 0.5285817325424215
16275000000.0 0.7756520299003128 0.5247974593696195
16350000000.0 0.7785908792501272 0.5210152775460022
16425000000.0 0.781497661983596 0.5172352563522912
16500000000.0 0.7843727403929128 0.5134574587930577
16575000000.0 0.7872164692357934 0.5096819418795465
16650000000.0 0.7900291956946914 0.5059087569121281
16725000000.0 0.7928112593438592 0.5021379497621706
16800000000.0 0.795562992124226 0.49836956115312747
16875000000.0 0.7982847183260667 0.49460362694063387
16950000000.0 0.8009767545794355 0.4908401783914053
17025000000.0 0.8036394098523213 0.4870792424607376
17100000000.0 0.8062729854564882 0.48332084206839615
17175000000.0 0.8088777750609527 0.47956499637270855
17250000000.0 0.8114540647130476 0.47581172104263886
17325000000.0 0.8140021328670192 0.4720610285276634
17400000000.0 0.8165222504200872 0.46831292832523164
17475000000.0 0.8190146807559215 0.46456742724562783
17550000000.0 0.821479679795445 0.4608245296740296
17625000000.0 0.823917496054901 0.45708423782957064
17700000000.0 0.826328370711105 0.4533465520212114
17775000000.0 0.8287125376737902 0.44961147090022935
17850000000.0 0.8310702236649712 0.445878991709133
17925000000.0 0.8334016483052157 0.44214911052681444
18000000000.0 0.835707024206742 0.43842182250974465
18075000000.0 0.8379865570732378 0.43469712212903805
18150000000.0 0.8402404458062802 0.4309750034031838
18225000000.0 0.8424688826182646 0.4272554601262763
18300000000.0 0.8446720531517151 0.42353848609155204
18375000000.0 0.8468501366048548 0.41982407531006166
18450000000.0 0.849003305863316 0.4161122222242872
18525000000.0 0.8511317276378584 0.41240292191654476
18600000000.0 0.8532355626079572 0.4086961703119785
18675000000.0 0.8553149655711224 0.4049919643759942
18750000000.0 0.8573700855978105 0.40129030230594703
18825000000.0 0.8594010661917628 0.39759118371691965
18900000000.0 0.8614080454556412 0.39389460982143454
18975000000.0 0.8633911562617718 0.3902005836029197
19050000000.0 0.8653505264278555 0.38650910998278887
19125000000.0 0.8672862788974667 0.38282019598095895
19200000000.0 0.8691985319251595 0.3791338508696635
19275000000.0 0.8710873992660129 0.37545008632040416
19350000000.0 0.8729529903694201 0.37176891654389715
19425000000.0 0.8747954105769385 0.3680903584228602
19500000000.0 0.8766147613239963 0.364414431637508
19575000000.0 0.8784111403452661 0.3607411587836135
19650000000.0 0.8801846418834871 0.3570705654830005
19725000000.0 0.881935356901536 0.35340268048633866
19800000000.0 0.8836633732975177 0.3497375357681142
19875000000.0 0.8853687761226648 0.34607516661365434
19950000000.0 0.8870516478018119 0.3424156116980873
20025000000.0 0.8887120683562133 0.338758913157131
20100000000.0 0.8903501156284668 0.33510511664959003
20175000000.0 0.8919658655093018 0.33145427141147615
20250000000.0 0.8935593921659766 0.3278064303016398
20325000000.0 0.8951307682720414 0.32416164983883133
20400000000.0 0.8966800652381994 0.32051999023009886
20475000000.0 0.898207353444006 0.316881515390453
20550000000.0 0.8997127024701377 0.31324629295371487
20625000000.0 0.9011961813309534 0.30961439427449033
20700000000.0 0.9026578587070723 0.3059858944212012
20775000000.0 0.9040978031776862 0.30236087216013346
20850000000.0 0.9055160834523107 0.298739409930443
20925000000.0 0.9069127686016918 0.2951215938100953
21000000000.0 0.9082879282875621 0.2915075134726978
21075000000.0 0.9096416329909567 0.2878972621352102
21150000000.0 0.9109739542387633 0.28429093649651865
21225000000.0 0.912284964828219 0.28068863666686666
21300000000.0 0.9135747390490249 0.2770904660881514
21375000000.0 0.9148433529027705 0.27349653144509173
21450000000.0 0.916090884319336 0.2699069425673045
21525000000.0 0.9173174133699621 0.2663218123223017
21600000000.0 0.9185230224766513 0.2627412564994723
21675000000.0 0.9197077966175731 0.25916539368508806
21750000000.0 0.9208718235281398 0.25559434512839935
21825000000.0 0.922015193897422 0.2520282345989002
21900000000.0 0.9231380015595646 0.24846718823484087
21975000000.0 0.9242403436798621 0.24491133438308912
22050000000.0 0.9253223209351564 0.241360803430444
22125000000.0 0.9263840376882212 0.23781572762652875
22200000000.0 0.927425602155777 0.2342762408983851
22275000000.0 0.9284471265698118 0.2307424786569156
22350000000.0 0.9294487273318474 0.22721457759534033
22425000000.0 0.9304305251598299 0.2236926754798149
22500000000.0 0.9313926452272754 0.2201769109324175
22575000000.0 0.9323352172943605 0.21666742320667134
22650000000.0 0.9332583758305913 0.21316435195584052
22725000000.0 0.9341622601287328 0.20966783699418967
22800000000.0 0.9350470144096519 0.206178018051468
22875000000.0 0.935912787917742 0.20269503452084814
22950000000.0 0.9367597350066111 0.19921902520059084
23025000000.0 0.9375880152146834 0.1957501280297112
23100000000.0 0.9383977933304201 0.19228847981793293
23175000000.0 0.9391892394468171 0.1888342159702363
23250000000.0 0.9399625290048801 0.18538747020632876
23325000000.0 0.940717842825766 0.18194837427534907
23400000000.0 0.9414553671312903 0.17851705766618486
23475000000.0 0.9421752935524935 0.1750936473137338
23550000000.0 0.9428778191259972 0.1716782673015175
23625000000.0 0.9435631462778522 0.16827103856101264
23700000000.0 0.9442314827946139 0.16487207856812827
23775000000.0 0.9448830417813768 0.16148150103724487
23850000000.0 0.9455180416065124 0.15809941561324678
23925000000.0 0.9461367058328662 0.1547259275620124
24000000000.0 0.946739263135184 0.1513611374598245
24075000000.0 0.9473259472035203 0.1480051408821803
24150000000.0 0.9478969966324547 0.14465802809250983
24225000000.0 0.9484526547958734 0.14131988373130117
24300000000.0 0.9489931697071504 0.13799078650618077
24375000000.0 0.9495187938645636 0.13467080888347238
24450000000.0 0.9500297840817541 0.13136001678180562
24525000000.0 0.9505264013031124 0.12805846926834563
24600000000.0 0.951008910403941 0.12476621825822319
24675000000.0 0.9514775799753027 0.12148330821778788
24750000000.0 0.951932682093423 0.1182097758722728
24825000000.0 0.9523744920736031 0.11494564991853494
24900000000.0 0.9528032882085624 0.11169095074348613
24975000000.0 0.953219351491177 0.10844569014890476
25050000000.0 0.9536229653215791 0.10520987108327311
25125000000.0 0.9540144151986418 0.10198348738134948
25200000000.0 0.9543939883958529 0.09876652351217703
25275000000.0 0.9547619736216216 0.09555895433621027
25350000000.0 0.9551186606640915 0.09236074487235052
25425000000.0 0.9554643400205564 0.08917185007555661
25500000000.0 0.9557993025115832 0.08599221462584175
25575000000.0 0.956123838880001 0.08282177272938686
25650000000.0 0.9564382393749197 0.07966044793256374
25725000000.0 0.9567427933209731 0.07650815294964528
25800000000.0 0.9570377886730294 0.07336478950499721
25875000000.0 0.9573235115566211 0.07023024819058718
25950000000.0 0.9576002457943837 0.06710440833957852
26025000000.0 0.95786827241883 0.06398713791687802
26100000000.0 0.9581278691718357 0.06087829342746019
26175000000.0 0.9583793099911854 0.05777771984329332
26250000000.0 0.9586228644846657 0.05468525054974135
26325000000.0 0.9588587973921395 0.0516007073122738
26400000000.0 0.9590873680360991 0.04852390026436278
26475000000.0 0.9593088297612846 0.04545462791741464
26550000000.0 0.9595234293639188 0.04239267719360277
26625000000.0 0.9597314065112166 0.039337823482498896
26700000000.0 0.9599329931518225 0.03628983072232446
26775000000.0 0.9601284129179236 0.03324845150672879
26850000000.0 0.9603178805197928 0.030213427217938425
26925000000.0 0.9605016011335723 0.02718448818717389
27000000000.0 0.9606797697831936 0.024161353883120802
27075000000.0 0.960852570717326 0.021143733129385913
27150000000.0 0.9610201767823514 0.018131324351745994
27225000000.0 0.9611827487923702 0.015123815855978339
27300000000.0 0.9613404348973474 0.012120886137187313
27375000000.0 0.9614933699505116 0.009122204221308678
27450000000.0 0.9616416748762487 0.006127430039691876
27525000000.0 0.961785456039708 0.0031362148374334724
27600000000.0 0.9619248046194713 0.00014820161625136503
27675000000.0 0.9620597959846774 -0.0028369743874070976
27750000000.0 0.9621904890780171 -0.0058196851883259865
27825000000.0 0.9623169258061605 -0.008800309501900323
27900000000.0 0.9624391304391815 -0.01177923215634306
27975000000.0 0.9625571090206064 -0.014756843467108462
28050000000.0 0.9626708487898484 -0.017733538573010358
28125000000.0 0.962780317618804 -0.020709716733577903
28200000000.0 0.9628854634644514 -0.023685780587170458
28275000000.0 0.9629862138393991 -0.026662135369530042
28350000000.0 0.9630824753024089 -0.029639188092394568
28425000000.0 0.9631741329709085 -0.032617346681993516
28500000000.0 0.9632610500576981 -0.035597019077194994
28575000000.0 0.963343067434044 -0.038578612287232465
