#   Hz   S  RI   R   50
!
0.0 -0.8940671123337169 0.0
75000000.0 -0.8928171029488976 0.04860927747001422
150000000.0 -0.8890739556924988 0.09704777193634367
225000000.0 -0.8828582806872916 0.1451458164047649
300000000.0 -0.8742043181791673 0.19273597998900263
375000000.0 -0.8631597688153938 0.23965419545347594
450000000.0 -0.8497855467272568 0.28574089610721054
525000000.0 -0.8341554467182801 0.3308421618330221
600000000.0 -0.8163557152429832 0.37481087130246327
675000000.0 -0.7964845138938822 0.41750785417361774
750000000.0 -0.7746512639306514 0.458803033417855
825000000.0 -0.7509758611049391 0.4985765440298915
900000000.0 -0.725587751753236 0.5367198104358543
975000000.0 -0.6986248639089968 0.5731365611545406
1050000000.0 -0.6702323910362618 0.607743755946088
1125000000.0 -0.6405614308615504 0.640472398079109
1200000000.0 -0.6097674875576446 0.6712682027478444
1275000000.0 -0.578008852010429 0.7000920923478634
1350000000.0 -0.5454448817936405 0.7269204905084173
1425000000.0 -0.5122342094239063 0.7517453896547532
1500000000.0 -0.47853291404312065 0.7745741715177629
1575000000.0 -0.4444926974098317 0.7954291663912695
1650000000.0 -0.4102591094999754 0.8143469448982235
1725000000.0 -0.3759698716748306 0.8313773452676432
1800000000.0 -0.34175334589907225 0.8465822492132731
1875000000.0 -0.30772719662844916 0.860034129899413
1950000000.0 -0.273997287630894 0.8718144055577585
2025000000.0 -0.2406568492291396 0.8820116414284874
2100000000.0 -0.20778594251498206 0.8907196502091631
2175000000.0 -0.17545123641917396 0.8980355465563105
2250000000.0 -0.14370610170857112 0.9040578139791988
2325000000.0 -0.11259101370908643 0.9088844424499487
2400000000.0 -0.08213424355142653 0.9126111921848588
2475000000.0 -0.052352806723082165 0.9153300334899495
2550000000.0 -0.023253628324991504 0.9171278046605816
2625000000.0 0.005165122813359606 0.918085120188468
2700000000.0 0.032912583764775336 0.9182755505761936
2775000000.0 0.060003685596691676 0.9177650835590078
2850000000.0 0.08645763413053056 0.9166118651515726
2925000000.0 0.11229643463722692 0.9148662082826672
3000000000.0 0.1375435067087294 0.9125708473648397
3075000000.0 0.16222242885448676 0.9097614093539548
3150000000.0 0.18635584450605713 0.9064670659316854
3225000000.0 0.20996455257086627 0.9027113275000718
3300000000.0 0.2330667969325439 0.8985129376933437
3375000000.0 0.25567776077261045 0.8938868269656246
3450000000.0 0.2778092636376633 0.8888450853019249
3525000000.0 0.299469652068271 0.8833979169700156
3600000000.0 0.32066386852960266 0.8775545442012203
3675000000.0 0.3413936784522642 0.8713240314724607
3750000000.0 0.3616580314515928 0.8647160073847989
3825000000.0 0.381453530237002 0.8577412667428608
3900000000.0 0.40077497930053124 0.8504122411119501
3975000000.0 0.41961598510590603 0.84274333167457
4050000000.0 0.43796958008625747 0.8347511034665728
4125000000.0 0.4558288441875854 0.8264543449159091
4200000000.0 0.4731874998462744 0.8178740009313669
4275000000.0 0.4900404590389284 0.8090329915154905
4350000000.0 0.5063843042664005 0.7999559309466979
4425000000.0 0.5222176889057457 0.7906687649509571
4500000000.0 0.5375416461590016 0.7811983449415378
4575000000.0 0.5523597997227472 0.7715719593421292
4650000000.0 0.5666784731768358 0.7618168422372328
4725000000.0 0.5805066988286709 0.7519596791451344
4800000000.0 0.5938561302424242 0.7420261286312849
4875000000.0 0.6067408658323107 0.7320403768388778
4950000000.0 0.6191771936202384 0.7220247398894402
5025000000.0 0.6311832694820808 0.7119993265932238
5100000000.0 0.6427787428832482 0.7019817711109225
5175000000.0 0.6539843452038174 0.6919870422348795
5250000000.0 0.6648214562683581 0.6820273329214342
5325000000.0 0.6753116646394236 0.6721120307158585
5400000000.0 0.6854763366404613 0.6622477668698986
5475000000.0 0.6953362079957024 0.6524385393508475
5550000000.0 0.7049110104785908 0.6426859026576823
5625000000.0 0.7142191441251071 0.632989215454889
5700000000.0 0.7232774034799323 0.6233459355508708
5775000000.0 0.7321007640911082 0.6137519507094847
5850000000.0 0.7407022331415298 0.6042019331964474
5925000000.0 0.7490927657878517 0.594689705816603
6000000000.0 0.7572812465470327 0.5852086074679705
6075000000.0 0.7652745329960814 0.5757518468864201
6150000000.0 0.7730775571891513 0.5663128342333439
6225000000.0 0.7806934785936507 0.5568854814332199
6300000000.0 0.7881238810369416 0.5474644636396988
6375000000.0 0.7953690051591864 0.5380454358367699
6450000000.0 0.8024280071960672 0.528625200304899
6525000000.0 0.8092992345672017 0.5192018224418672
6600000000.0 0.8159805087124499 0.5097746941688307
6675000000.0 0.8224694058808766 0.5003445458228926
6750000000.0 0.8287635271109892 0.4909134089927166
6825000000.0 0.8348607494150122 0.481484534153954
6900000000.0 0.8407594511588141 0.47206226817367397
6975000000.0 0.8464587057734964 0.46265189775168747
7050000000.0 0.8519584392028451 0.4532594656328347
7125000000.0 0.8572595478398128 0.4438915669463692
7200000000.0 0.8623639750915177 0.43455513330225914
7275000000.0 0.8672747460931486 0.4252572123021627
7350000000.0 0.8719959614258747 0.4160047499146802
7425000000.0 0.876532751944079 0.40680438273612674
7500000000.0 0.8808911979487761 0.397662246531387
7575000000.0 0.8850782169271306 0.38858380665131814
7650000000.0 0.8891014248883887 0.37957371498488635
7725000000.0 0.8929689769460543 0.37063569706013605
7800000000.0 0.8966893932131046 0.3617724717947755
7875000000.0 0.9002713762864855 0.35298570525198014
7950000000.0 0.9037236266007616 0.3442759986171052
8025000000.0 0.9070546617368644 0.3356429095118757
8100000000.0 0.9102726453944705 0.32708500473722474
8175000000.0 0.9133852311952392 0.31859994161348937
8250000000.0 0.9163994258027538 0.3101845742918989
8325000000.0 0.9193214750510271 0.3018350807638186
8400000000.0 0.922156775896573 0.2935471058080583
8475000000.0 0.9249098160804293 0.2853159148000027
8550000000.0 0.9275841424374195 0.2771365531618708
8625000000.0 0.9301823578508102 0.26900400625806464
8700000000.0 0.9327061459500742 0.26091335472511407
8775000000.0 0.9351563218138222 0.2528599205594664
8850000000.0 0.9375329061919683 0.24483939975154706
8925000000.0 0.9398352201199685 0.23684797783128206
9000000000.0 0.942061996278484 0.22888242535627398
9075000000.0 0.9442115030646847 0.22094017110515926
9150000000.0 0.9462816770928545 0.2130193515105398
9225000000.0 0.9482702597338457 0.20511883565349412
9300000000.0 0.9501749333329234 0.19723822592073553
9375000000.0 0.9519934529074582 0.18937783517312418
9450000000.0 0.953723769409916 0.18153864196929076
9525000000.0 0.9553641410347972 0.1737222260118378
9600000000.0 0.9569132295349864 0.16593068651991766
9675000000.0 0.958370179075667 0.1581665466679904
9750000000.0 0.95973467577323 0.15043264755661473
9825000000.0 0.9610069867221667 0.14273203539108223
9900000000.0 0.9621879779839927 0.13506784563498567
9975000000.0 0.9632791116782801 0.127443187879352
10050000000.0 0.9642824229569829 0.1198610350281369
10125000000.0 0.9652004782408933 0.11232412015526373
10200000000.0 0.9660363166344692 0.10483484404749462
10275000000.0 0.9667933768978968 0.0973951960243394
10350000000.0 0.9674754127311916 0.09000669013612339
10425000000.0 0.9680863994053897 0.08267031830109929
10500000000.0 0.9686304349546231 0.07538652136998385
10575000000.0 0.9691116392174736 0.06815517851997845
10650000000.0 0.9695340539871488 0.060975614798522634
10725000000.0 0.9699015474014868 0.0538466260774809
10800000000.0 0.9702177254824104 0.046766520157697264
10875000000.0 0.9704858534295862 0.03973317229679377
10950000000.0 0.9707087888965076 0.03274409303253433
11025000000.0 0.9708889290425856 0.02579650585043065
11100000000.0 0.9710281726771179 0.01888743200526699
11175000000.0 0.97112789830611 0.012013779656747447
11250000000.0 0.9711889583770076 0.005172434421549792
11325000000.0 0.9712116895056556 -0.001639651523153867
11400000000.0 0.971195937979534 -0.00842537452974526
11475000000.0 0.9711410993759872 -0.015187401307920796
11550000000.0 0.9710461707265242 -0.021928099760747683
11625000000.0 0.9709098133094255 -0.028649480763730226
11700000000.0 0.9707304238717444 -0.03535315243524852
11775000000.0 0.9705062118750366 -0.0420402880229238
11850000000.0 0.9702352802310436 -0.048711608082968164
11925000000.0 0.9699157069459118 -0.05536737717247275
12000000000.0 0.9695456251237775 -0.06200741482184048
12075000000.0 0.9691232988896785 -0.06863112011968037
12150000000.0 0.968647192972751 -0.0752375088380705
12225000000.0 0.9681160339362921 -0.08182526166356632
12300000000.0 0.967528861342792 -0.08839278178862447
12375000000.0 0.9668850674890812 -0.09493825986737932
12450000000.0 0.9661844247279661 -0.10145974415520877
12525000000.0 0.9654270997959051 -0.10795521353740181
12600000000.0 0.9646136549788643 -0.1144226511104696
12675000000.0 0.9637450363578381 -0.12086011601007268
12750000000.0 0.9628225497693642 -0.12726581127980777
12825000000.0 0.9618478254830526 -0.13363814574085436
12900000000.0 0.9608227729271287 -0.1399757880474734
12975000000.0 0.9597495270749888 -0.146277711389661
13050000000.0 0.9586303883330014 -0.1525432276225523
13125000000.0 0.9574677579364418 -0.1587720099520089
13200000000.0 0.9562640709624493 -0.16496410367599454
13275000000.0 0.9550217291042876 -0.1711199248601908
13350000000.0 0.9537430353201182 -0.17724024720210982
13425000000.0 0.952430132374012 -0.1833261776993094
13500000000.0 0.9510849471311221 -0.18937912207341165
13575000000.0 0.949709142258599 -0.1954007412026372
13650000000.0 0.9483040767263469 -0.20139290007290223
13725000000.0 0.9468707762057841 -0.20735761096408864
13800000000.0 0.9454099141400442 -0.2132969727384309
13875000000.0 0.9439218039160016 -0.21921310818847706
13950000000.0 0.9424064022178438 -0.22510810143100465
14025000000.0 0.9408633232944923 -0.23098393730076314
14100000000.0 0.9392918635394958 -0.23684244460602275
14175000000.0 0.9376910354720003 -0.242685244960355
14250000000.0 0.93605960993008 -0.2485137087072772
14325000000.0 0.9343961650509839 -0.25432891921312994
14400000000.0 0.9326991404232219 -0.26013164652684206
14475000000.0 0.9309668946579639 -0.26592233110195046
14550000000.0 0.9291977645452699 -0.2717010779559604
14625000000.0 0.9273901239359496 -0.27746766131480827
14700000000.0 0.9255424405222614 -0.2832215394657358
14775000000.0 0.9236533287784903 -0.2889618792301439
14850000000.0 0.9217215974623097 -0.294687589178126
14925000000.0 0.9197462902648426 -0.30039736044692383
15000000000.0 0.9177267184253162 -0.30608971380393235
15075000000.0 0.9156624843877528 -0.31176305141737365
15150000000.0 0.9135534958640047 -0.3174157116692219
15225000000.0 0.9113999699706635 -0.32304602526878645
15300000000.0 0.9092024274176328 -0.32865237090327226
15375000000.0 0.9069616770339205 -0.33423322869380717
15450000000.0 0.9046787912122571 -0.3397872298103525
15525000000.0 0.9023550731294984 -0.3453132007335026
15600000000.0 0.8999920168463283 -0.3508102008309546
15675000000.0 0.8975912616002192 -0.35627755213546675
15750000000.0 0.8951545417738521 -0.361714860462456
15825000000.0 0.8926836341424765 -0.3671220272810747
15900000000.0 0.8901803040746206 -0.37249925204402967
15975000000.0 0.8876462523794679 -0.3778470249795425
16050000000.0 0.8850830644608108 -0.38316611064453293
16125000000.0 0.8824921633532915 -0.38845752282231777
16200000000.0 0.879874768084568 -0.39372249161221956
16275000000.0 0.8772318586314629 -0.3989624237945912
16350000000.0 0.8745641485248226 -0.40417885775579626
16425000000.0 0.8718720659134832 -0.4093734144178211
16500000000.0 0.8691557436301082 -0.4145477457317553
16575000000.0 0.8664150185190947 -0.419703482360223
16650000000.0 0.8636494399979456 -0.4248421821892859
16725000000.0 0.8608582875373543 -0.4299652812752196
16800000000.0 0.8580405964704486 -0.4350740487473072
16875000000.0 0.8551951912864937 -0.44016954705724454
16950000000.0 0.8523207253365261 -0.44525259879319173
17025000000.0 0.8494157256846551 -0.4503237610673862
17100000000.0 0.8464786416848262 -0.4553833082471468
17175000000.0 0.8435078957531871 -0.46043122353743665
17250000000.0 0.8405019347439625 -0.46546719964697814
17325000000.0 0.8374592803235613 -0.47049064848766886
17400000000.0 0.8343785767738314 -0.4755007195773334
17475000000.0 0.8312586347395146 -0.4804963265471239
17550000000.0 0.828098469564526 -0.48547618090529154
17625000000.0 0.824897333032449 -0.4904388319861217
17700000000.0 0.8216547375334647 -0.4953827118232276
17775000000.0 0.818370471916403 -0.5003061835359
17850000000.0 0.8150446085435008 -0.5052075917102464
17925000000.0 0.811677501338878 -0.5100853131967301
18000000000.0 0.8082697749013698 -0.5149378067341307
18075000000.0 0.8048223050296499 -0.5197636598473221
18150000000.0 0.8013361912741006 -0.5245616315514107
18225000000.0 0.7978127223774577 -0.5293306895251033
18300000000.0 0.7942533356873742 -0.5340700405877823
18375000000.0 0.7906595718118234 -0.5387791535223424
18450000000.0 0.7870330259370165 -0.5434577735231653
18525000000.0 0.7833752973325651 -0.5481059278083805
18600000000.0 0.7796879386267287 -0.5527239222098441
18675000000.0 0.7759724064439024 -0.5573123288347216
18750000000.0 0.7722300149566077 -0.5618719651705086
18825000000.0 0.768461893816382 -0.5664038652722946
18900000000.0 0.764668951794598 -0.5709092439188059
18975000000.0 0.7608518472895378 -0.5753894548446081
19050000000.0 0.7570109666451303 -0.5798459443429975
19125000000.0 0.7531464109861693 -0.5842802016816959
19200000000.0 0.7492579920117555 -0.5886937078768962
19275000000.0 0.7453452369112795 -0.5930878844271882
19350000000.0 0.7414074022838476 -0.5974640436155689
19425000000.0 0.7374434966614155 -0.6018233419447944
19500000000.0 0.7334523109665816 -0.606166738179894
19575000000.0 0.7294324559862867 -0.6104949573343912
19650000000.0 0.7253824057203357 -0.6148084617577151
19725000000.0 0.7213005452755065 -0.6191074302657128
19800000000.0 0.7171852218280418 -0.623391746010582
19875000000.0 0.7130347970741427 -0.6276609935182329
19950000000.0 0.7088476995330979 -0.631914465038207
20025000000.0 0.7046224750628469 -0.6361511760623356
20100000000.0 0.7003578339934488 -0.6403698895821258
20175000000.0 0.6960526933790881 -0.6445691483801538
20250000000.0 0.6917062130112533 -0.6487473143959814
20325000000.0 0.6873178240205875 -0.6529026139802138
20400000000.0 0.6828872491172698 -0.6570331876584116
20475000000.0 0.6784145137731491 -0.6611371428757505
20550000000.0 0.6738999479256977 -0.6652126080886153
20625000000.0 0.6693441780759213 -0.669257786514166
20700000000.0 0.6647481099508122 -0.6732710078456098
20775000000.0 0.6601129021967149 -0.677250776289843
20850000000.0 0.6554399318539256 -0.6811958133844116
20925000000.0 0.650730752626195 -0.6851050941997072
21000000000.0 0.6459870471932133 -0.6889778757258775
21075000000.0 0.6412105750121189 -0.6928137164765829
21150000000.0 0.6364031172091621 -0.6966124866066885
21225000000.0 0.6315664202695991 -0.700374368130433
21300000000.0 0.6267021402889217 -0.7040998451318319
21375000000.0 0.621811789549368 -0.7077896841708908
21450000000.0 0.6168966871317548 -0.7114449053979538
21525000000.0 0.6119579151650129 -0.71506674518473
21600000000.0 0.606996282157218 -0.7186566113548455
21675000000.0 0.6020122946466803 -0.7222160323405199
21750000000.0 0.597006138165604 -0.7257466017972287
21825000000.0 0.5919776682291557 -0.7292499203682777
21900000000.0 0.5869264117576204 -0.7327275364005722
21975000000.0 0.5818515790179519 -0.7361808874675825
22050000000.0 0.5767520858430238 -0.7396112445532801
22125000000.0 0.5716265855623767 -0.7430196606909898
22200000000.0 0.5664735097672232 -0.7464069257348693
22275000000.0 0.561291116744695 -0.7497735287719567
22350000000.0 0.5560775461608827 -0.7531196294639436
22425000000.0 0.5508308783574676 -0.7564450393461739
22500000000.0 0.545549196459719 -0.7597492138142833
22575000000.0 0.5402306493801932 -0.7630312552050122
22650000000.0 0.5348735137467847 -0.7662899270366575
22725000000.0 0.5294762527883747 -0.7695236791265632
22800000000.0 0.524037570277014 -0.7727306829585433
22875000000.0 0.518556457751132 -0.775908876342888
22950000000.0 0.5130322334269259 -0.7790560161058938
23025000000.0 0.5074645714399598 -0.7821697372744835
23100000000.0 0.5018535203399093 -0.7852476169933842
23175000000.0 0.49619951008029894 -0.7882872412351621
23250000000.0 0.49050334709292587 -0.7912862722435838
23325000000.0 0.48476619740321203 -0.7942425145928296
23400000000.0 0.47898955811696087 -0.7971539777521289
23475000000.0 0.47317521797959705 -0.8000189331181241
23550000000.0 0.46732520806427835 -0.8028359636148088
23625000000.0 0.46144174397420296 -0.8056040041601903
23700000000.0 0.45552716123609877 -0.8083223715547075
23775000000.0 0.44958384580670363 -0.8109907826522921
23850000000.0 0.4436141618034358 -0.8136093600219783
23925000000.0 0.43762037869745374 -0.8161786246863891
24000000000.0 0.43160460026690106 -0.8186994759219915
24075000000.0 0.4255686975969062 -0.8211731585126381
24150000000.0 0.4195142483301182 -0.8236012182503725
24225000000.0 0.4134424842181246 -0.8259854468627978
24300000000.0 0.4073542488036257 -0.8283278179024757
24375000000.0 0.40124996678106334 -0.8306304154490443
24450000000.0 0.39512962624724013 -0.8328953577383624
24525000000.0 0.3889927746726503 -0.8351247180358912
24600000000.0 0.3828385290096234 -0.8373204452061361
24675000000.0 0.37666559991735676 -0.8394842864907116
24750000000.0 0.3704723296393079 -0.8416177149911804
24825000000.0 0.36425674262915125 -0.843721864258052
24900000000.0 0.35801660760096826 -0.8457974722156792
24975000000.0 0.3517495092912395 -0.8478448364078404
25050000000.0 0.3454529278769383 -0.8498637822366494
25125000000.0 0.3391243237074497 -0.8518536454962622
25200000000.0 0.33276122478795633 -0.8538132700828109
25275000000.0 0.32636131430678467 -0.8557410213050244
25350000000.0 0.31992251543513683 -0.8576348147392757
25425000000.0 0.3134430706483644 -0.8594921600826475
25500000000.0 0.30692161292501524 -0.8613102189729412
25575000000.0 0.3003572263718057 -0.8630858752803897
25650000000.0 0.29374949409591516 -0.8648158159470333
25725000000.0 0.28709853149369685 -0.8664966200703924
25800000000.0 0.28040500353870124 -0.8681248536111547
25875000000.0 0.2736701251202643 -0.8696971668615032
25950000000.0 0.26689564399396243 -0.8712103916509559
26025000000.0 0.26008380644231016 -0.8726616351971572
26100000000.0 0.25323730629201663 -0.8740483675347227
26175000000.0 0.24635921847639375 -0.8753684995776467
26250000000.0 0.23945291885094502 -0.8766204490887689
26325000000.0 0.2325219924500124 -0.8778031921391987
26400000000.0 0.22557013279647334 -0.8789162980344573
26475000000.0 0.2186010352300672 -0.8799599461519985
26550000000.0 0.21161828749007017 -0.8809349236647762
26625000000.0 0.20462526096361833 -0.8818426037021818
26700000000.0 0.19762500608426578 -0.8826849041065199
26775000000.0 0.1906201553308185 -0.8834642275620108
26850000000.0 0.18361283713235418 -0.884183384484835
26925000000.0 0.17660460373308542 -0.8848455006478962
27000000000.0 0.16959637571509492 -0.8854539120531344
27075000000.0 0.16258840542648195 -0.8860120500399653
27150000000.0 0.15558026102821249 -0.8865233200131053
27225000000.0 0.14857083226980702 -0.8869909774729413
27300000000.0 0.14155835844844475 -0.8874180052240047
27375000000.0 0.13454047831739818 -0.8878069957134026
27450000000.0 0.12751430100841896 -0.8881600424053674
27525000000.0 0.1204764963402413 -0.8884786439283888
27600000000.0 0.11342340222351815 -0.8887636244396553
27675000000.0 0.10635114626295099 -0.8890150732429114
27750000000.0 0.09925577812009277 -0.8892323061799439
27825000000.0 0.0921334087546286 -0.889413850705488
27900000000.0 0.08498035232388466 -0.8895574558662683
27975000000.0 0.07779326630416998 -0.8896601276564233
28050000000.0 0.07056928531298694 -0.889718189434619
28125000000.0 0.06330614416593862 -0.8897273662863957
28200000000.0 0.056002285897977365 -0.8896828914222159
28275000000.0 0.04865695081482795 -0.8895796319430517
28350000000.0 0.041270243110918974 -0.8894122306049905
28425000000.0 0.03384317218461236 -0.8891752595962762
