<Qucs Dataset 25.1.1>
<indep time 295>
0.000000000000e+00
1.000000000000e-11
2.000000000000e-11
4.000000000000e-11
8.000000000000e-11
1.600000000000e-10
3.200000000000e-10
6.400000000000e-10
1.000000000000e-09
1.064000000000e-09
1.192000000000e-09
1.448000000000e-09
1.960000000000e-09
2.984000000000e-09
5.032000000000e-09
9.128000000000e-09
1.732000000000e-08
3.370400000000e-08
6.647200000000e-08
1.320080000000e-07
2.630800000000e-07
5.252240000000e-07
1.049512000000e-06
2.098088000000e-06
4.195240000000e-06
8.389544000000e-06
1.677815200000e-05
3.355536800000e-05
5.365586800000e-05
7.375636800000e-05
9.385686800000e-05
1.139573680000e-04
1.340578680000e-04
1.541583680000e-04
1.742588680000e-04
1.943593680000e-04
2.144598680000e-04
2.345603680000e-04
2.546608680000e-04
2.747613680000e-04
2.948618680000e-04
3.149623680000e-04
3.350628680000e-04
3.551633680000e-04
3.752638680000e-04
3.953643680000e-04
4.154648680000e-04
4.355653680000e-04
4.556658680000e-04
4.757663680000e-04
4.958668680000e-04
5.159673680000e-04
5.360678680000e-04
5.561683680000e-04
5.762688680000e-04
5.963693680000e-04
6.164698680000e-04
6.365703680000e-04
6.566708680000e-04
6.767713680000e-04
6.968718680000e-04
7.169723680000e-04
7.370728680000e-04
7.571733680000e-04
7.772738680000e-04
7.973743680000e-04
8.174748680000e-04
8.375753680000e-04
8.576758680000e-04
8.777763680000e-04
8.978768680000e-04
9.179773680000e-04
9.380778680000e-04
9.581783680000e-04
9.782788680000e-04
9.983793680000e-04
1.000001000000e-03
1.000001100000e-03
1.000001300000e-03
1.000001700000e-03
1.000002000000e-03
1.000002080000e-03
1.000002240000e-03
1.000002560000e-03
1.000003200000e-03
1.000004480000e-03
1.000007040000e-03
1.000012160000e-03
1.000022400000e-03
1.000042880000e-03
1.000083840000e-03
1.000165760000e-03
1.000329600000e-03
1.000657280000e-03
1.001312640000e-03
1.002623360000e-03
1.005244800000e-03
1.010487679999e-03
1.020973439998e-03
1.041073939998e-03
1.061174439998e-03
1.081274939998e-03
1.101375439998e-03
1.121475939998e-03
1.141576439998e-03
1.161676939998e-03
1.181777439998e-03
1.201877939998e-03
1.221978439998e-03
1.242078939998e-03
1.262179439998e-03
1.282279939998e-03
1.302380439998e-03
1.322480939998e-03
1.342581439998e-03
1.362681939998e-03
1.382782439998e-03
1.402882939998e-03
1.422983439998e-03
1.443083939998e-03
1.463184439998e-03
1.483284939998e-03
1.503385439998e-03
1.523485939998e-03
1.543586439998e-03
1.563686939998e-03
1.583787439998e-03
1.603887939998e-03
1.623988439998e-03
1.644088939998e-03
1.664189439998e-03
1.684289939998e-03
1.704390439998e-03
1.724490939998e-03
1.744591439998e-03
1.764691939998e-03
1.784792439998e-03
1.804892939998e-03
1.824993439998e-03
1.845093939998e-03
1.865194439998e-03
1.885294939998e-03
1.905395439998e-03
1.925495939998e-03
1.945596439998e-03
1.965696939998e-03
1.985797439998e-03
2.000001000000e-03
2.000001100000e-03
2.000001300000e-03
2.000001700000e-03
2.000002000000e-03
2.000002080000e-03
2.000002240000e-03
2.000002560000e-03
2.000003000000e-03
2.000003064000e-03
2.000003192000e-03
2.000003448000e-03
2.000003960000e-03
2.000004984000e-03
2.000007032000e-03
2.000011128000e-03
2.000019320000e-03
2.000035704000e-03
2.000068472000e-03
2.000134008000e-03
2.000265080000e-03
2.000527224000e-03
2.001051512000e-03
2.002100088000e-03
2.004197240000e-03
2.008391543999e-03
2.016780151998e-03
2.033557367997e-03
2.053657867997e-03
2.073758367997e-03
2.093858867997e-03
2.113959367997e-03
2.134059867997e-03
2.154160367997e-03
2.174260867997e-03
2.194361367997e-03
2.214461867997e-03
2.234562367997e-03
2.254662867997e-03
2.274763367997e-03
2.294863867997e-03
2.314964367997e-03
2.335064867997e-03
2.355165367997e-03
2.375265867997e-03
2.395366367997e-03
2.415466867997e-03
2.435567367997e-03
2.455667867997e-03
2.475768367997e-03
2.495868867997e-03
2.515969367997e-03
2.536069867997e-03
2.556170367997e-03
2.576270867997e-03
2.596371367997e-03
2.616471867997e-03
2.636572367997e-03
2.656672867997e-03
2.676773367997e-03
2.696873867997e-03
2.716974367997e-03
2.737074867997e-03
2.757175367997e-03
2.777275867997e-03
2.797376367997e-03
2.817476867997e-03
2.837577367997e-03
2.857677867997e-03
2.877778367997e-03
2.897878867997e-03
2.917979367997e-03
2.938079867997e-03
2.958180367997e-03
2.978280867997e-03
2.998381367997e-03
3.000003000000e-03
3.000003100000e-03
3.000003300000e-03
3.000003700000e-03
3.000004000000e-03
3.000004080000e-03
3.000004240000e-03
3.000004560000e-03
3.000005200000e-03
3.000006480000e-03
3.000009040000e-03
3.000014160000e-03
3.000024400000e-03
3.000044880000e-03
3.000085840000e-03
3.000167760000e-03
3.000331600000e-03
3.000659280000e-03
3.001314640000e-03
3.002625360000e-03
3.005246800000e-03
3.010489679999e-03
3.020975439998e-03
3.041075939998e-03
3.061176439998e-03
3.081276939998e-03
3.101377439998e-03
3.121477939998e-03
3.141578439998e-03
3.161678939998e-03
3.181779439998e-03
3.201879939998e-03
3.221980439998e-03
3.242080939998e-03
3.262181439998e-03
3.282281939998e-03
3.302382439998e-03
3.322482939998e-03
3.342583439998e-03
3.362683939998e-03
3.382784439998e-03
3.402884939998e-03
3.422985439998e-03
3.443085939998e-03
3.463186439998e-03
3.483286939998e-03
3.503387439998e-03
3.523487939998e-03
3.543588439998e-03
3.563688939998e-03
3.583789439998e-03
3.603889939998e-03
3.623990439998e-03
3.644090939998e-03
3.664191439998e-03
3.684291939998e-03
3.704392439998e-03
3.724492939998e-03
3.744593439998e-03
3.764693939998e-03
3.784794439998e-03
3.804894939998e-03
3.824995439998e-03
3.845095939998e-03
3.865196439998e-03
3.885296939998e-03
3.905397439998e-03
3.925497939998e-03
3.945598439998e-03
3.965698939998e-03
3.985799439998e-03
4.000000000000e-03
</indep>
<dep tran.v(va) time>
0.000000000000e+00
1.200000000000e-02
2.400000000000e-02
4.800000000000e-02
9.600000000000e-02
1.920000000000e-01
3.840000000000e-01
7.680000000000e-01
1.200000000000e+00
1.200000000000e+00
1.200000000000e+00
1.200000000000e+00
1.200000000000e+00
1.200000000000e+00
1.200000000000e+00
1.200000000000e+00
1.200000000000e+00
1.200000000000e+00
1.200000000000e+00
1.200000000000e+00
1.200000000000e+00
1.200000000000e+00
1.200000000000e+00
1.200000000000e+00
1.200000000000e+00
1.200000000000e+00
1.200000000000e+00
1.200000000000e+00
1.200000000000e+00
1.200000000000e+00
1.200000000000e+00
1.200000000000e+00
1.200000000000e+00
1.200000000000e+00
1.200000000000e+00
1.200000000000e+00
1.200000000000e+00
1.200000000000e+00
1.200000000000e+00
1.200000000000e+00
1.200000000000e+00
1.200000000000e+00
1.200000000000e+00
1.200000000000e+00
1.200000000000e+00
1.200000000000e+00
1.200000000000e+00
1.200000000000e+00
1.200000000000e+00
1.200000000000e+00
1.200000000000e+00
1.200000000000e+00
1.200000000000e+00
1.200000000000e+00
1.200000000000e+00
1.200000000000e+00
1.200000000000e+00
1.200000000000e+00
1.200000000000e+00
1.200000000000e+00
1.200000000000e+00
1.200000000000e+00
1.200000000000e+00
1.200000000000e+00
1.200000000000e+00
1.200000000000e+00
1.200000000000e+00
1.200000000000e+00
1.200000000000e+00
1.200000000000e+00
1.200000000000e+00
1.200000000000e+00
1.200000000000e+00
1.200000000000e+00
1.200000000000e+00
1.200000000000e+00
1.200000000000e+00
1.200000000000e+00
1.200000000000e+00
1.200000000000e+00
1.200000000000e+00
1.200000000000e+00
1.200000000000e+00
1.200000000000e+00
1.200000000000e+00
1.200000000000e+00
1.200000000000e+00
1.200000000000e+00
1.200000000000e+00
1.200000000000e+00
1.200000000000e+00
1.200000000000e+00
1.200000000000e+00
1.200000000000e+00
1.200000000000e+00
1.200000000000e+00
1.200000000000e+00
1.200000000000e+00
1.200000000000e+00
1.200000000000e+00
1.200000000000e+00
1.200000000000e+00
1.200000000000e+00
1.200000000000e+00
1.200000000000e+00
1.200000000000e+00
1.200000000000e+00
1.200000000000e+00
1.200000000000e+00
1.200000000000e+00
1.200000000000e+00
1.200000000000e+00
1.200000000000e+00
1.200000000000e+00
1.200000000000e+00
1.200000000000e+00
1.200000000000e+00
1.200000000000e+00
1.200000000000e+00
1.200000000000e+00
1.200000000000e+00
1.200000000000e+00
1.200000000000e+00
1.200000000000e+00
1.200000000000e+00
1.200000000000e+00
1.200000000000e+00
1.200000000000e+00
1.200000000000e+00
1.200000000000e+00
1.200000000000e+00
1.200000000000e+00
1.200000000000e+00
1.200000000000e+00
1.200000000000e+00
1.200000000000e+00
1.200000000000e+00
1.200000000000e+00
1.200000000000e+00
1.200000000000e+00
1.200000000000e+00
1.200000000000e+00
1.200000000000e+00
1.200000000000e+00
1.200000000000e+00
1.200000000000e+00
1.200000000000e+00
1.200000000000e+00
1.079999999959e+00
8.399999998772e-01
3.599999997136e-01
0.000000000000e+00
0.000000000000e+00
0.000000000000e+00
0.000000000000e+00
0.000000000000e+00
0.000000000000e+00
0.000000000000e+00
0.000000000000e+00
0.000000000000e+00
0.000000000000e+00
0.000000000000e+00
0.000000000000e+00
0.000000000000e+00
0.000000000000e+00
0.000000000000e+00
0.000000000000e+00
0.000000000000e+00
0.000000000000e+00
0.000000000000e+00
0.000000000000e+00
0.000000000000e+00
0.000000000000e+00
0.000000000000e+00
0.000000000000e+00
0.000000000000e+00
0.000000000000e+00
0.000000000000e+00
0.000000000000e+00
0.000000000000e+00
0.000000000000e+00
0.000000000000e+00
0.000000000000e+00
0.000000000000e+00
0.000000000000e+00
0.000000000000e+00
0.000000000000e+00
0.000000000000e+00
0.000000000000e+00
0.000000000000e+00
0.000000000000e+00
0.000000000000e+00
0.000000000000e+00
0.000000000000e+00
0.000000000000e+00
0.000000000000e+00
0.000000000000e+00
0.000000000000e+00
0.000000000000e+00
0.000000000000e+00
0.000000000000e+00
0.000000000000e+00
0.000000000000e+00
0.000000000000e+00
0.000000000000e+00
0.000000000000e+00
0.000000000000e+00
0.000000000000e+00
0.000000000000e+00
0.000000000000e+00
0.000000000000e+00
0.000000000000e+00
0.000000000000e+00
0.000000000000e+00
0.000000000000e+00
0.000000000000e+00
0.000000000000e+00
0.000000000000e+00
0.000000000000e+00
0.000000000000e+00
0.000000000000e+00
0.000000000000e+00
0.000000000000e+00
0.000000000000e+00
0.000000000000e+00
0.000000000000e+00
0.000000000000e+00
0.000000000000e+00
0.000000000000e+00
0.000000000000e+00
0.000000000000e+00
0.000000000000e+00
0.000000000000e+00
0.000000000000e+00
0.000000000000e+00
0.000000000000e+00
0.000000000000e+00
0.000000000000e+00
0.000000000000e+00
0.000000000000e+00
0.000000000000e+00
0.000000000000e+00
0.000000000000e+00
0.000000000000e+00
0.000000000000e+00
0.000000000000e+00
0.000000000000e+00
0.000000000000e+00
0.000000000000e+00
0.000000000000e+00
0.000000000000e+00
0.000000000000e+00
0.000000000000e+00
0.000000000000e+00
0.000000000000e+00
0.000000000000e+00
0.000000000000e+00
0.000000000000e+00
0.000000000000e+00
0.000000000000e+00
0.000000000000e+00
0.000000000000e+00
0.000000000000e+00
0.000000000000e+00
0.000000000000e+00
0.000000000000e+00
0.000000000000e+00
0.000000000000e+00
0.000000000000e+00
0.000000000000e+00
0.000000000000e+00
0.000000000000e+00
0.000000000000e+00
0.000000000000e+00
0.000000000000e+00
0.000000000000e+00
0.000000000000e+00
0.000000000000e+00
0.000000000000e+00
0.000000000000e+00
0.000000000000e+00
0.000000000000e+00
0.000000000000e+00
0.000000000000e+00
0.000000000000e+00
0.000000000000e+00
0.000000000000e+00
0.000000000000e+00
0.000000000000e+00
0.000000000000e+00
0.000000000000e+00
0.000000000000e+00
0.000000000000e+00
0.000000000000e+00
0.000000000000e+00
</dep>
<dep tran.v(vb) time>
0.000000000000e+00
1.200000000000e-02
2.400000000000e-02
4.800000000000e-02
9.600000000000e-02
1.920000000000e-01
3.840000000000e-01
7.680000000000e-01
1.200000000000e+00
1.200000000000e+00
1.200000000000e+00
1.200000000000e+00
1.200000000000e+00
1.200000000000e+00
1.200000000000e+00
1.200000000000e+00
1.200000000000e+00
1.200000000000e+00
1.200000000000e+00
1.200000000000e+00
1.200000000000e+00
1.200000000000e+00
1.200000000000e+00
1.200000000000e+00
1.200000000000e+00
1.200000000000e+00
1.200000000000e+00
1.200000000000e+00
1.200000000000e+00
1.200000000000e+00
1.200000000000e+00
1.200000000000e+00
1.200000000000e+00
1.200000000000e+00
1.200000000000e+00
1.200000000000e+00
1.200000000000e+00
1.200000000000e+00
1.200000000000e+00
1.200000000000e+00
1.200000000000e+00
1.200000000000e+00
1.200000000000e+00
1.200000000000e+00
1.200000000000e+00
1.200000000000e+00
1.200000000000e+00
1.200000000000e+00
1.200000000000e+00
1.200000000000e+00
1.200000000000e+00
1.200000000000e+00
1.200000000000e+00
1.200000000000e+00
1.200000000000e+00
1.200000000000e+00
1.200000000000e+00
1.200000000000e+00
1.200000000000e+00
1.200000000000e+00
1.200000000000e+00
1.200000000000e+00
1.200000000000e+00
1.200000000000e+00
1.200000000000e+00
1.200000000000e+00
1.200000000000e+00
1.200000000000e+00
1.200000000000e+00
1.200000000000e+00
1.200000000000e+00
1.200000000000e+00
1.200000000000e+00
1.200000000000e+00
1.200000000000e+00
1.200000000000e+00
1.200000000000e+00
1.079999999959e+00
8.399999998772e-01
3.599999999738e-01
0.000000000000e+00
0.000000000000e+00
0.000000000000e+00
0.000000000000e+00
0.000000000000e+00
0.000000000000e+00
0.000000000000e+00
0.000000000000e+00
0.000000000000e+00
0.000000000000e+00
0.000000000000e+00
0.000000000000e+00
0.000000000000e+00
0.000000000000e+00
0.000000000000e+00
0.000000000000e+00
0.000000000000e+00
0.000000000000e+00
0.000000000000e+00
0.000000000000e+00
0.000000000000e+00
0.000000000000e+00
0.000000000000e+00
0.000000000000e+00
0.000000000000e+00
0.000000000000e+00
0.000000000000e+00
0.000000000000e+00
0.000000000000e+00
0.000000000000e+00
0.000000000000e+00
0.000000000000e+00
0.000000000000e+00
0.000000000000e+00
0.000000000000e+00
0.000000000000e+00
0.000000000000e+00
0.000000000000e+00
0.000000000000e+00
0.000000000000e+00
0.000000000000e+00
0.000000000000e+00
0.000000000000e+00
0.000000000000e+00
0.000000000000e+00
0.000000000000e+00
0.000000000000e+00
0.000000000000e+00
0.000000000000e+00
0.000000000000e+00
0.000000000000e+00
0.000000000000e+00
0.000000000000e+00
0.000000000000e+00
0.000000000000e+00
0.000000000000e+00
0.000000000000e+00
0.000000000000e+00
0.000000000000e+00
0.000000000000e+00
0.000000000000e+00
0.000000000000e+00
0.000000000000e+00
0.000000000000e+00
0.000000000000e+00
0.000000000000e+00
0.000000000000e+00
0.000000000000e+00
0.000000000000e+00
0.000000000000e+00
0.000000000000e+00
0.000000000000e+00
9.599999961640e-02
2.879999993696e-01
6.719999993965e-01
1.199999999889e+00
1.200000000000e+00
1.200000000000e+00
1.200000000000e+00
1.200000000000e+00
1.200000000000e+00
1.200000000000e+00
1.200000000000e+00
1.200000000000e+00
1.200000000000e+00
1.200000000000e+00
1.200000000000e+00
1.200000000000e+00
1.200000000000e+00
1.200000000000e+00
1.200000000000e+00
1.200000000000e+00
1.200000000000e+00
1.200000000000e+00
1.200000000000e+00
1.200000000000e+00
1.200000000000e+00
1.200000000000e+00
1.200000000000e+00
1.200000000000e+00
1.200000000000e+00
1.200000000000e+00
1.200000000000e+00
1.200000000000e+00
1.200000000000e+00
1.200000000000e+00
1.200000000000e+00
1.200000000000e+00
1.200000000000e+00
1.200000000000e+00
1.200000000000e+00
1.200000000000e+00
1.200000000000e+00
1.200000000000e+00
1.200000000000e+00
1.200000000000e+00
1.200000000000e+00
1.200000000000e+00
1.200000000000e+00
1.200000000000e+00
1.200000000000e+00
1.200000000000e+00
1.200000000000e+00
1.200000000000e+00
1.200000000000e+00
1.200000000000e+00
1.200000000000e+00
1.200000000000e+00
1.200000000000e+00
1.200000000000e+00
1.200000000000e+00
1.200000000000e+00
1.200000000000e+00
1.200000000000e+00
1.200000000000e+00
1.200000000000e+00
1.200000000000e+00
1.200000000000e+00
1.200000000000e+00
1.200000000000e+00
1.200000000000e+00
1.200000000000e+00
1.200000000000e+00
1.200000000000e+00
1.079999999959e+00
8.399999998772e-01
3.599999997136e-01
0.000000000000e+00
0.000000000000e+00
0.000000000000e+00
0.000000000000e+00
0.000000000000e+00
0.000000000000e+00
0.000000000000e+00
0.000000000000e+00
0.000000000000e+00
0.000000000000e+00
0.000000000000e+00
0.000000000000e+00
0.000000000000e+00
0.000000000000e+00
0.000000000000e+00
0.000000000000e+00
0.000000000000e+00
0.000000000000e+00
0.000000000000e+00
0.000000000000e+00
0.000000000000e+00
0.000000000000e+00
0.000000000000e+00
0.000000000000e+00
0.000000000000e+00
0.000000000000e+00
0.000000000000e+00
0.000000000000e+00
0.000000000000e+00
0.000000000000e+00
0.000000000000e+00
0.000000000000e+00
0.000000000000e+00
0.000000000000e+00
0.000000000000e+00
0.000000000000e+00
0.000000000000e+00
0.000000000000e+00
0.000000000000e+00
0.000000000000e+00
0.000000000000e+00
0.000000000000e+00
0.000000000000e+00
0.000000000000e+00
0.000000000000e+00
0.000000000000e+00
0.000000000000e+00
0.000000000000e+00
0.000000000000e+00
0.000000000000e+00
0.000000000000e+00
0.000000000000e+00
0.000000000000e+00
0.000000000000e+00
0.000000000000e+00
0.000000000000e+00
0.000000000000e+00
0.000000000000e+00
0.000000000000e+00
0.000000000000e+00
0.000000000000e+00
0.000000000000e+00
0.000000000000e+00
0.000000000000e+00
0.000000000000e+00
0.000000000000e+00
0.000000000000e+00
0.000000000000e+00
</dep>
<dep tran.v(vs) time>
1.472053162582e-08
9.232656624484e-05
3.848529163280e-05
-1.037028181543e-05
9.591644959400e-06
-1.402693821206e-06
1.180305943467e-05
1.142774430878e+00
1.211502496522e+00
1.200590417880e+00
1.199505629505e+00
1.200451146615e+00
1.199566134412e+00
1.200423272076e+00
1.199579697704e+00
1.200416665142e+00
1.199582999154e+00
1.200415035062e+00
1.199583819050e+00
1.200414628881e+00
1.199584023685e+00
1.200414527419e+00
1.199584074822e+00
1.200414502059e+00
1.199584087605e+00
1.200414495719e+00
1.199584090801e+00
1.200414494134e+00
1.199584091778e+00
1.200414493253e+00
1.199584092667e+00
1.200414492371e+00
1.199584093556e+00
1.200414491489e+00
1.199584094445e+00
1.200414490607e+00
1.199584095334e+00
1.200414489725e+00
1.199584096223e+00
1.200414488843e+00
1.199584097112e+00
1.200414487961e+00
1.199584098002e+00
1.200414487079e+00
1.199584098891e+00
1.200414486197e+00
1.199584099780e+00
1.200414485315e+00
1.199584100669e+00
1.200414484434e+00
1.199584101558e+00
1.200414483552e+00
1.199584102447e+00
1.200414482670e+00
1.199584103336e+00
1.200414481788e+00
1.199584104225e+00
1.200414480906e+00
1.199584105114e+00
1.200414480024e+00
1.199584106003e+00
1.200414479142e+00
1.199584106892e+00
1.200414478260e+00
1.199584107781e+00
1.200414477379e+00
1.199584108670e+00
1.200414476497e+00
1.199584109559e+00
1.200414475615e+00
1.199584110448e+00
1.200414474733e+00
1.199584111337e+00
1.200414473851e+00
1.199584112227e+00
1.200414472969e+00
1.199584118181e+00
1.199964875866e+00
1.200028727658e+00
1.397322801069e-02
-9.991884635072e-03
-4.398812479531e-04
3.755509623806e-04
-3.442476189034e-04
3.328007232320e-04
-3.243999450902e-04
3.230453373768e-04
-3.196544224032e-04
3.206607421585e-04
-3.184811099739e-04
3.200679247770e-04
-3.181885910589e-04
3.199199264952e-04
-3.181155099493e-04
3.198829371230e-04
-3.180972400550e-04
3.198736883647e-04
-3.180926720193e-04
3.198713765387e-04
-3.180915139428e-04
3.198705726889e-04
-3.180907199023e-04
3.198697688436e-04
-3.180899258627e-04
3.198689650019e-04
-3.180891318249e-04
3.198681611629e-04
-3.180883377894e-04
3.198673573263e-04
-3.180875437561e-04
3.198665534924e-04
-3.180867497254e-04
3.198657496608e-04
-3.180859556967e-04
3.198649458318e-04
-3.180851616707e-04
3.198641420051e-04
-3.180843676470e-04
3.198633381808e-04
-3.180835736257e-04
3.198625343591e-04
-3.180827796068e-04
3.198617305398e-04
-3.180819855903e-04
3.198609267228e-04
-3.180811915761e-04
3.198601229085e-04
-3.180803975643e-04
3.198593190965e-04
-3.180796035550e-04
3.198585152870e-04
-3.180788095480e-04
3.198577114798e-04
-3.180780155433e-04
3.198569076753e-04
-3.180772215410e-04
3.198561038730e-04
-3.180764275413e-04
3.198553000733e-04
-3.180756335438e-04
3.198544962759e-04
-3.180748395487e-04
3.198536924811e-04
-3.180740455561e-04
3.198528886886e-04
-3.180732515659e-04
3.198520848986e-04
-3.180722927569e-04
-3.045433540444e-05
2.567059483204e-05
-2.344709176496e-05
2.474339293849e-05
1.814277618798e-05
-1.450522767001e-05
7.763001382691e-06
1.144946834362e-06
-2.319901976654e-05
1.697448167922e-05
