<Qucs Dataset 25.1.1>
<indep v(d) 1>
0.000000000000e+00+j0.000000000000e+00
</indep>
<indep v(h) 1>
0.000000000000e+00+j0.000000000000e+00
</indep>
<indep v(p1) 1>
1.200000000000e+00+j0.000000000000e+00
</indep>
<indep v(p2) 1>
1.200000000000e+00+j0.000000000000e+00
</indep>
<indep v(q) 1>
1.200000000000e+00+j0.000000000000e+00
</indep>
<indep v(q_not) 1>
2.017707000000e-07+j0.000000000000e+00
</indep>
<indep v(s_not) 1>
1.200000000000e+00+j0.000000000000e+00
</indep>
<indep time 319>
0.000000000000e+00
1.000000000000e-14
2.000000000000e-14
4.000000000000e-14
8.000000000000e-14
1.600000000000e-13
3.200000000000e-13
6.400000000000e-13
1.000000000000e-12
1.064000000000e-12
1.192000000000e-12
1.448000000000e-12
1.960000000000e-12
2.984000000000e-12
5.032000000000e-12
9.128000000000e-12
1.415313000000e-11
1.917826000000e-11
2.420339000000e-11
2.922852000000e-11
3.425365000000e-11
3.927878000000e-11
4.430391000000e-11
4.932904000000e-11
5.435417000000e-11
5.937930000000e-11
6.440443000000e-11
6.942956000000e-11
7.445469000000e-11
7.947982000000e-11
8.450495000000e-11
8.953008000000e-11
9.455521000000e-11
9.958034000000e-11
1.010000000000e-10
1.011000000000e-10
1.013000000000e-10
1.017000000000e-10
1.020000000000e-10
1.020800000000e-10
1.022400000000e-10
1.025600000000e-10
1.032000000000e-10
1.044800000000e-10
1.070400000000e-10
1.120651300000e-10
1.170902600000e-10
1.221153900000e-10
1.271405200000e-10
1.321656500000e-10
1.371907800000e-10
1.422159100000e-10
1.472410400000e-10
1.522661700000e-10
1.572913000000e-10
1.623164300000e-10
1.673415600000e-10
1.723666900000e-10
1.773918200000e-10
1.824169500000e-10
1.874420800000e-10
1.924672100000e-10
1.974923400000e-10
2.010000000000e-10
2.011000000000e-10
2.013000000000e-10
2.017000000000e-10
2.020000000000e-10
2.020800000000e-10
2.022400000000e-10
2.025600000000e-10
2.030000000000e-10
2.030640000000e-10
2.031920000000e-10
2.034480000000e-10
2.039600000000e-10
2.049840000000e-10
2.070320000000e-10
2.111280000000e-10
2.161531300000e-10
2.211782600000e-10
2.262033900000e-10
2.312285200000e-10
2.362536500000e-10
2.412787800000e-10
2.463039100000e-10
2.513290400000e-10
2.563541700000e-10
2.613793000000e-10
2.664044300000e-10
2.714295600000e-10
2.764546900000e-10
2.814798200000e-10
2.865049500000e-10
2.915300800000e-10
2.965552100000e-10
3.015803400000e-10
3.030000000000e-10
3.035025130000e-10
3.040000000000e-10
3.041005026000e-10
3.043015078000e-10
3.047035182000e-10
3.055075390000e-10
3.071155806000e-10
3.103316638000e-10
3.153567938000e-10
3.203819238000e-10
3.254070538000e-10
3.304321838000e-10
3.354573138000e-10
3.404824438000e-10
3.455075738000e-10
3.505327038000e-10
3.555578338000e-10
3.605829638000e-10
3.656080938000e-10
3.706332238000e-10
3.756583538000e-10
3.806834838000e-10
3.857086138000e-10
3.907337438000e-10
3.957588738000e-10
4.007840038000e-10
4.020000000000e-10
4.021000000000e-10
4.023000000000e-10
4.027000000000e-10
4.030000000000e-10
4.030800000000e-10
4.032400000000e-10
4.035600000000e-10
4.040000000000e-10
4.040640000000e-10
4.041920000000e-10
4.044480000000e-10
4.049600000000e-10
4.050000000000e-10
4.050800000000e-10
4.052400000000e-10
4.055600000000e-10
4.062000000000e-10
4.074800000000e-10
4.100400000000e-10
4.150651300000e-10
4.200902600000e-10
4.251153900000e-10
4.301405200000e-10
4.351656500000e-10
4.401907800000e-10
4.452159100000e-10
4.502410400000e-10
4.552661700000e-10
4.602913000000e-10
4.653164300000e-10
4.703415600000e-10
4.753666900000e-10
4.803918200000e-10
4.854169500000e-10
4.904420800000e-10
4.954672100000e-10
5.004923400000e-10
5.050000000000e-10
5.051000000000e-10
5.053000000000e-10
5.057000000000e-10
5.060000000000e-10
5.060800000000e-10
5.062400000000e-10
5.065600000000e-10
5.072000000000e-10
5.084800000000e-10
5.110400000000e-10
5.160651300000e-10
5.210902600000e-10
5.261153900000e-10
5.311405200000e-10
5.361656500000e-10
5.411907800000e-10
5.462159100000e-10
5.512410400000e-10
5.562661700000e-10
5.612913000000e-10
5.663164300000e-10
5.713415600000e-10
5.763666900000e-10
5.813918200000e-10
5.864169500000e-10
5.914420800000e-10
5.964672100000e-10
6.014923400000e-10
6.030000000000e-10
6.033000000000e-10
6.039000000000e-10
6.040000000000e-10
6.041200000000e-10
6.043600000000e-10
6.048400000000e-10
6.058000000000e-10
6.060000000000e-10
6.061000000000e-10
6.063000000000e-10
6.067000000000e-10
6.070000000000e-10
6.070800000000e-10
6.072400000000e-10
6.075600000000e-10
6.082000000000e-10
6.094800000000e-10
6.120400000000e-10
6.170651300000e-10
6.220902600000e-10
6.271153900000e-10
6.321405200000e-10
6.371656500000e-10
6.421907800000e-10
6.472159100000e-10
6.522410400000e-10
6.572661700000e-10
6.622913000000e-10
6.673164300000e-10
6.723415600000e-10
6.773666900000e-10
6.823918200000e-10
6.874169500000e-10
6.924420800000e-10
6.974672100000e-10
7.024923400000e-10
7.070000000000e-10
7.075025130000e-10
7.080000000000e-10
7.081005026000e-10
7.083015078000e-10
7.087035182000e-10
7.095075390000e-10
7.111155806000e-10
7.143316638000e-10
7.193567938000e-10
7.243819238000e-10
7.294070538000e-10
7.344321838000e-10
7.394573138000e-10
7.444824438000e-10
7.495075738000e-10
7.545327038000e-10
7.595578338000e-10
7.645829638000e-10
7.696080938000e-10
7.746332238000e-10
7.796583538000e-10
7.846834838000e-10
7.897086138000e-10
7.947337438000e-10
7.997588738000e-10
8.040000000000e-10
8.041000000000e-10
8.043000000000e-10
8.047000000000e-10
8.050000000000e-10
8.050800000000e-10
8.052400000000e-10
8.055600000000e-10
8.062000000000e-10
8.074800000000e-10
8.080000000000e-10
8.081000000000e-10
8.083000000000e-10
8.087000000000e-10
8.090000000000e-10
8.090800000000e-10
8.092400000000e-10
8.095600000000e-10
8.102000000000e-10
8.114800000000e-10
8.140400000000e-10
8.190651300000e-10
8.240902600000e-10
8.291153900000e-10
8.341405200000e-10
8.391656500000e-10
8.441907800000e-10
8.492159100000e-10
8.542410400000e-10
8.592661700000e-10
8.642913000000e-10
8.693164300000e-10
8.743415600000e-10
8.793666900000e-10
8.843918200000e-10
8.894169500000e-10
8.944420800000e-10
8.994672100000e-10
9.044923400000e-10
9.090000000000e-10
9.095025130000e-10
9.100000000000e-10
9.101005026000e-10
9.103015078000e-10
9.107035182000e-10
9.115075390000e-10
9.131155806000e-10
9.163316638000e-10
9.213567938000e-10
9.263819238000e-10
9.314070538000e-10
9.364321838000e-10
9.414573138000e-10
9.464824438000e-10
9.515075738000e-10
9.565327038000e-10
9.615578338000e-10
9.665829638000e-10
9.716080938000e-10
9.766332238000e-10
9.816583538000e-10
9.866834838000e-10
9.917086138000e-10
9.967337438000e-10
1.000000000000e-09
</indep>
<dep tran.v(d) time>
0.000000000000e+00
1.200000000000e-02
2.400000000000e-02
4.800000000000e-02
9.600000000000e-02
1.920000000000e-01
3.840000000000e-01
7.680000000000e-01
1.200000000000e+00
1.200000000000e+00
1.200000000000e+00
1.200000000000e+00
1.200000000000e+00
1.200000000000e+00
1.200000000000e+00
1.200000000000e+00
1.200000000000e+00
1.200000000000e+00
1.200000000000e+00
1.200000000000e+00
1.200000000000e+00
1.200000000000e+00
1.200000000000e+00
1.200000000000e+00
1.200000000000e+00
1.200000000000e+00
1.200000000000e+00
1.200000000000e+00
1.200000000000e+00
1.200000000000e+00
1.200000000000e+00
1.200000000000e+00
1.200000000000e+00
1.200000000000e+00
1.200000000000e+00
1.200000000000e+00
1.200000000000e+00
1.200000000000e+00
1.200000000000e+00
1.200000000000e+00
1.200000000000e+00
1.200000000000e+00
1.200000000000e+00
1.200000000000e+00
1.200000000000e+00
1.200000000000e+00
1.200000000000e+00
1.200000000000e+00
1.200000000000e+00
1.200000000000e+00
1.200000000000e+00
1.200000000000e+00
1.200000000000e+00
1.200000000000e+00
1.200000000000e+00
1.200000000000e+00
1.200000000000e+00
1.200000000000e+00
1.200000000000e+00
1.200000000000e+00
1.200000000000e+00
1.200000000000e+00
1.200000000000e+00
1.200000000000e+00
1.080000000000e+00
8.400000000000e-01
3.600000000000e-01
0.000000000000e+00
0.000000000000e+00
0.000000000000e+00
0.000000000000e+00
0.000000000000e+00
0.000000000000e+00
0.000000000000e+00
0.000000000000e+00
0.000000000000e+00
0.000000000000e+00
0.000000000000e+00
0.000000000000e+00
0.000000000000e+00
0.000000000000e+00
0.000000000000e+00
0.000000000000e+00
0.000000000000e+00
0.000000000000e+00
0.000000000000e+00
0.000000000000e+00
0.000000000000e+00
0.000000000000e+00
0.000000000000e+00
0.000000000000e+00
0.000000000000e+00
0.000000000000e+00
0.000000000000e+00
0.000000000000e+00
0.000000000000e+00
0.000000000000e+00
0.000000000000e+00
0.000000000000e+00
0.000000000000e+00
0.000000000000e+00
0.000000000000e+00
0.000000000000e+00
0.000000000000e+00
0.000000000000e+00
0.000000000000e+00
0.000000000000e+00
0.000000000000e+00
0.000000000000e+00
0.000000000000e+00
0.000000000000e+00
0.000000000000e+00
0.000000000000e+00
0.000000000000e+00
0.000000000000e+00
0.000000000000e+00
0.000000000000e+00
0.000000000000e+00
0.000000000000e+00
0.000000000000e+00
0.000000000000e+00
0.000000000000e+00
0.000000000000e+00
0.000000000000e+00
0.000000000000e+00
1.200000000000e-01
3.600000000000e-01
8.400000000000e-01
1.200000000000e+00
1.200000000000e+00
1.200000000000e+00
1.200000000000e+00
1.200000000000e+00
1.200000000000e+00
1.200000000000e+00
1.200000000000e+00
1.200000000000e+00
1.200000000000e+00
1.200000000000e+00
1.200000000000e+00
1.200000000000e+00
1.200000000000e+00
1.200000000000e+00
1.200000000000e+00
1.200000000000e+00
1.200000000000e+00
1.200000000000e+00
1.200000000000e+00
1.200000000000e+00
1.200000000000e+00
1.200000000000e+00
1.200000000000e+00
1.200000000000e+00
1.200000000000e+00
1.200000000000e+00
1.200000000000e+00
1.200000000000e+00
1.200000000000e+00
1.200000000000e+00
1.200000000000e+00
1.200000000000e+00
1.200000000000e+00
1.200000000000e+00
1.200000000000e+00
1.200000000000e+00
1.200000000000e+00
1.200000000000e+00
1.200000000000e+00
1.200000000000e+00
1.200000000000e+00
1.200000000000e+00
1.200000000000e+00
1.200000000000e+00
1.200000000000e+00
1.200000000000e+00
1.200000000000e+00
1.200000000000e+00
1.200000000000e+00
1.200000000000e+00
1.200000000000e+00
1.200000000000e+00
1.200000000000e+00
1.200000000000e+00
1.200000000000e+00
1.200000000000e+00
1.200000000000e+00
1.200000000000e+00
1.200000000000e+00
1.200000000000e+00
1.200000000000e+00
1.200000000000e+00
1.200000000000e+00
8.400000000000e-01
1.200000000001e-01
3.508304757815e-14
0.000000000000e+00
0.000000000000e+00
0.000000000000e+00
0.000000000000e+00
0.000000000000e+00
0.000000000000e+00
0.000000000000e+00
0.000000000000e+00
0.000000000000e+00
0.000000000000e+00
0.000000000000e+00
0.000000000000e+00
0.000000000000e+00
0.000000000000e+00
0.000000000000e+00
0.000000000000e+00
0.000000000000e+00
0.000000000000e+00
0.000000000000e+00
0.000000000000e+00
0.000000000000e+00
0.000000000000e+00
0.000000000000e+00
0.000000000000e+00
0.000000000000e+00
0.000000000000e+00
0.000000000000e+00
0.000000000000e+00
0.000000000000e+00
0.000000000000e+00
0.000000000000e+00
0.000000000000e+00
0.000000000000e+00
0.000000000000e+00
0.000000000000e+00
0.000000000000e+00
0.000000000000e+00
0.000000000000e+00
0.000000000000e+00
0.000000000000e+00
0.000000000000e+00
0.000000000000e+00
0.000000000000e+00
0.000000000000e+00
0.000000000000e+00
0.000000000000e+00
0.000000000000e+00
0.000000000000e+00
0.000000000000e+00
0.000000000000e+00
0.000000000000e+00
0.000000000000e+00
0.000000000000e+00
0.000000000000e+00
0.000000000000e+00
0.000000000000e+00
0.000000000000e+00
0.000000000000e+00
0.000000000000e+00
0.000000000000e+00
1.200000000000e-01
3.600000000000e-01
8.400000000000e-01
1.200000000000e+00
1.200000000000e+00
1.200000000000e+00
1.200000000000e+00
1.200000000000e+00
1.200000000000e+00
1.200000000000e+00
1.200000000000e+00
1.200000000000e+00
1.200000000000e+00
1.200000000000e+00
1.200000000000e+00
1.200000000000e+00
1.200000000000e+00
1.200000000000e+00
1.200000000000e+00
1.200000000000e+00
1.200000000000e+00
1.200000000000e+00
1.200000000000e+00
1.200000000000e+00
1.200000000000e+00
1.200000000000e+00
1.200000000000e+00
1.200000000000e+00
1.200000000000e+00
1.200000000000e+00
1.200000000000e+00
1.200000000000e+00
1.200000000000e+00
1.200000000000e+00
1.200000000000e+00
1.200000000000e+00
1.200000000000e+00
1.200000000000e+00
1.200000000000e+00
1.200000000000e+00
1.200000000000e+00
1.200000000000e+00
1.200000000000e+00
1.200000000000e+00
1.200000000000e+00
1.200000000000e+00
1.200000000000e+00
1.200000000000e+00
1.200000000000e+00
1.200000000000e+00
1.200000000000e+00
1.200000000000e+00
1.200000000000e+00
1.200000000000e+00
1.200000000000e+00
1.200000000000e+00
1.200000000000e+00
1.200000000000e+00
1.200000000000e+00
1.200000000000e+00
1.200000000000e+00
1.200000000000e+00
1.200000000000e+00
1.200000000000e+00
</dep>
<dep tran.v(h) time>
0.000000000000e+00
1.200000000000e-02
2.400000000000e-02
4.800000000000e-02
9.600000000000e-02
1.920000000000e-01
3.840000000000e-01
7.680000000000e-01
1.200000000000e+00
1.200000000000e+00
1.200000000000e+00
1.200000000000e+00
1.200000000000e+00
1.200000000000e+00
1.200000000000e+00
1.200000000000e+00
1.200000000000e+00
1.200000000000e+00
1.200000000000e+00
1.200000000000e+00
1.200000000000e+00
1.200000000000e+00
1.200000000000e+00
1.200000000000e+00
1.200000000000e+00
1.200000000000e+00
1.200000000000e+00
1.200000000000e+00
1.200000000000e+00
1.200000000000e+00
1.200000000000e+00
1.200000000000e+00
1.200000000000e+00
1.200000000000e+00
1.200000000000e+00
1.080000000000e+00
8.400000000000e-01
3.600000000000e-01
0.000000000000e+00
0.000000000000e+00
0.000000000000e+00
0.000000000000e+00
0.000000000000e+00
0.000000000000e+00
0.000000000000e+00
0.000000000000e+00
0.000000000000e+00
0.000000000000e+00
0.000000000000e+00
0.000000000000e+00
0.000000000000e+00
0.000000000000e+00
0.000000000000e+00
0.000000000000e+00
0.000000000000e+00
0.000000000000e+00
0.000000000000e+00
0.000000000000e+00
0.000000000000e+00
0.000000000000e+00
0.000000000000e+00
0.000000000000e+00
0.000000000000e+00
0.000000000000e+00
0.000000000000e+00
0.000000000000e+00
0.000000000000e+00
0.000000000000e+00
9.599999999999e-02
2.880000000000e-01
6.720000000000e-01
1.200000000000e+00
1.200000000000e+00
1.200000000000e+00
1.200000000000e+00
1.200000000000e+00
1.200000000000e+00
1.200000000000e+00
1.200000000000e+00
1.200000000000e+00
1.200000000000e+00
1.200000000000e+00
1.200000000000e+00
1.200000000000e+00
1.200000000000e+00
1.200000000000e+00
1.200000000000e+00
1.200000000000e+00
1.200000000000e+00
1.200000000000e+00
1.200000000000e+00
1.200000000000e+00
1.200000000000e+00
1.200000000000e+00
1.200000000000e+00
1.200000000000e+00
1.200000000000e+00
1.200000000000e+00
5.969844000000e-01
1.953992523340e-14
0.000000000000e+00
0.000000000000e+00
0.000000000000e+00
0.000000000000e+00
0.000000000000e+00
0.000000000000e+00
0.000000000000e+00
0.000000000000e+00
0.000000000000e+00
0.000000000000e+00
0.000000000000e+00
0.000000000000e+00
0.000000000000e+00
0.000000000000e+00
0.000000000000e+00
0.000000000000e+00
0.000000000000e+00
0.000000000000e+00
0.000000000000e+00
0.000000000000e+00
0.000000000000e+00
0.000000000000e+00
0.000000000000e+00
0.000000000000e+00
0.000000000000e+00
0.000000000000e+00
0.000000000000e+00
0.000000000000e+00
0.000000000000e+00
0.000000000000e+00
0.000000000000e+00
0.000000000000e+00
0.000000000000e+00
7.679999999998e-02
2.304000000000e-01
5.376000000000e-01
1.152000000000e+00
1.200000000000e+00
1.200000000000e+00
1.200000000000e+00
1.200000000000e+00
1.200000000000e+00
1.200000000000e+00
1.200000000000e+00
1.200000000000e+00
1.200000000000e+00
1.200000000000e+00
1.200000000000e+00
1.200000000000e+00
1.200000000000e+00
1.200000000000e+00
1.200000000000e+00
1.200000000000e+00
1.200000000000e+00
1.200000000000e+00
1.200000000000e+00
1.200000000000e+00
1.200000000000e+00
1.200000000000e+00
1.200000000000e+00
1.200000000000e+00
1.200000000000e+00
1.200000000000e+00
1.080000000000e+00
8.400000000000e-01
3.600000000000e-01
0.000000000000e+00
0.000000000000e+00
0.000000000000e+00
0.000000000000e+00
0.000000000000e+00
0.000000000000e+00
0.000000000000e+00
0.000000000000e+00
0.000000000000e+00
0.000000000000e+00
0.000000000000e+00
0.000000000000e+00
0.000000000000e+00
0.000000000000e+00
0.000000000000e+00
0.000000000000e+00
0.000000000000e+00
0.000000000000e+00
0.000000000000e+00
0.000000000000e+00
0.000000000000e+00
0.000000000000e+00
0.000000000000e+00
0.000000000000e+00
0.000000000000e+00
0.000000000000e+00
0.000000000000e+00
0.000000000000e+00
0.000000000000e+00
0.000000000000e+00
0.000000000000e+00
0.000000000000e+00
0.000000000000e+00
0.000000000000e+00
1.200000000000e-01
3.600000000000e-01
8.400000000000e-01
1.200000000000e+00
1.200000000000e+00
1.200000000000e+00
1.200000000000e+00
1.200000000000e+00
1.200000000000e+00
1.200000000000e+00
1.200000000000e+00
1.200000000000e+00
1.200000000000e+00
1.200000000000e+00
1.200000000000e+00
1.200000000000e+00
1.200000000000e+00
1.200000000000e+00
1.200000000000e+00
1.200000000000e+00
1.200000000000e+00
1.200000000000e+00
1.200000000000e+00
1.200000000000e+00
1.200000000000e+00
1.200000000000e+00
1.200000000000e+00
1.200000000000e+00
1.200000000000e+00
5.969844000001e-01
5.062616992291e-14
0.000000000000e+00
0.000000000000e+00
0.000000000000e+00
0.000000000000e+00
0.000000000000e+00
0.000000000000e+00
0.000000000000e+00
0.000000000000e+00
0.000000000000e+00
0.000000000000e+00
0.000000000000e+00
0.000000000000e+00
0.000000000000e+00
0.000000000000e+00
0.000000000000e+00
0.000000000000e+00
0.000000000000e+00
0.000000000000e+00
0.000000000000e+00
0.000000000000e+00
0.000000000000e+00
0.000000000000e+00
0.000000000000e+00
0.000000000000e+00
0.000000000000e+00
0.000000000000e+00
0.000000000000e+00
0.000000000000e+00
0.000000000000e+00
0.000000000000e+00
0.000000000000e+00
0.000000000000e+00
0.000000000000e+00
0.000000000000e+00
1.200000000000e-01
3.600000000000e-01
8.400000000000e-01
1.200000000000e+00
1.200000000000e+00
1.200000000000e+00
1.200000000000e+00
1.200000000000e+00
1.200000000000e+00
1.200000000000e+00
1.200000000000e+00
1.200000000000e+00
1.200000000000e+00
1.200000000000e+00
1.200000000000e+00
1.200000000000e+00
1.200000000000e+00
1.200000000000e+00
1.200000000000e+00
1.200000000000e+00
1.200000000000e+00
1.200000000000e+00
1.200000000000e+00
1.200000000000e+00
1.200000000000e+00
1.200000000000e+00
1.200000000000e+00
1.200000000000e+00
1.200000000000e+00
5.969844000001e-01
5.062616992291e-14
0.000000000000e+00
0.000000000000e+00
0.000000000000e+00
0.000000000000e+00
0.000000000000e+00
0.000000000000e+00
0.000000000000e+00
0.000000000000e+00
0.000000000000e+00
0.000000000000e+00
0.000000000000e+00
0.000000000000e+00
0.000000000000e+00
0.000000000000e+00
0.000000000000e+00
0.000000000000e+00
0.000000000000e+00
0.000000000000e+00
0.000000000000e+00
0.000000000000e+00
0.000000000000e+00
0.000000000000e+00
0.000000000000e+00
</dep>
<dep tran.v(p1) time>
1.199999986347e+00
1.203781933763e+00
1.208702258216e+00
1.219291026992e+00
1.241440860518e+00
1.284974062823e+00
1.369495797561e+00
1.528942467828e+00
1.694024007215e+00
1.695806517502e+00
1.694901648799e+00
1.689139942013e+00
1.679194780913e+00
1.659475994619e+00
1.605837784465e+00
1.447236761869e+00
1.228382385768e+00
1.017297712300e+00
8.118784264215e-01
6.224139758830e-01
4.516367442752e-01
3.036098048407e-01
1.884297814024e-01
1.099932240875e-01
6.168420297602e-02
3.392572086295e-02
1.845610853121e-02
1.000902166259e-02
5.415047671511e-03
2.924787779674e-03
1.590878018677e-03
8.543493531041e-04
4.759899940773e-04
2.462986782502e-04
2.283229947725e-04
-1.523168918773e-02
-4.757280280022e-02
-1.261091814019e-01
-1.835658652158e-01
-1.794568654753e-01
-1.707243388492e-01
-1.570197995780e-01
-1.325137109231e-01
-7.885800944517e-02
2.953531631982e-02
2.309267269336e-01
4.225255385233e-01
6.077109781938e-01
7.835213691573e-01
9.377985516720e-01
1.048812962848e+00
1.117015830516e+00
1.155014660997e+00
1.175556566933e+00
1.186308125985e+00
1.192163190837e+00
1.195170458991e+00
1.196960659227e+00
1.197826056155e+00
1.198473072467e+00
1.198719216983e+00
1.199017683749e+00
1.199069062727e+00
1.199229047538e+00
