<Qucs Dataset 25.1.1>
<indep time 496>
1.000200000000e-06
1.000201000000e-06
1.000203000000e-06
1.000207000000e-06
1.000210000000e-06
1.000210800000e-06
1.000212400000e-06
1.000215600000e-06
1.000222000000e-06
1.000234800000e-06
1.000260400000e-06
1.000311600000e-06
1.000414000000e-06
1.000566364692e-06
1.000708779934e-06
1.000842223884e-06
1.001060974766e-06
1.001284400871e-06
1.001640437439e-06
1.002139370501e-06
1.002855128189e-06
1.004011818959e-06
1.005710952010e-06
1.007190000000e-06
1.007191000000e-06
1.007193000000e-06
1.007197000000e-06
1.007200000000e-06
1.007200800000e-06
1.007202400000e-06
1.007205600000e-06
1.007212000000e-06
1.007224800000e-06
1.007250400000e-06
1.007301600000e-06
1.007404000000e-06
1.007561034999e-06
1.007765884485e-06
1.008139925578e-06
1.008878633525e-06
1.010098790814e-06
1.012539105391e-06
1.017353315527e-06
1.022403825527e-06
1.027454335527e-06
1.032504845527e-06
1.037555355527e-06
1.042605865527e-06
1.047656375527e-06
1.050210000000e-06
1.050211000000e-06
1.050213000000e-06
1.050217000000e-06
1.050220000000e-06
1.050220800000e-06
1.050222400000e-06
1.050225600000e-06
1.050232000000e-06
1.050244800000e-06
1.050270400000e-06
1.050321600000e-06
1.050424000000e-06
1.050600702831e-06
1.050911613417e-06
1.051533434590e-06
1.052777076935e-06
1.055264361627e-06
1.060200000000e-06
1.060201000000e-06
1.060203000000e-06
1.060207000000e-06
1.060210000000e-06
1.060210800000e-06
1.060212400000e-06
1.060215600000e-06
1.060222000000e-06
1.060234800000e-06
1.060260400000e-06
1.060311600000e-06
1.060414000000e-06
1.060528572391e-06
1.060632741757e-06
1.060752029791e-06
1.060856495521e-06
1.060976289491e-06
1.061104003999e-06
1.061248562549e-06
1.061537679649e-06
1.061921478639e-06
1.062653559543e-06
1.063898761983e-06
1.066132705235e-06
1.070161666890e-06
1.075212176890e-06
1.080262686890e-06
1.085313196890e-06
1.090363706890e-06
1.095414216890e-06
1.100220000000e-06
1.100221000000e-06
1.100223000000e-06
1.100227000000e-06
1.100230000000e-06
1.100230800000e-06
1.100232400000e-06
1.100235600000e-06
1.100242000000e-06
1.100254800000e-06
1.100280400000e-06
1.100331600000e-06
1.100434000000e-06
1.100586318033e-06
1.100728750116e-06
1.100862152670e-06
1.101080756151e-06
1.101304055736e-06
1.101659755569e-06
1.102158241631e-06
1.102873337994e-06
1.104028787379e-06
1.105726227296e-06
1.108873531190e-06
1.113210000000e-06
1.113211000000e-06
1.113213000000e-06
1.113217000000e-06
1.113220000000e-06
1.113220800000e-06
1.113222400000e-06
1.113225600000e-06
1.113232000000e-06
1.113244800000e-06
1.113270400000e-06
1.113321600000e-06
1.113424000000e-06
1.113581036673e-06
1.113785884935e-06
1.114159928936e-06
1.114898634847e-06
1.116118790574e-06
1.118559102028e-06
1.123373265767e-06
1.128423775767e-06
1.133474285767e-06
1.138524795767e-06
1.143575305767e-06
1.148625815767e-06
1.150230000000e-06
1.150231000000e-06
1.150233000000e-06
1.150237000000e-06
1.150240000000e-06
1.150240800000e-06
1.150242400000e-06
1.150245600000e-06
1.150252000000e-06
1.150264800000e-06
1.150290400000e-06
1.150341600000e-06
1.150444000000e-06
1.150620692051e-06
1.150931551401e-06
1.151553270102e-06
1.152796707503e-06
1.155283582304e-06
1.160257331908e-06
1.165307841908e-06
1.166220000000e-06
1.166221000000e-06
1.166223000000e-06
1.166227000000e-06
1.166230000000e-06
1.166230800000e-06
1.166232400000e-06
1.166235600000e-06
1.166242000000e-06
1.166254800000e-06
1.166280400000e-06
1.166331600000e-06
1.166434000000e-06
1.166548573901e-06
1.166652743509e-06
1.166772033920e-06
1.166876498258e-06
1.166996309767e-06
1.167123931014e-06
1.167268522751e-06
1.167557706224e-06
1.167941582021e-06
1.168672950658e-06
1.169916688989e-06
1.172149103029e-06
1.176172335582e-06
1.181222845582e-06
1.186273355582e-06
1.191323865582e-06
1.196374375582e-06
1.200240000000e-06
1.200241000000e-06
1.200243000000e-06
1.200247000000e-06
1.200250000000e-06
1.200250800000e-06
1.200252400000e-06
1.200255600000e-06
1.200262000000e-06
1.200274800000e-06
1.200300400000e-06
1.200351600000e-06
1.200454000000e-06
1.200607646638e-06
1.200749853532e-06
1.200884356788e-06
1.201105404118e-06
1.201330910031e-06
1.201692117610e-06
1.202197296241e-06
1.202923498526e-06
1.204096531159e-06
1.205819205353e-06
1.209047648018e-06
1.214098158018e-06
1.219148668018e-06
1.219230000000e-06
1.219231000000e-06
1.219233000000e-06
1.219237000000e-06
1.219240000000e-06
1.219240800000e-06
1.219242400000e-06
1.219245600000e-06
1.219252000000e-06
1.219264800000e-06
1.219290400000e-06
1.219341600000e-06
1.219444000000e-06
1.219601037772e-06
1.219805885005e-06
1.220179931218e-06
1.220918632028e-06
1.222138782641e-06
1.224579083867e-06
1.229393171416e-06
1.234443681416e-06
1.239494191416e-06
1.244544701416e-06
1.249595211416e-06
1.250250000000e-06
1.250251000000e-06
1.250253000000e-06
1.250257000000e-06
1.250260000000e-06
1.250260800000e-06
1.250262400000e-06
1.250265600000e-06
1.250272000000e-06
1.250284800000e-06
1.250310400000e-06
1.250361600000e-06
1.250464000000e-06
1.250640684780e-06
1.250951549513e-06
1.251573278980e-06
1.252816737913e-06
1.255303655779e-06
1.260277491512e-06
1.265328001512e-06
1.270378511512e-06
1.272240000000e-06
1.272241000000e-06
1.272243000000e-06
1.272247000000e-06
1.272250000000e-06
1.272250800000e-06
1.272252400000e-06
1.272255600000e-06
1.272262000000e-06
1.272274800000e-06
1.272300400000e-06
1.272351600000e-06
1.272454000000e-06
1.272568578572e-06
1.272672748952e-06
1.272792045840e-06
1.272896527394e-06
1.273016374013e-06
1.273143937873e-06
1.273288566473e-06
1.273577823674e-06
1.273961949545e-06
1.274692813646e-06
1.275935871686e-06
1.278167474605e-06
1.282187009731e-06
1.287237519731e-06
1.292288029731e-06
1.297338539731e-06
1.300260000000e-06
1.300261000000e-06
1.300263000000e-06
1.300267000000e-06
1.300270000000e-06
1.300270800000e-06
1.300272400000e-06
1.300275600000e-06
1.300282000000e-06
1.300294800000e-06
1.300320400000e-06
1.300371600000e-06
1.300474000000e-06
1.300626303789e-06
1.300768739359e-06
1.300902129811e-06
1.301120699933e-06
1.301343970165e-06
1.301699594409e-06
1.302197984310e-06
1.302912930609e-06
1.304068120204e-06
1.305765198064e-06
1.308911191219e-06
1.313961701219e-06
1.319012211219e-06
1.324062721219e-06
1.325250000000e-06
1.325251000000e-06
1.325253000000e-06
1.325257000000e-06
1.325260000000e-06
1.325260800000e-06
1.325262400000e-06
1.325265600000e-06
1.325272000000e-06
1.325284800000e-06
1.325310400000e-06
1.325361600000e-06
1.325464000000e-06
1.325621039390e-06
1.325825884867e-06
1.326199934599e-06
1.326938624693e-06
1.328158764366e-06
1.330599043712e-06
1.335412982214e-06
1.340463492214e-06
1.345514002214e-06
1.350270000000e-06
1.350271000000e-06
1.350273000000e-06
1.350277000000e-06
1.350280000000e-06
1.350280800000e-06
1.350282400000e-06
1.350285600000e-06
1.350292000000e-06
1.350304800000e-06
1.350330400000e-06
1.350381600000e-06
1.350484000000e-06
1.350660690507e-06
1.350971541289e-06
1.351593242853e-06
1.352836645983e-06
1.355323452241e-06
1.360297064758e-06
1.365347574758e-06
1.370398084758e-06
1.375448594758e-06
1.378260000000e-06
1.378261000000e-06
1.378263000000e-06
1.378267000000e-06
1.378270000000e-06
1.378270800000e-06
1.378272400000e-06
1.378275600000e-06
1.378282000000e-06
1.378294800000e-06
1.378320400000e-06
1.378371600000e-06
1.378474000000e-06
1.378588582266e-06
1.378692752885e-06
1.378812053813e-06
1.378916540977e-06
1.379036406921e-06
1.379163919553e-06
1.379308572601e-06
1.379597878699e-06
1.379982120883e-06
1.380712568034e-06
1.381954893757e-06
1.384185729318e-06
1.388202078026e-06
1.393252588026e-06
1.398303098026e-06
1.400280000000e-06
1.400281000000e-06
1.400283000000e-06
1.400287000000e-06
1.400290000000e-06
1.400290800000e-06
1.400292400000e-06
1.400295600000e-06
1.400302000000e-06
1.400314800000e-06
1.400340400000e-06
1.400391600000e-06
1.400494000000e-06
1.400647655103e-06
1.400789859324e-06
1.400924370006e-06
1.401145441815e-06
1.401370968882e-06
1.401732232591e-06
1.402237484991e-06
1.402963798246e-06
1.404137035655e-06
1.405859991469e-06
1.409089485416e-06
1.414139995416e-06
1.419190505416e-06
1.424241015416e-06
1.429291525416e-06
1.431270000000e-06
1.431271000000e-06
1.431273000000e-06
1.431277000000e-06
1.431280000000e-06
1.431280800000e-06
1.431282400000e-06
1.431285600000e-06
1.431292000000e-06
1.431304800000e-06
1.431330400000e-06
1.431381600000e-06
1.431484000000e-06
1.431641041182e-06
1.431845885318e-06
1.432219938210e-06
1.432958625637e-06
1.434178763130e-06
1.436619038118e-06
1.441432920981e-06
1.446483430981e-06
1.450290000000e-06
1.450291000000e-06
1.450293000000e-06
1.450297000000e-06
1.450300000000e-06
1.450300800000e-06
1.450302400000e-06
1.450305600000e-06
1.450312000000e-06
1.450324800000e-06
1.450350400000e-06
1.450401600000e-06
1.450504000000e-06
1.450680685931e-06
1.450991555429e-06
1.451613294426e-06
1.452856772420e-06
1.455343728408e-06
1.460317640384e-06
1.465368150384e-06
1.470418660384e-06
1.475469170384e-06
1.480519680384e-06
1.484280000000e-06
1.484281000000e-06
1.484283000000e-06
1.484287000000e-06
1.484290000000e-06
1.484290800000e-06
1.484292400000e-06
1.484295600000e-06
1.484302000000e-06
1.484314800000e-06
1.484340400000e-06
1.484391600000e-06
1.484494000000e-06
1.484608588531e-06
1.484712760151e-06
1.484832070439e-06
1.484936591646e-06
1.485056508020e-06
1.485183995655e-06
1.485328688853e-06
1.485618075249e-06
1.486002728044e-06
1.486732860590e-06
1.487975230096e-06
1.490205926649e-06
1.494220470411e-06
1.499270980411e-06
1.500000000000e-06
</indep>
<dep tran.v(fdiv) time>
0.000000000000e+00
1.200000000032e-01
3.600000000096e-01
8.400000000223e-01
1.199999999999e+00
1.199999999999e+00
1.199999999999e+00
1.199999999999e+00
1.199999999999e+00
1.199999999999e+00
1.199999999999e+00
1.199999999999e+00
1.199999999999e+00
1.199999999999e+00
1.199999999999e+00
1.199999999999e+00
1.199999999999e+00
1.199999999999e+00
1.199999999999e+00
1.199999999999e+00
1.199999999999e+00
1.199999999999e+00
1.199999999999e+00
1.199999999999e+00
1.199999999999e+00
1.199999999999e+00
1.199999999999e+00
1.199999999999e+00
1.199999999999e+00
1.199999999999e+00
1.199999999999e+00
1.199999999999e+00
1.199999999999e+00
1.199999999999e+00
1.199999999999e+00
1.199999999999e+00
1.199999999999e+00
1.199999999999e+00
1.199999999999e+00
1.199999999999e+00
1.199999999999e+00
1.199999999999e+00
1.199999999999e+00
1.199999999999e+00
1.199999999999e+00
1.199999999999e+00
1.199999999999e+00
1.199999999999e+00
1.199999999999e+00
1.199999999998e+00
1.079999999995e+00
8.399999999884e-01
3.599999999757e-01
0.000000000000e+00
0.000000000000e+00
0.000000000000e+00
0.000000000000e+00
0.000000000000e+00
0.000000000000e+00
0.000000000000e+00
0.000000000000e+00
0.000000000000e+00
0.000000000000e+00
0.000000000000e+00
0.000000000000e+00
0.000000000000e+00
0.000000000000e+00
0.000000000000e+00
0.000000000000e+00
0.000000000000e+00
0.000000000000e+00
0.000000000000e+00
0.000000000000e+00
0.000000000000e+00
0.000000000000e+00
0.000000000000e+00
0.000000000000e+00
0.000000000000e+00
0.000000000000e+00
0.000000000000e+00
0.000000000000e+00
0.000000000000e+00
0.000000000000e+00
0.000000000000e+00
0.000000000000e+00
0.000000000000e+00
0.000000000000e+00
0.000000000000e+00
0.000000000000e+00
0.000000000000e+00
0.000000000000e+00
0.000000000000e+00
0.000000000000e+00
0.000000000000e+00
0.000000000000e+00
0.000000000000e+00
0.000000000000e+00
0.000000000000e+00
0.000000000000e+00
1.200000000032e-01
3.600000000096e-01
8.400000000223e-01
1.199999999999e+00
1.199999999999e+00
1.199999999999e+00
1.199999999999e+00
1.199999999999e+00
1.199999999999e+00
1.199999999999e+00
1.199999999999e+00
1.199999999999e+00
1.199999999999e+00
1.199999999999e+00
1.199999999999e+00
1.199999999999e+00
1.199999999999e+00
1.199999999999e+00
1.199999999999e+00
1.199999999999e+00
1.199999999999e+00
1.199999999999e+00
1.199999999999e+00
1.199999999999e+00
1.199999999999e+00
1.199999999999e+00
1.199999999999e+00
1.199999999999e+00
1.199999999999e+00
1.199999999999e+00
1.199999999999e+00
1.199999999999e+00
1.199999999999e+00
1.199999999999e+00
1.199999999999e+00
1.199999999999e+00
1.199999999999e+00
1.199999999999e+00
1.199999999999e+00
1.199999999999e+00
1.199999999999e+00
1.199999999999e+00
1.199999999999e+00
1.199999999999e+00
1.199999999999e+00
1.199999999999e+00
1.199999999999e+00
1.199999999999e+00
1.199999999998e+00
1.079999999995e+00
8.399999999884e-01
3.599999999757e-01
0.000000000000e+00
0.000000000000e+00
0.000000000000e+00
0.000000000000e+00
0.000000000000e+00
0.000000000000e+00
0.000000000000e+00
0.000000000000e+00
0.000000000000e+00
0.000000000000e+00
0.000000000000e+00
0.000000000000e+00
0.000000000000e+00
0.000000000000e+00
0.000000000000e+00
0.000000000000e+00
0.000000000000e+00
0.000000000000e+00
0.000000000000e+00
0.000000000000e+00
0.000000000000e+00
0.000000000000e+00
0.000000000000e+00
0.000000000000e+00
0.000000000000e+00
0.000000000000e+00
0.000000000000e+00
0.000000000000e+00
0.000000000000e+00
0.000000000000e+00
0.000000000000e+00
0.000000000000e+00
0.000000000000e+00
0.000000000000e+00
0.000000000000e+00
0.000000000000e+00
0.000000000000e+00
0.000000000000e+00
0.000000000000e+00
0.000000000000e+00
0.000000000000e+00
0.000000000000e+00
0.000000000000e+00
0.000000000000e+00
0.000000000000e+00
0.000000000000e+00
0.000000000000e+00
1.200000000032e-01
3.600000000096e-01
8.400000000223e-01
1.199999999999e+00
1.199999999999e+00
1.199999999999e+00
1.199999999999e+00
1.199999999999e+00
1.199999999999e+00
1.199999999999e+00
1.199999999999e+00
1.199999999999e+00
1.199999999999e+00
1.199999999999e+00
1.199999999999e+00
1.199999999999e+00
1.199999999999e+00
1.199999999999e+00
1.199999999999e+00
1.199999999999e+00
1.199999999999e+00
1.199999999999e+00
1.199999999999e+00
1.199999999999e+00
1.199999999999e+00
1.199999999999e+00
1.199999999999e+00
1.199999999999e+00
1.199999999999e+00
1.199999999999e+00
1.199999999999e+00
1.199999999999e+00
1.199999999999e+00
1.199999999999e+00
1.199999999999e+00
1.199999999999e+00
1.199999999999e+00
1.199999999999e+00
1.199999999999e+00
1.199999999999e+00
1.199999999999e+00
1.199999999999e+00
1.199999999999e+00
1.199999999999e+00
1.199999999999e+00
1.199999999999e+00
1.199999999999e+00
1.199999999999e+00
1.199999999999e+00
1.199999999998e+00
1.079999999995e+00
8.399999999884e-01
3.599999999757e-01
0.000000000000e+00
0.000000000000e+00
0.000000000000e+00
0.000000000000e+00
0.000000000000e+00
0.000000000000e+00
0.000000000000e+00
0.000000000000e+00
0.000000000000e+00
0.000000000000e+00
0.000000000000e+00
0.000000000000e+00
0.000000000000e+00
0.000000000000e+00
0.000000000000e+00
0.000000000000e+00
0.000000000000e+00
0.000000000000e+00
0.000000000000e+00
0.000000000000e+00
0.000000000000e+00
0.000000000000e+00
0.000000000000e+00
0.000000000000e+00
0.000000000000e+00
0.000000000000e+00
0.000000000000e+00
0.000000000000e+00
0.000000000000e+00
0.000000000000e+00
0.000000000000e+00
0.000000000000e+00
0.000000000000e+00
0.000000000000e+00
0.000000000000e+00
0.000000000000e+00
0.000000000000e+00
0.000000000000e+00
0.000000000000e+00
0.000000000000e+00
0.000000000000e+00
0.000000000000e+00
0.000000000000e+00
0.000000000000e+00
0.000000000000e+00
0.000000000000e+00
0.000000000000e+00
1.200000000032e-01
3.600000000096e-01
8.400000000223e-01
1.199999999999e+00
1.199999999999e+00
1.199999999999e+00
1.199999999999e+00
1.199999999999e+00
1.199999999999e+00
1.199999999999e+00
1.199999999999e+00
1.199999999999e+00
1.199999999999e+00
1.199999999999e+00
1.199999999999e+00
1.199999999999e+00
1.199999999999e+00
1.199999999999e+00
1.199999999999e+00
1.199999999999e+00
1.199999999999e+00
1.199999999999e+00
1.199999999999e+00
1.199999999999e+00
1.199999999999e+00
1.199999999999e+00
1.199999999999e+00
1.199999999999e+00
1.199999999999e+00
1.199999999999e+00
1.199999999999e+00
1.199999999999e+00
1.199999999999e+00
1.199999999999e+00
1.199999999999e+00
1.199999999999e+00
1.199999999999e+00
1.199999999999e+00
1.199999999999e+00
1.199999999999e+00
1.199999999999e+00
1.199999999999e+00
1.199999999999e+00
1.199999999999e+00
1.199999999999e+00
1.199999999999e+00
1.199999999999e+00
1.199999999999e+00
1.199999999998e+00
1.079999999995e+00
8.399999999884e-01
3.599999999757e-01
0.000000000000e+00
0.000000000000e+00
0.000000000000e+00
0.000000000000e+00
0.000000000000e+00
0.000000000000e+00
0.000000000000e+00
0.000000000000e+00
0.000000000000e+00
0.000000000000e+00
0.000000000000e+00
0.000000000000e+00
0.000000000000e+00
0.000000000000e+00
0.000000000000e+00
0.000000000000e+00
0.000000000000e+00
0.000000000000e+00
0.000000000000e+00
0.000000000000e+00
0.000000000000e+00
0.000000000000e+00
0.000000000000e+00
0.000000000000e+00
0.000000000000e+00
0.000000000000e+00
0.000000000000e+00
0.000000000000e+00
0.000000000000e+00
0.000000000000e+00
0.000000000000e+00
0.000000000000e+00
0.000000000000e+00
0.000000000000e+00
0.000000000000e+00
0.000000000000e+00
0.000000000000e+00
0.000000000000e+00
0.000000000000e+00
0.000000000000e+00
0.000000000000e+00
0.000000000000e+00
0.000000000000e+00
0.000000000000e+00
0.000000000000e+00
0.000000000000e+00
0.000000000000e+00
1.200000000032e-01
3.600000000096e-01
8.400000000223e-01
1.199999999999e+00
1.199999999999e+00
1.199999999999e+00
1.199999999999e+00
1.199999999999e+00
1.199999999999e+00
1.199999999999e+00
1.199999999999e+00
1.199999999999e+00
1.199999999999e+00
1.199999999999e+00
1.199999999999e+00
1.199999999999e+00
1.199999999999e+00
1.199999999999e+00
1.199999999999e+00
1.199999999999e+00
1.199999999999e+00
1.199999999999e+00
1.199999999999e+00
1.199999999999e+00
1.199999999999e+00
1.199999999999e+00
1.199999999999e+00
1.199999999999e+00
1.199999999999e+00
1.199999999999e+00
1.199999999999e+00
1.199999999999e+00
1.199999999999e+00
1.199999999999e+00
1.199999999999e+00
1.199999999999e+00
1.199999999999e+00
1.199999999999e+00
1.199999999999e+00
1.199999999999e+00
1.199999999999e+00
1.199999999999e+00
1.199999999999e+00
1.199999999999e+00
1.199999999999e+00
1.199999999999e+00
1.199999999999e+00
1.199999999999e+00
1.199999999998e+00
1.079999999995e+00
8.399999999884e-01
3.599999999757e-01
0.000000000000e+00
0.000000000000e+00
0.000000000000e+00
0.000000000000e+00
0.000000000000e+00
0.000000000000e+00
0.000000000000e+00
0.000000000000e+00
0.000000000000e+00
0.000000000000e+00
0.000000000000e+00
0.000000000000e+00
0.000000000000e+00
0.000000000000e+00
0.000000000000e+00
0.000000000000e+00
0.000000000000e+00
0.000000000000e+00
0.000000000000e+00
0.000000000000e+00
0.000000000000e+00
0.000000000000e+00
0.000000000000e+00
0.000000000000e+00
0.000000000000e+00
0.000000000000e+00
0.000000000000e+00
0.000000000000e+00
0.000000000000e+00
0.000000000000e+00
0.000000000000e+00
0.000000000000e+00
0.000000000000e+00
0.000000000000e+00
0.000000000000e+00
0.000000000000e+00
0.000000000000e+00
0.000000000000e+00
0.000000000000e+00
0.000000000000e+00
0.000000000000e+00
0.000000000000e+00
0.000000000000e+00
0.000000000000e+00
0.000000000000e+00
0.000000000000e+00
0.000000000000e+00
</dep>
<dep tran.v(fref) time>
1.199999999999e+00
1.199999999999e+00
1.199999999999e+00
1.199999999999e+00
1.199999999999e+00
1.199999999999e+00
1.199999999999e+00
1.199999999999e+00
1.199999999999e+00
1.199999999999e+00
1.199999999999e+00
1.199999999999e+00
1.199999999999e+00
1.199999999999e+00
1.199999999999e+00
1.199999999999e+00
1.199999999999e+00
1.199999999999e+00
1.199999999999e+00
1.199999999999e+00
1.199999999999e+00
1.199999999999e+00
1.199999999999e+00
1.199999999996e+00
1.079999999993e+00
8.399999999868e-01
3.599999999741e-01
0.000000000000e+00
0.000000000000e+00
0.000000000000e+00
0.000000000000e+00
0.000000000000e+00
0.000000000000e+00
0.000000000000e+00
0.000000000000e+00
0.000000000000e+00
0.000000000000e+00
0.000000000000e+00
0.000000000000e+00
0.000000000000e+00
0.000000000000e+00
0.000000000000e+00
0.000000000000e+00
0.000000000000e+00
0.000000000000e+00
0.000000000000e+00
0.000000000000e+00
0.000000000000e+00
0.000000000000e+00
0.000000000000e+00
0.000000000000e+00
0.000000000000e+00
0.000000000000e+00
0.000000000000e+00
0.000000000000e+00
