<Qucs Dataset 25.1.1>
<indep time 427>
1.000200000000e-06
1.000201000000e-06
1.000203000000e-06
1.000207000000e-06
1.000210000000e-06
1.000210800000e-06
1.000212400000e-06
1.000215600000e-06
1.000222000000e-06
1.000234800000e-06
1.000260400000e-06
1.000311600000e-06
1.000414000000e-06
1.000567635168e-06
1.000678500060e-06
1.000795061803e-06
1.000901397905e-06
1.001015676063e-06
1.001166977598e-06
1.001469580668e-06
1.001968865664e-06
1.002893528106e-06
1.004705425961e-06
1.007983746344e-06
1.013034256344e-06
1.018084766344e-06
1.023135276344e-06
1.028185786344e-06
1.033236296344e-06
1.034220000000e-06
1.034221000000e-06
1.034223000000e-06
1.034227000000e-06
1.034230000000e-06
1.034230800000e-06
1.034232400000e-06
1.034235600000e-06
1.034242000000e-06
1.034254800000e-06
1.034280400000e-06
1.034327164239e-06
1.034420692718e-06
1.034547568733e-06
1.034659362058e-06
1.034779952136e-06
1.034968618417e-06
1.035160110231e-06
1.035497165121e-06
1.035961278259e-06
1.036686248402e-06
1.037888753600e-06
1.039738113716e-06
1.042850884311e-06
1.047858788910e-06
1.050210000000e-06
1.050211000000e-06
1.050213000000e-06
1.050217000000e-06
1.050220000000e-06
1.050220800000e-06
1.050222400000e-06
1.050225600000e-06
1.050232000000e-06
1.050244800000e-06
1.050270400000e-06
1.050321600000e-06
1.050424000000e-06
1.050580180121e-06
1.050785701419e-06
1.051158269533e-06
1.051899633136e-06
1.053122667595e-06
1.055568736513e-06
1.060424636007e-06
1.065475146007e-06
1.070525656007e-06
1.075576166007e-06
1.080626676007e-06
1.081230000000e-06
1.081417818072e-06
1.081793454216e-06
1.082307410227e-06
1.082875524939e-06
1.084011754364e-06
1.086284213213e-06
1.090275150022e-06
1.095325660022e-06
1.100220000000e-06
1.100221000000e-06
1.100223000000e-06
1.100227000000e-06
1.100230000000e-06
1.100230800000e-06
1.100232400000e-06
1.100235600000e-06
1.100242000000e-06
1.100254800000e-06
1.100280400000e-06
1.100331600000e-06
1.100434000000e-06
1.100587654660e-06
1.100698529020e-06
1.100815099391e-06
1.100921443157e-06
1.101035730520e-06
1.101187042373e-06
1.101489666080e-06
1.101989599203e-06
1.102930167521e-06
1.104741972920e-06
1.108061543520e-06
1.113112053520e-06
1.118162563520e-06
1.123213073520e-06
1.128240000000e-06
1.128241000000e-06
1.128243000000e-06
1.128247000000e-06
1.128250000000e-06
1.128250800000e-06
1.128252400000e-06
1.128255600000e-06
1.128262000000e-06
1.128274800000e-06
1.128300400000e-06
1.128348181310e-06
1.128443743929e-06
1.128565274394e-06
1.128674884804e-06
1.128793440012e-06
1.128973964444e-06
1.129169413115e-06
1.129504222315e-06
1.129980959813e-06
1.130731930759e-06
1.131983650075e-06
1.133944856421e-06
1.137255460752e-06
1.142305970752e-06
1.147356480752e-06
1.150230000000e-06
1.150231000000e-06
1.150233000000e-06
1.150237000000e-06
1.150240000000e-06
1.150240800000e-06
1.150242400000e-06
1.150245600000e-06
1.150252000000e-06
1.150264800000e-06
1.150290400000e-06
1.150341600000e-06
1.150444000000e-06
1.150600179312e-06
1.150805700115e-06
1.151178267977e-06
1.151919623052e-06
1.153142649967e-06
1.155588703798e-06
1.160444519566e-06
1.165495029566e-06
1.170545539566e-06
1.175250000000e-06
1.175755051000e-06
1.176765153000e-06
1.178106995490e-06
1.179591087080e-06
1.182559270261e-06
1.187609780261e-06
1.192660290261e-06
1.197710800261e-06
1.200240000000e-06
1.200241000000e-06
1.200243000000e-06
1.200247000000e-06
1.200250000000e-06
1.200250800000e-06
1.200252400000e-06
1.200255600000e-06
1.200262000000e-06
1.200274800000e-06
1.200300400000e-06
1.200351600000e-06
1.200454000000e-06
1.200607650023e-06
1.200718521506e-06
1.200835089370e-06
1.200941429178e-06
1.201055712937e-06
1.201207021016e-06
1.201509637175e-06
1.202008865354e-06
1.202927411661e-06
1.204740380296e-06
1.208004110062e-06
1.213054620062e-06
1.218105130062e-06
1.222260000000e-06
1.222261000000e-06
1.222263000000e-06
1.222267000000e-06
1.222270000000e-06
1.222270800000e-06
1.222272400000e-06
1.222275600000e-06
1.222282000000e-06
1.222294800000e-06
1.222320400000e-06
1.222366994450e-06
1.222460183351e-06
1.222589371318e-06
1.222702315036e-06
1.222824041189e-06
1.223016124357e-06
1.223207295605e-06
1.223546309450e-06
1.224008164131e-06
1.224727217722e-06
1.225917089314e-06
1.227735460983e-06
1.230790721119e-06
1.235683483488e-06
1.240733993488e-06
1.245784503488e-06
1.250250000000e-06
1.250251000000e-06
1.250253000000e-06
1.250257000000e-06
1.250260000000e-06
1.250260800000e-06
1.250262400000e-06
1.250265600000e-06
1.250272000000e-06
1.250284800000e-06
1.250310400000e-06
1.250361600000e-06
1.250464000000e-06
1.250620180143e-06
1.250825701438e-06
1.251198269572e-06
1.251939633196e-06
1.253162667646e-06
1.255608736546e-06
1.260464635950e-06
1.265515145950e-06
1.269270000000e-06
1.269775051000e-06
1.270785153000e-06
1.272133700234e-06
1.273615765549e-06
1.276579896178e-06
1.281630406178e-06
1.286680916178e-06
1.291731426178e-06
1.296781936178e-06
1.300260000000e-06
1.300261000000e-06
1.300263000000e-06
1.300267000000e-06
1.300270000000e-06
1.300270800000e-06
1.300272400000e-06
1.300275600000e-06
1.300282000000e-06
1.300294800000e-06
1.300320400000e-06
1.300371600000e-06
1.300474000000e-06
1.300627649950e-06
1.300738521281e-06
1.300855089026e-06
1.300961428407e-06
1.301075711864e-06
1.301227019631e-06
1.301529635166e-06
1.302028724886e-06
1.302937817503e-06
1.304752248146e-06
1.307993219615e-06
1.313043729615e-06
1.316280000000e-06
1.316281000000e-06
1.316283000000e-06
1.316287000000e-06
1.316290000000e-06
1.316290800000e-06
1.316292400000e-06
1.316295600000e-06
1.316302000000e-06
1.316314800000e-06
1.316340400000e-06
1.316386974792e-06
1.316480124377e-06
1.316608146413e-06
1.316720462511e-06
1.316841523121e-06
1.317031923929e-06
1.317222960680e-06
1.317560788024e-06
1.318023185194e-06
1.318744213742e-06
1.319938929423e-06
1.321769878338e-06
1.324849364197e-06
1.329791573779e-06
1.334842083779e-06
1.339892593779e-06
1.344943103779e-06
1.349993613779e-06
1.350270000000e-06
1.350271000000e-06
1.350273000000e-06
1.350277000000e-06
1.350280000000e-06
1.350280800000e-06
1.350282400000e-06
1.350285600000e-06
1.350292000000e-06
1.350304800000e-06
1.350330400000e-06
1.350381600000e-06
1.350484000000e-06
1.350640179908e-06
1.350845701510e-06
1.351218269211e-06
1.351959634148e-06
1.353182670055e-06
1.355628741867e-06
1.360484657414e-06
1.363290000000e-06
1.363795051000e-06
1.364805153000e-06
1.366196799345e-06
1.367666309645e-06
1.370605330245e-06
1.375655840245e-06
1.380706350245e-06
1.385756860245e-06
1.390807370245e-06
1.395857880245e-06
1.400280000000e-06
1.400281000000e-06
1.400283000000e-06
1.400287000000e-06
1.400290000000e-06
1.400290800000e-06
1.400292400000e-06
1.400295600000e-06
1.400302000000e-06
1.400314800000e-06
1.400340400000e-06
1.400391600000e-06
1.400494000000e-06
1.400647650308e-06
1.400758521949e-06
1.400875089963e-06
1.400981429945e-06
1.401095713883e-06
1.401247022155e-06
1.401549638699e-06
1.402048784780e-06
1.402961615852e-06
1.404775470441e-06
1.408025448016e-06
1.410300000000e-06
1.410301000000e-06
1.410303000000e-06
1.410307000000e-06
1.410310000000e-06
1.410310800000e-06
1.410312400000e-06
1.410315600000e-06
1.410322000000e-06
1.410334800000e-06
1.410360400000e-06
1.410406954379e-06
1.410500063136e-06
1.410629571129e-06
1.410742667932e-06
1.410864536468e-06
1.411057100245e-06
1.411248195481e-06
1.411587462048e-06
1.412048954237e-06
1.412767107013e-06
1.413955127068e-06
1.415769019068e-06
1.418816067413e-06
1.423692513103e-06
1.428743023103e-06
1.433793533103e-06
1.438844043103e-06
1.443894553103e-06
1.448945063103e-06
1.450290000000e-06
1.450291000000e-06
1.450293000000e-06
1.450297000000e-06
1.450300000000e-06
1.450300800000e-06
1.450302400000e-06
1.450305600000e-06
1.450312000000e-06
1.450324800000e-06
1.450350400000e-06
1.450401600000e-06
1.450504000000e-06
1.450660178455e-06
1.450865699827e-06
1.451238266406e-06
1.451979623389e-06
1.453202652696e-06
1.455648711309e-06
1.457310000000e-06
1.457795584774e-06
1.458766754321e-06
1.460104757013e-06
1.461518901256e-06
1.464347189741e-06
1.469397699741e-06
1.474448209741e-06
1.479498719741e-06
1.484549229741e-06
1.489599739741e-06
1.494650249741e-06
1.499700759741e-06
1.500000000000e-06
</indep>
<dep tran.v(fdiv) time>
0.000000000000e+00
1.200000000032e-01
3.600000000096e-01
8.400000000223e-01
1.199999999999e+00
1.199999999999e+00
1.199999999999e+00
1.199999999999e+00
1.199999999999e+00
1.199999999999e+00
1.199999999999e+00
1.199999999999e+00
1.199999999999e+00
1.199999999999e+00
1.199999999999e+00
1.199999999999e+00
1.199999999999e+00
1.199999999999e+00
1.199999999999e+00
1.199999999999e+00
1.199999999999e+00
1.199999999999e+00
1.199999999999e+00
1.199999999999e+00
1.199999999999e+00
1.199999999999e+00
1.199999999999e+00
1.199999999999e+00
1.199999999999e+00
1.199999999999e+00
1.199999999999e+00
1.199999999999e+00
1.199999999999e+00
1.199999999999e+00
1.199999999999e+00
1.199999999999e+00
1.199999999999e+00
1.199999999999e+00
1.199999999999e+00
1.199999999999e+00
1.199999999999e+00
1.199999999999e+00
1.199999999999e+00
1.199999999999e+00
1.199999999999e+00
1.199999999999e+00
1.199999999999e+00
1.199999999999e+00
1.199999999999e+00
1.199999999999e+00
1.199999999999e+00
1.199999999999e+00
1.199999999999e+00
1.199999999999e+00
1.199999999998e+00
1.079999999995e+00
8.399999999884e-01
3.599999999757e-01
0.000000000000e+00
0.000000000000e+00
0.000000000000e+00
0.000000000000e+00
0.000000000000e+00
0.000000000000e+00
0.000000000000e+00
0.000000000000e+00
0.000000000000e+00
0.000000000000e+00
0.000000000000e+00
0.000000000000e+00
0.000000000000e+00
0.000000000000e+00
0.000000000000e+00
0.000000000000e+00
0.000000000000e+00
0.000000000000e+00
0.000000000000e+00
0.000000000000e+00
0.000000000000e+00
0.000000000000e+00
0.000000000000e+00
0.000000000000e+00
0.000000000000e+00
0.000000000000e+00
0.000000000000e+00
0.000000000000e+00
0.000000000000e+00
0.000000000000e+00
1.200000000032e-01
3.600000000096e-01
8.400000000223e-01
1.199999999999e+00
1.199999999999e+00
1.199999999999e+00
1.199999999999e+00
1.199999999999e+00
1.199999999999e+00
1.199999999999e+00
1.199999999999e+00
1.199999999999e+00
1.199999999999e+00
1.199999999999e+00
1.199999999999e+00
1.199999999999e+00
1.199999999999e+00
1.199999999999e+00
1.199999999999e+00
1.199999999999e+00
1.199999999999e+00
1.199999999999e+00
1.199999999999e+00
1.199999999999e+00
1.199999999999e+00
1.199999999999e+00
1.199999999999e+00
1.199999999999e+00
1.199999999999e+00
1.199999999999e+00
1.199999999999e+00
1.199999999999e+00
1.199999999999e+00
1.199999999999e+00
1.199999999999e+00
1.199999999999e+00
1.199999999999e+00
1.199999999999e+00
1.199999999999e+00
1.199999999999e+00
1.199999999999e+00
1.199999999999e+00
1.199999999999e+00
1.199999999999e+00
1.199999999999e+00
1.199999999999e+00
1.199999999999e+00
1.199999999999e+00
1.199999999999e+00
1.199999999999e+00
1.199999999999e+00
1.199999999999e+00
1.199999999998e+00
1.079999999995e+00
8.399999999884e-01
3.599999999757e-01
0.000000000000e+00
0.000000000000e+00
0.000000000000e+00
0.000000000000e+00
0.000000000000e+00
0.000000000000e+00
0.000000000000e+00
0.000000000000e+00
0.000000000000e+00
0.000000000000e+00
0.000000000000e+00
0.000000000000e+00
0.000000000000e+00
0.000000000000e+00
0.000000000000e+00
0.000000000000e+00
0.000000000000e+00
0.000000000000e+00
0.000000000000e+00
0.000000000000e+00
0.000000000000e+00
0.000000000000e+00
0.000000000000e+00
0.000000000000e+00
0.000000000000e+00
0.000000000000e+00
0.000000000000e+00
0.000000000000e+00
1.200000000032e-01
3.600000000096e-01
8.400000000223e-01
1.199999999999e+00
1.199999999999e+00
1.199999999999e+00
1.199999999999e+00
1.199999999999e+00
1.199999999999e+00
1.199999999999e+00
1.199999999999e+00
1.199999999999e+00
1.199999999999e+00
1.199999999999e+00
1.199999999999e+00
1.199999999999e+00
1.199999999999e+00
1.199999999999e+00
1.199999999999e+00
1.199999999999e+00
1.199999999999e+00
1.199999999999e+00
1.199999999999e+00
1.199999999999e+00
1.199999999999e+00
1.199999999999e+00
1.199999999999e+00
1.199999999999e+00
1.199999999999e+00
1.199999999999e+00
1.199999999999e+00
1.199999999999e+00
1.199999999999e+00
1.199999999999e+00
1.199999999999e+00
1.199999999999e+00
1.199999999999e+00
1.199999999999e+00
1.199999999999e+00
1.199999999999e+00
1.199999999999e+00
1.199999999999e+00
1.199999999999e+00
1.199999999999e+00
1.199999999999e+00
1.199999999999e+00
1.199999999999e+00
1.199999999999e+00
1.199999999999e+00
1.199999999999e+00
1.199999999999e+00
1.199999999999e+00
1.199999999998e+00
1.079999999995e+00
8.399999999884e-01
3.599999999757e-01
0.000000000000e+00
0.000000000000e+00
0.000000000000e+00
0.000000000000e+00
0.000000000000e+00
0.000000000000e+00
0.000000000000e+00
0.000000000000e+00
0.000000000000e+00
0.000000000000e+00
0.000000000000e+00
0.000000000000e+00
0.000000000000e+00
0.000000000000e+00
0.000000000000e+00
0.000000000000e+00
0.000000000000e+00
0.000000000000e+00
0.000000000000e+00
0.000000000000e+00
0.000000000000e+00
0.000000000000e+00
0.000000000000e+00
0.000000000000e+00
0.000000000000e+00
0.000000000000e+00
0.000000000000e+00
0.000000000000e+00
1.200000000032e-01
3.600000000096e-01
8.400000000223e-01
1.199999999999e+00
1.199999999999e+00
1.199999999999e+00
1.199999999999e+00
1.199999999999e+00
1.199999999999e+00
1.199999999999e+00
1.199999999999e+00
1.199999999999e+00
1.199999999999e+00
1.199999999999e+00
1.199999999999e+00
1.199999999999e+00
1.199999999999e+00
1.199999999999e+00
1.199999999999e+00
1.199999999999e+00
1.199999999999e+00
1.199999999999e+00
1.199999999999e+00
1.199999999999e+00
1.199999999999e+00
1.199999999999e+00
1.199999999999e+00
1.199999999999e+00
1.199999999999e+00
1.199999999999e+00
1.199999999999e+00
1.199999999999e+00
1.199999999999e+00
1.199999999999e+00
1.199999999999e+00
1.199999999999e+00
1.199999999999e+00
1.199999999999e+00
1.199999999999e+00
1.199999999999e+00
1.199999999999e+00
1.199999999999e+00
1.199999999999e+00
1.199999999999e+00
1.199999999999e+00
1.199999999999e+00
1.199999999999e+00
1.199999999999e+00
1.199999999999e+00
1.199999999999e+00
1.199999999999e+00
1.199999999999e+00
1.199999999999e+00
1.199999999998e+00
1.079999999995e+00
8.399999999884e-01
3.599999999757e-01
0.000000000000e+00
0.000000000000e+00
0.000000000000e+00
0.000000000000e+00
0.000000000000e+00
0.000000000000e+00
0.000000000000e+00
0.000000000000e+00
0.000000000000e+00
0.000000000000e+00
0.000000000000e+00
0.000000000000e+00
0.000000000000e+00
0.000000000000e+00
0.000000000000e+00
0.000000000000e+00
0.000000000000e+00
0.000000000000e+00
0.000000000000e+00
0.000000000000e+00
0.000000000000e+00
0.000000000000e+00
0.000000000000e+00
0.000000000000e+00
0.000000000000e+00
0.000000000000e+00
0.000000000000e+00
0.000000000000e+00
1.200000000032e-01
3.600000000096e-01
8.400000000223e-01
1.199999999999e+00
1.199999999999e+00
1.199999999999e+00
1.199999999999e+00
1.199999999999e+00
1.199999999999e+00
1.199999999999e+00
1.199999999999e+00
1.199999999999e+00
1.199999999999e+00
1.199999999999e+00
1.199999999999e+00
1.199999999999e+00
1.199999999999e+00
1.199999999999e+00
1.199999999999e+00
1.199999999999e+00
1.199999999999e+00
1.199999999999e+00
1.199999999999e+00
1.199999999999e+00
1.199999999999e+00
1.199999999999e+00
1.199999999999e+00
1.199999999999e+00
1.199999999999e+00
1.199999999999e+00
1.199999999999e+00
1.199999999999e+00
1.199999999999e+00
1.199999999999e+00
1.199999999999e+00
1.199999999999e+00
1.199999999999e+00
1.199999999999e+00
1.199999999999e+00
1.199999999999e+00
1.199999999999e+00
1.199999999999e+00
1.199999999999e+00
1.199999999999e+00
1.199999999999e+00
1.199999999999e+00
1.199999999999e+00
1.199999999999e+00
1.199999999999e+00
1.199999999999e+00
1.199999999999e+00
1.199999999999e+00
1.199999999999e+00
1.199999999998e+00
1.079999999995e+00
8.399999999884e-01
3.599999999757e-01
0.000000000000e+00
0.000000000000e+00
0.000000000000e+00
0.000000000000e+00
0.000000000000e+00
0.000000000000e+00
0.000000000000e+00
0.000000000000e+00
0.000000000000e+00
0.000000000000e+00
0.000000000000e+00
0.000000000000e+00
0.000000000000e+00
0.000000000000e+00
0.000000000000e+00
0.000000000000e+00
0.000000000000e+00
0.000000000000e+00
0.000000000000e+00
0.000000000000e+00
0.000000000000e+00
0.000000000000e+00
0.000000000000e+00
0.000000000000e+00
0.000000000000e+00
0.000000000000e+00
0.000000000000e+00
0.000000000000e+00
0.000000000000e+00
</dep>
<dep tran.v(fref) time>
0.000000000000e+00
0.000000000000e+00
0.000000000000e+00
0.000000000000e+00
0.000000000000e+00
0.000000000000e+00
0.000000000000e+00
0.000000000000e+00
0.000000000000e+00
0.000000000000e+00
0.000000000000e+00
0.000000000000e+00
0.000000000000e+00
0.000000000000e+00
0.000000000000e+00
0.000000000000e+00
0.000000000000e+00
0.000000000000e+00
0.000000000000e+00
0.000000000000e+00
0.000000000000e+00
0.000000000000e+00
0.000000000000e+00
0.000000000000e+00
0.000000000000e+00
0.000000000000e+00
0.000000000000e+00
0.000000000000e+00
0.000000000000e+00
0.000000000000e+00
1.200000000032e-01
3.600000000096e-01
8.400000000223e-01
1.199999999999e+00
1.199999999999e+00
1.199999999999e+00
1.199999999999e+00
1.199999999999e+00
1.199999999999e+00
1.199999999999e+00
1.199999999999e+00
1.199999999999e+00
1.199999999999e+00
1.199999999999e+00
1.199999999999e+00
1.199999999999e+00
1.199999999999e+00
1.199999999999e+00
1.199999999999e+00
1.199999999999e+00
1.199999999999e+00
1.199999999999e+00
1.199999999999e+00
1.199999999999e+00
1.199999999999e+00
1.199999999999e+00
1.199999999999e+00
1.199999999999e+00
1.199999999999e+00
1.199999999999e+00
1.199999999999e+00
1.199999999999e+00
1.199999999999e+00
1.199999999999e+00
1.199999999999e+00
1.199999999999e+00
1.199999999999e+00
1.199999999999e+00
1.199999999999e+00
1.199999999999e+00
1.199999999999e+00
1.199999999999e+00
1.199999999999e+00
1.199999999999e+00
1.199999999999e+00
1.199999999999e+00
1.199999999999e+00
1.199999999999e+00
1.199999999999e+00
0.000000000000e+00
0.000000000000e+00
0.000000000000e+00
0.000000000000e+00
0.000000000000e+00
0.000000000000e+00
0.000000000000e+00
0.000000000000e+00
0.000000000000e+00
0.000000000000e+00
0.000000000000e+00
0.000000000000e+00
0.000000000000e+00
0.000000000000e+00
0.000000000000e+00
0.000000000000e+00
0.000000000000e+00
0.000000000000e+00
0.000000000000e+00
0.000000000000e+00
0.000000000000e+00
0.000000000000e+00
0.000000000000e+00
0.000000000000e+00
0.000000000000e+00
0.000000000000e+00
0.000000000000e+00
0.000000000000e+00
0.000000000000e+00
0.000000000000e+00
0.000000000000e+00
0.000000000000e+00
0.000000000000e+00
0.000000000000e+00
0.000000000000e+00
0.000000000000e+00
1.200000000032e-01
3.600000000096e-01
8.400000000223e-01
1.199999999999e+00
1.199999999999e+00
1.199999999999e+00
1.199999999999e+00
1.199999999999e+00
1.199999999999e+00
1.199999999999e+00
1.199999999999e+00
1.199999999999e+00
1.199999999999e+00
1.199999999999e+00
1.199999999999e+00
1.199999999999e+00
1.199999999999e+00
1.199999999999e+00
1.199999999999e+00
1.199999999999e+00
1.199999999999e+00
1.199999999999e+00
1.199999999999e+00
1.199999999999e+00
1.199999999999e+00
1.199999999999e+00
1.199999999999e+00
1.199999999999e+00
1.199999999999e+00
1.199999999999e+00
1.199999999999e+00
1.199999999999e+00
1.199999999999e+00
1.199999999999e+00
1.199999999999e+00
1.199999999999e+00
1.199999999999e+00
1.199999999999e+00
1.199999999999e+00
1.199999999999e+00
1.199999999999e+00
1.199999999999e+00
1.199999999999e+00
1.199999999999e+00
1.199999999999e+00
1.199999999999e+00
1.199999999999e+00
1.199999999999e+00
0.000000000000e+00
0.000000000000e+00
0.000000000000e+00
0.000000000000e+00
0.000000000000e+00
0.000000000000e+00
0.000000000000e+00
0.000000000000e+00
0.000000000000e+00
0.000000000000e+00
0.000000000000e+00
0.000000000000e+00
0.000000000000e+00
0.000000000000e+00
0.000000000000e+00
0.000000000000e+00
0.000000000000e+00
0.000000000000e+00
0.000000000000e+00
0.000000000000e+00
0.000000000000e+00
0.000000000000e+00
0.000000000000e+00
0.000000000000e+00
0.000000000000e+00
0.000000000000e+00
0.000000000000e+00
0.000000000000e+00
0.000000000000e+00
0.000000000000e+00
