<Qucs Dataset 25.1.1>
<indep time 497>
1.000200000000e-06
1.000201000000e-06
1.000203000000e-06
1.000207000000e-06
1.000210000000e-06
1.000210800000e-06
1.000212400000e-06
1.000215600000e-06
1.000222000000e-06
1.000234800000e-06
1.000260400000e-06
1.000311600000e-06
1.000414000000e-06
1.000567881481e-06
1.000709949536e-06
1.000844680353e-06
1.001066881919e-06
1.001293353321e-06
1.001657229966e-06
1.002166089613e-06
1.002897476813e-06
1.004080999738e-06
1.005817709195e-06
1.007190000000e-06
1.007191000000e-06
1.007193000000e-06
1.007197000000e-06
1.007200000000e-06
1.007200800000e-06
1.007202400000e-06
1.007205600000e-06
1.007212000000e-06
1.007224800000e-06
1.007250400000e-06
1.007301600000e-06
1.007404000000e-06
1.007560198277e-06
1.007765705222e-06
1.008138302445e-06
1.008879609902e-06
1.010102578374e-06
1.012548515317e-06
1.017403589074e-06
1.022454099074e-06
1.027504609074e-06
1.032555119074e-06
1.037605629074e-06
1.042656139074e-06
1.047706649074e-06
1.050210000000e-06
1.050211000000e-06
1.050213000000e-06
1.050217000000e-06
1.050220000000e-06
1.050220800000e-06
1.050222400000e-06
1.050225600000e-06
1.050232000000e-06
1.050244800000e-06
1.050270400000e-06
1.050321600000e-06
1.050424000000e-06
1.050601088016e-06
1.050911948067e-06
1.051533668169e-06
1.052777108372e-06
1.055263988780e-06
1.060200000000e-06
1.060201000000e-06
1.060203000000e-06
1.060207000000e-06
1.060210000000e-06
1.060210800000e-06
1.060212400000e-06
1.060215600000e-06
1.060222000000e-06
1.060234800000e-06
1.060260400000e-06
1.060311600000e-06
1.060414000000e-06
1.060528779843e-06
1.060632929990e-06
1.060750881091e-06
1.060846600653e-06
1.060959747521e-06
1.061093406217e-06
1.061236646330e-06
1.061502873769e-06
1.061847368857e-06
1.062453683480e-06
1.063464512125e-06
1.065118340089e-06
1.068083301547e-06
1.073133811547e-06
1.078184321547e-06
1.083234831547e-06
1.088285341547e-06
1.093335851547e-06
1.098386361547e-06
1.100220000000e-06
1.100221000000e-06
1.100223000000e-06
1.100227000000e-06
1.100230000000e-06
1.100230800000e-06
1.100232400000e-06
1.100235600000e-06
1.100242000000e-06
1.100254800000e-06
1.100280400000e-06
1.100331600000e-06
1.100434000000e-06
1.100585679594e-06
1.100728192004e-06
1.100861076026e-06
1.101078745632e-06
1.101301176746e-06
1.101654793766e-06
1.102150899077e-06
1.102861741774e-06
1.104011219064e-06
1.105699769873e-06
1.108808956372e-06
1.113210000000e-06
1.113211000000e-06
1.113213000000e-06
1.113217000000e-06
1.113220000000e-06
1.113220800000e-06
1.113222400000e-06
1.113225600000e-06
1.113232000000e-06
1.113244800000e-06
1.113270400000e-06
1.113321600000e-06
1.113424000000e-06
1.113580198760e-06
1.113785705542e-06
1.114158303444e-06
1.114899612745e-06
1.116122583589e-06
1.118568525279e-06
1.123423615022e-06
1.128474125022e-06
1.133524635022e-06
1.138575145022e-06
1.143625655022e-06
1.148676165022e-06
1.150230000000e-06
1.150231000000e-06
1.150233000000e-06
1.150237000000e-06
1.150240000000e-06
1.150240800000e-06
1.150242400000e-06
1.150245600000e-06
1.150252000000e-06
1.150264800000e-06
1.150290400000e-06
1.150341600000e-06
1.150444000000e-06
1.150621083388e-06
1.150931914717e-06
1.151553577375e-06
1.152796902692e-06
1.155283553324e-06
1.160256854589e-06
1.165307364589e-06
1.166220000000e-06
1.166221000000e-06
1.166223000000e-06
1.166227000000e-06
1.166230000000e-06
1.166230800000e-06
1.166232400000e-06
1.166235600000e-06
1.166242000000e-06
1.166254800000e-06
1.166280400000e-06
1.166331600000e-06
1.166434000000e-06
1.166548781886e-06
1.166652932280e-06
1.166770885223e-06
1.166866708971e-06
1.166979820422e-06
1.167113419460e-06
1.167256695080e-06
1.167522244330e-06
1.167866233192e-06
1.168470962604e-06
1.169479015734e-06
1.171129223875e-06
1.174084915780e-06
1.179135425780e-06
1.184185935780e-06
1.189236445780e-06
1.194286955780e-06
1.199337465780e-06
1.200240000000e-06
1.200241000000e-06
1.200243000000e-06
1.200247000000e-06
1.200250000000e-06
1.200250800000e-06
1.200252400000e-06
1.200255600000e-06
1.200262000000e-06
1.200274800000e-06
1.200300400000e-06
1.200351600000e-06
1.200454000000e-06
1.200607860112e-06
1.200749931773e-06
1.200884644853e-06
1.201106806691e-06
1.201333242271e-06
1.201697028924e-06
1.202205779141e-06
1.202936984766e-06
1.204120218594e-06
1.205856513227e-06
1.209146590352e-06
1.214197100352e-06
1.219230000000e-06
1.219231000000e-06
1.219233000000e-06
1.219237000000e-06
1.219240000000e-06
1.219240800000e-06
1.219242400000e-06
1.219245600000e-06
1.219252000000e-06
1.219264800000e-06
1.219290400000e-06
1.219341600000e-06
1.219444000000e-06
1.219600198143e-06
1.219805705167e-06
1.220178302193e-06
1.220919609903e-06
1.222142578698e-06
1.224588516289e-06
1.229443594567e-06
1.234494104567e-06
1.239544614567e-06
1.244595124567e-06
1.249645634567e-06
1.250250000000e-06
1.250251000000e-06
1.250253000000e-06
1.250257000000e-06
1.250260000000e-06
1.250260800000e-06
1.250262400000e-06
1.250265600000e-06
1.250272000000e-06
1.250284800000e-06
1.250310400000e-06
1.250361600000e-06
1.250464000000e-06
1.250641098412e-06
1.250951947850e-06
1.251573646725e-06
1.252817044476e-06
1.255303839978e-06
1.260277430981e-06
1.265327940981e-06
1.270378450981e-06
1.272240000000e-06
1.272241000000e-06
1.272243000000e-06
1.272247000000e-06
1.272250000000e-06
1.272250800000e-06
1.272252400000e-06
1.272255600000e-06
1.272262000000e-06
1.272274800000e-06
1.272300400000e-06
1.272351600000e-06
1.272454000000e-06
1.272568787069e-06
1.272672938184e-06
1.272790896945e-06
1.272886812728e-06
1.272999904998e-06
1.273133440599e-06
1.273276737966e-06
1.273541728996e-06
1.273885278252e-06
1.274488715539e-06
1.275494484082e-06
1.277141151055e-06
1.280089511026e-06
1.285140021026e-06
1.290190531026e-06
1.295241041026e-06
1.300260000000e-06
1.300261000000e-06
1.300263000000e-06
1.300267000000e-06
1.300270000000e-06
1.300270800000e-06
1.300272400000e-06
1.300275600000e-06
1.300282000000e-06
1.300294800000e-06
1.300320400000e-06
1.300371600000e-06
1.300474000000e-06
1.300627962694e-06
1.300770013347e-06
1.300904812829e-06
1.301127192379e-06
1.301353821440e-06
1.301718103674e-06
1.302227473342e-06
1.302959671889e-06
1.304144573125e-06
1.305883222502e-06
1.309181703696e-06
1.314232213696e-06
1.319282723696e-06
1.324333233696e-06
1.325250000000e-06
1.325251000000e-06
1.325253000000e-06
1.325257000000e-06
1.325260000000e-06
1.325260800000e-06
1.325262400000e-06
1.325265600000e-06
1.325272000000e-06
1.325284800000e-06
1.325310400000e-06
1.325361600000e-06
1.325464000000e-06
1.325620198169e-06
1.325825705181e-06
1.326198302245e-06
1.326939609952e-06
1.328162578744e-06
1.330608516329e-06
1.335463594281e-06
1.340514104281e-06
1.345564614281e-06
1.350270000000e-06
1.350271000000e-06
1.350273000000e-06
1.350277000000e-06
1.350280000000e-06
1.350280800000e-06
1.350282400000e-06
1.350285600000e-06
1.350292000000e-06
1.350304800000e-06
1.350330400000e-06
1.350381600000e-06
1.350484000000e-06
1.350661111648e-06
1.350971949421e-06
1.351593624968e-06
1.352836976060e-06
1.355323678244e-06
1.360297082613e-06
1.365347592613e-06
1.370398102613e-06
1.375448612613e-06
1.378260000000e-06
1.378261000000e-06
1.378263000000e-06
1.378267000000e-06
1.378270000000e-06
1.378270800000e-06
1.378272400000e-06
1.378275600000e-06
1.378282000000e-06
1.378294800000e-06
1.378320400000e-06
1.378371600000e-06
1.378474000000e-06
1.378588788269e-06
1.378692939299e-06
1.378810897546e-06
1.378906860810e-06
1.379019929681e-06
1.379153442983e-06
1.379296765197e-06
1.379561450107e-06
1.379904801687e-06
1.380507537777e-06
1.381512077551e-06
1.383156827190e-06
1.386086315242e-06
1.391136825242e-06
1.396187335242e-06
1.400280000000e-06
1.400281000000e-06
1.400283000000e-06
1.400287000000e-06
1.400290000000e-06
1.400290800000e-06
1.400292400000e-06
1.400295600000e-06
1.400302000000e-06
1.400314800000e-06
1.400340400000e-06
1.400391600000e-06
1.400494000000e-06
1.400645583734e-06
1.400788114999e-06
1.400920919125e-06
1.401138401173e-06
1.401360664176e-06
1.401713858493e-06
1.402209443082e-06
1.402919438388e-06
1.404067537541e-06
1.405754129945e-06
1.408856335311e-06
1.413906845311e-06
1.418957355311e-06
1.424007865311e-06
1.429058375311e-06
1.431270000000e-06
1.431271000000e-06
1.431273000000e-06
1.431277000000e-06
1.431280000000e-06
1.431280800000e-06
1.431282400000e-06
1.431285600000e-06
1.431292000000e-06
1.431304800000e-06
1.431330400000e-06
1.431381600000e-06
1.431484000000e-06
1.431640198588e-06
1.431845705490e-06
1.432218303126e-06
1.432959612828e-06
1.434182584149e-06
1.436628526791e-06
1.441483623033e-06
1.446534133033e-06
1.450290000000e-06
1.450291000000e-06
1.450293000000e-06
1.450297000000e-06
1.450300000000e-06
1.450300800000e-06
1.450302400000e-06
1.450305600000e-06
1.450312000000e-06
1.450324800000e-06
1.450350400000e-06
1.450401600000e-06
1.450504000000e-06
1.450681125756e-06
1.450991911205e-06
1.451613482102e-06
1.452856623897e-06
1.455342907487e-06
1.460315474668e-06
1.465365984668e-06
1.470416494668e-06
1.475467004668e-06
1.480517514668e-06
1.484280000000e-06
1.484281000000e-06
1.484283000000e-06
1.484287000000e-06
1.484290000000e-06
1.484290800000e-06
1.484292400000e-06
1.484295600000e-06
1.484302000000e-06
1.484314800000e-06
1.484340400000e-06
1.484391600000e-06
1.484494000000e-06
1.484608785650e-06
1.484712936440e-06
1.484830889848e-06
1.484926868880e-06
1.485039914671e-06
1.485173433025e-06
1.485316777600e-06
1.485581330946e-06
1.485924633263e-06
1.486527082897e-06
1.487531171839e-06
1.489175210453e-06
1.492095023398e-06
1.497145533398e-06
1.500000000000e-06
</indep>
<dep tran.v(fdiv) time>
0.000000000000e+00
1.200000000032e-01
3.600000000096e-01
8.400000000223e-01
1.199999999999e+00
1.199999999999e+00
1.199999999999e+00
1.199999999999e+00
1.199999999999e+00
1.199999999999e+00
1.199999999999e+00
1.199999999999e+00
1.199999999999e+00
1.199999999999e+00
1.199999999999e+00
1.199999999999e+00
1.199999999999e+00
1.199999999999e+00
1.199999999999e+00
1.199999999999e+00
1.199999999999e+00
1.199999999999e+00
1.199999999999e+00
1.199999999999e+00
1.199999999999e+00
1.199999999999e+00
1.199999999999e+00
1.199999999999e+00
1.199999999999e+00
1.199999999999e+00
1.199999999999e+00
1.199999999999e+00
1.199999999999e+00
1.199999999999e+00
1.199999999999e+00
1.199999999999e+00
1.199999999999e+00
1.199999999999e+00
1.199999999999e+00
1.199999999999e+00
1.199999999999e+00
1.199999999999e+00
1.199999999999e+00
1.199999999999e+00
1.199999999999e+00
1.199999999999e+00
1.199999999999e+00
1.199999999999e+00
1.199999999999e+00
1.199999999998e+00
1.079999999995e+00
8.399999999884e-01
3.599999999757e-01
0.000000000000e+00
0.000000000000e+00
0.000000000000e+00
0.000000000000e+00
0.000000000000e+00
0.000000000000e+00
0.000000000000e+00
0.000000000000e+00
0.000000000000e+00
0.000000000000e+00
0.000000000000e+00
0.000000000000e+00
0.000000000000e+00
0.000000000000e+00
0.000000000000e+00
0.000000000000e+00
0.000000000000e+00
0.000000000000e+00
0.000000000000e+00
0.000000000000e+00
0.000000000000e+00
0.000000000000e+00
0.000000000000e+00
0.000000000000e+00
0.000000000000e+00
0.000000000000e+00
0.000000000000e+00
0.000000000000e+00
0.000000000000e+00
0.000000000000e+00
0.000000000000e+00
0.000000000000e+00
0.000000000000e+00
0.000000000000e+00
0.000000000000e+00
0.000000000000e+00
0.000000000000e+00
0.000000000000e+00
0.000000000000e+00
0.000000000000e+00
0.000000000000e+00
0.000000000000e+00
0.000000000000e+00
0.000000000000e+00
0.000000000000e+00
0.000000000000e+00
0.000000000000e+00
1.200000000032e-01
3.600000000096e-01
8.400000000223e-01
1.199999999999e+00
1.199999999999e+00
1.199999999999e+00
1.199999999999e+00
1.199999999999e+00
1.199999999999e+00
1.199999999999e+00
1.199999999999e+00
1.199999999999e+00
1.199999999999e+00
1.199999999999e+00
1.199999999999e+00
1.199999999999e+00
1.199999999999e+00
1.199999999999e+00
1.199999999999e+00
1.199999999999e+00
1.199999999999e+00
1.199999999999e+00
1.199999999999e+00
1.199999999999e+00
1.199999999999e+00
1.199999999999e+00
1.199999999999e+00
1.199999999999e+00
1.199999999999e+00
1.199999999999e+00
1.199999999999e+00
1.199999999999e+00
1.199999999999e+00
1.199999999999e+00
1.199999999999e+00
1.199999999999e+00
1.199999999999e+00
1.199999999999e+00
1.199999999999e+00
1.199999999999e+00
1.199999999999e+00
1.199999999999e+00
1.199999999999e+00
1.199999999999e+00
1.199999999999e+00
1.199999999999e+00
1.199999999999e+00
1.199999999999e+00
1.199999999998e+00
1.079999999995e+00
8.399999999884e-01
3.599999999757e-01
0.000000000000e+00
0.000000000000e+00
0.000000000000e+00
0.000000000000e+00
0.000000000000e+00
0.000000000000e+00
0.000000000000e+00
0.000000000000e+00
0.000000000000e+00
0.000000000000e+00
0.000000000000e+00
0.000000000000e+00
0.000000000000e+00
0.000000000000e+00
0.000000000000e+00
0.000000000000e+00
0.000000000000e+00
0.000000000000e+00
0.000000000000e+00
0.000000000000e+00
0.000000000000e+00
0.000000000000e+00
0.000000000000e+00
0.000000000000e+00
0.000000000000e+00
0.000000000000e+00
0.000000000000e+00
0.000000000000e+00
0.000000000000e+00
0.000000000000e+00
0.000000000000e+00
0.000000000000e+00
0.000000000000e+00
0.000000000000e+00
0.000000000000e+00
0.000000000000e+00
0.000000000000e+00
0.000000000000e+00
0.000000000000e+00
0.000000000000e+00
0.000000000000e+00
0.000000000000e+00
0.000000000000e+00
0.000000000000e+00
0.000000000000e+00
0.000000000000e+00
0.000000000000e+00
0.000000000000e+00
1.200000000032e-01
3.600000000096e-01
8.400000000223e-01
1.199999999999e+00
1.199999999999e+00
1.199999999999e+00
1.199999999999e+00
1.199999999999e+00
1.199999999999e+00
1.199999999999e+00
1.199999999999e+00
1.199999999999e+00
1.199999999999e+00
1.199999999999e+00
1.199999999999e+00
1.199999999999e+00
1.199999999999e+00
1.199999999999e+00
1.199999999999e+00
1.199999999999e+00
1.199999999999e+00
1.199999999999e+00
1.199999999999e+00
1.199999999999e+00
1.199999999999e+00
1.199999999999e+00
1.199999999999e+00
1.199999999999e+00
1.199999999999e+00
1.199999999999e+00
1.199999999999e+00
1.199999999999e+00
1.199999999999e+00
1.199999999999e+00
1.199999999999e+00
1.199999999999e+00
1.199999999999e+00
1.199999999999e+00
1.199999999999e+00
1.199999999999e+00
1.199999999999e+00
1.199999999999e+00
1.199999999999e+00
1.199999999999e+00
1.199999999999e+00
1.199999999999e+00
1.199999999999e+00
1.199999999999e+00
1.199999999998e+00
1.079999999995e+00
8.399999999884e-01
3.599999999757e-01
0.000000000000e+00
0.000000000000e+00
0.000000000000e+00
0.000000000000e+00
0.000000000000e+00
0.000000000000e+00
0.000000000000e+00
0.000000000000e+00
0.000000000000e+00
0.000000000000e+00
0.000000000000e+00
0.000000000000e+00
0.000000000000e+00
0.000000000000e+00
0.000000000000e+00
0.000000000000e+00
0.000000000000e+00
0.000000000000e+00
0.000000000000e+00
0.000000000000e+00
0.000000000000e+00
0.000000000000e+00
0.000000000000e+00
0.000000000000e+00
0.000000000000e+00
0.000000000000e+00
0.000000000000e+00
0.000000000000e+00
0.000000000000e+00
0.000000000000e+00
0.000000000000e+00
0.000000000000e+00
0.000000000000e+00
0.000000000000e+00
0.000000000000e+00
0.000000000000e+00
0.000000000000e+00
0.000000000000e+00
0.000000000000e+00
0.000000000000e+00
0.000000000000e+00
0.000000000000e+00
0.000000000000e+00
0.000000000000e+00
0.000000000000e+00
0.000000000000e+00
0.000000000000e+00
1.200000000032e-01
3.600000000096e-01
8.400000000223e-01
1.199999999999e+00
1.199999999999e+00
1.199999999999e+00
1.199999999999e+00
1.199999999999e+00
1.199999999999e+00
1.199999999999e+00
1.199999999999e+00
1.199999999999e+00
1.199999999999e+00
1.199999999999e+00
1.199999999999e+00
1.199999999999e+00
1.199999999999e+00
1.199999999999e+00
1.199999999999e+00
1.199999999999e+00
1.199999999999e+00
1.199999999999e+00
1.199999999999e+00
1.199999999999e+00
1.199999999999e+00
1.199999999999e+00
1.199999999999e+00
1.199999999999e+00
1.199999999999e+00
1.199999999999e+00
1.199999999999e+00
1.199999999999e+00
1.199999999999e+00
1.199999999999e+00
1.199999999999e+00
1.199999999999e+00
1.199999999999e+00
1.199999999999e+00
1.199999999999e+00
1.199999999999e+00
1.199999999999e+00
1.199999999999e+00
1.199999999999e+00
1.199999999999e+00
1.199999999999e+00
1.199999999999e+00
1.199999999999e+00
1.199999999999e+00
1.199999999998e+00
1.079999999995e+00
8.399999999884e-01
3.599999999757e-01
0.000000000000e+00
0.000000000000e+00
0.000000000000e+00
0.000000000000e+00
0.000000000000e+00
0.000000000000e+00
0.000000000000e+00
0.000000000000e+00
0.000000000000e+00
0.000000000000e+00
0.000000000000e+00
0.000000000000e+00
0.000000000000e+00
0.000000000000e+00
0.000000000000e+00
0.000000000000e+00
0.000000000000e+00
0.000000000000e+00
0.000000000000e+00
0.000000000000e+00
0.000000000000e+00
0.000000000000e+00
0.000000000000e+00
0.000000000000e+00
0.000000000000e+00
0.000000000000e+00
0.000000000000e+00
0.000000000000e+00
0.000000000000e+00
0.000000000000e+00
0.000000000000e+00
0.000000000000e+00
0.000000000000e+00
0.000000000000e+00
0.000000000000e+00
0.000000000000e+00
0.000000000000e+00
0.000000000000e+00
0.000000000000e+00
0.000000000000e+00
0.000000000000e+00
0.000000000000e+00
0.000000000000e+00
0.000000000000e+00
0.000000000000e+00
0.000000000000e+00
0.000000000000e+00
1.200000000032e-01
3.600000000096e-01
8.400000000223e-01
1.199999999999e+00
1.199999999999e+00
1.199999999999e+00
1.199999999999e+00
1.199999999999e+00
1.199999999999e+00
1.199999999999e+00
1.199999999999e+00
1.199999999999e+00
1.199999999999e+00
1.199999999999e+00
1.199999999999e+00
1.199999999999e+00
1.199999999999e+00
1.199999999999e+00
1.199999999999e+00
1.199999999999e+00
1.199999999999e+00
1.199999999999e+00
1.199999999999e+00
1.199999999999e+00
1.199999999999e+00
1.199999999999e+00
1.199999999999e+00
1.199999999999e+00
1.199999999999e+00
1.199999999999e+00
1.199999999999e+00
1.199999999999e+00
1.199999999999e+00
1.199999999999e+00
1.199999999999e+00
1.199999999999e+00
1.199999999999e+00
1.199999999999e+00
1.199999999999e+00
1.199999999999e+00
1.199999999999e+00
1.199999999999e+00
1.199999999999e+00
1.199999999999e+00
1.199999999999e+00
1.199999999999e+00
1.199999999999e+00
1.199999999999e+00
1.199999999998e+00
1.079999999995e+00
8.399999999884e-01
3.599999999757e-01
0.000000000000e+00
0.000000000000e+00
0.000000000000e+00
0.000000000000e+00
0.000000000000e+00
0.000000000000e+00
0.000000000000e+00
0.000000000000e+00
0.000000000000e+00
0.000000000000e+00
0.000000000000e+00
0.000000000000e+00
0.000000000000e+00
0.000000000000e+00
0.000000000000e+00
0.000000000000e+00
0.000000000000e+00
0.000000000000e+00
0.000000000000e+00
0.000000000000e+00
0.000000000000e+00
0.000000000000e+00
0.000000000000e+00
0.000000000000e+00
0.000000000000e+00
0.000000000000e+00
0.000000000000e+00
0.000000000000e+00
0.000000000000e+00
0.000000000000e+00
0.000000000000e+00
0.000000000000e+00
0.000000000000e+00
0.000000000000e+00
0.000000000000e+00
0.000000000000e+00
0.000000000000e+00
0.000000000000e+00
0.000000000000e+00
0.000000000000e+00
0.000000000000e+00
0.000000000000e+00
0.000000000000e+00
0.000000000000e+00
0.000000000000e+00
0.000000000000e+00
0.000000000000e+00
</dep>
<dep tran.v(fref) time>
1.199999999999e+00
1.199999999999e+00
1.199999999999e+00
1.199999999999e+00
1.199999999999e+00
1.199999999999e+00
1.199999999999e+00
1.199999999999e+00
1.199999999999e+00
1.199999999999e+00
1.199999999999e+00
1.199999999999e+00
1.199999999999e+00
1.199999999999e+00
1.199999999999e+00
1.199999999999e+00
1.199999999999e+00
1.199999999999e+00
1.199999999999e+00
1.199999999999e+00
1.199999999999e+00
1.199999999999e+00
1.199999999999e+00
1.199999999996e+00
1.079999999993e+00
8.399999999868e-01
3.599999999741e-01
0.000000000000e+00
0.000000000000e+00
0.000000000000e+00
0.000000000000e+00
0.000000000000e+00
0.000000000000e+00
0.000000000000e+00
0.000000000000e+00
0.000000000000e+00
0.000000000000e+00
0.000000000000e+00
0.000000000000e+00
0.000000000000e+00
0.000000000000e+00
0.000000000000e+00
0.000000000000e+00
0.000000000000e+00
0.000000000000e+00
0.000000000000e+00
0.000000000000e+00
0.000000000000e+00
0.000000000000e+00
0.000000000000e+00
0.000000000000e+00
0.000000000000e+00
0.000000000000e+00
