<Qucs Dataset 25.1.1>
<indep time 417>
0.000000000000e+00
1.000000000000e-11
2.000000000000e-11
4.000000000000e-11
8.000000000000e-11
1.600000000000e-10
3.200000000000e-10
6.400000000000e-10
1.000000000000e-09
1.041867525798e-09
1.125602577394e-09
1.293072680586e-09
1.628012886970e-09
2.297893299737e-09
3.637654125272e-09
6.317175776342e-09
1.167621907848e-08
2.239430568276e-08
4.383047889132e-08
8.670282530845e-08
1.724475181427e-07
3.439369038112e-07
6.869156751482e-07
1.372873217822e-06
2.744788303170e-06
5.488618473866e-06
1.097627881526e-05
2.195159949804e-05
4.390224086361e-05
8.780352359474e-05
1.380548235947e-04
1.883061235947e-04
2.385574235947e-04
2.888087235947e-04
3.390600235947e-04
3.893113235947e-04
4.395626235947e-04
4.898139235947e-04
5.400652235947e-04
5.903165235947e-04
6.405678235947e-04
6.908191235947e-04
7.410704235947e-04
7.913217235947e-04
8.415730235947e-04
8.918243235947e-04
9.420756235947e-04
9.923269235947e-04
1.000001000000e-03
1.000001100000e-03
1.000001300000e-03
1.000001700000e-03
1.000002000000e-03
1.000002051994e-03
1.000002155983e-03
1.000002363960e-03
1.000002779913e-03
1.000003611821e-03
1.000005275637e-03
1.000008603268e-03
1.000015258529e-03
1.000028569053e-03
1.000055190101e-03
1.000108432195e-03
1.000214916385e-03
1.000427884764e-03
1.000853821523e-03
1.001705695040e-03
1.003409442074e-03
1.006816936143e-03
1.013631924279e-03
1.027261900553e-03
1.054521853101e-03
1.104773153101e-03
1.155024453101e-03
1.205275753101e-03
1.255527053101e-03
1.305778353101e-03
1.356029653101e-03
1.406280953101e-03
1.456532253101e-03
1.506783553101e-03
1.557034853101e-03
1.607286153101e-03
1.657537453101e-03
1.707788753101e-03
1.758040053101e-03
1.808291353101e-03
1.858542653101e-03
1.908793953101e-03
1.959045253101e-03
2.000002000000e-03
2.000002100000e-03
2.000002300000e-03
2.000002700000e-03
2.000003000000e-03
2.000003050835e-03
2.000003152505e-03
2.000003355844e-03
2.000003762523e-03
2.000004575881e-03
2.000006202597e-03
2.000009456028e-03
2.000015962891e-03
2.000028976618e-03
2.000055004070e-03
2.000107058976e-03
2.000211168786e-03
2.000419388407e-03
2.000835827650e-03
2.001668706134e-03
2.003334463103e-03
2.006665977040e-03
2.013329004915e-03
2.026655060666e-03
2.053307172167e-03
2.103558472167e-03
2.153809772167e-03
2.204061072167e-03
2.254312372167e-03
2.304563672167e-03
2.354814972167e-03
2.405066272167e-03
2.455317572167e-03
2.505568872167e-03
2.555820172167e-03
2.606071472167e-03
2.656322772167e-03
2.706574072167e-03
2.756825372167e-03
2.807076672167e-03
2.857327972167e-03
2.907579272167e-03
2.957830572167e-03
3.000003000000e-03
3.000003100000e-03
3.000003300000e-03
3.000003700000e-03
3.000004000000e-03
3.000004051429e-03
3.000004154286e-03
3.000004360001e-03
3.000004771430e-03
3.000005594288e-03
3.000007240005e-03
3.000010531438e-03
3.000017114305e-03
3.000030280038e-03
3.000056611504e-03
3.000109274437e-03
3.000214600302e-03
3.000425252033e-03
3.000846555495e-03
3.001689162420e-03
3.003374376268e-03
3.006744803964e-03
3.013485659357e-03
3.026967370142e-03
3.053930791712e-03
3.104182091712e-03
3.154433391712e-03
3.204684691712e-03
3.254935991712e-03
3.305187291712e-03
3.355438591712e-03
3.405689891712e-03
3.455941191712e-03
3.506192491712e-03
3.556443791712e-03
3.606695091712e-03
3.656946391712e-03
3.707197691712e-03
3.757448991712e-03
3.807700291712e-03
3.857951591712e-03
3.908202891712e-03
3.958454191712e-03
4.000004000000e-03
4.000004100000e-03
4.000004300000e-03
4.000004700000e-03
4.000005000000e-03
4.000005050832e-03
4.000005152497e-03
4.000005355826e-03
4.000005762485e-03
4.000006575802e-03
4.000008202435e-03
4.000011455703e-03
4.000017962239e-03
4.000030975310e-03
4.000057001451e-03
4.000109053735e-03
4.000213158303e-03
4.000421367438e-03
4.000837785708e-03
4.001670622248e-03
4.003336295329e-03
4.006667641491e-03
4.013330333814e-03
4.026655718459e-03
4.053306487751e-03
4.103557787751e-03
4.153809087751e-03
4.204060387751e-03
4.254311687751e-03
4.304562987751e-03
4.354814287751e-03
4.405065587751e-03
4.455316887751e-03
4.505568187751e-03
4.555819487751e-03
4.606070787751e-03
4.656322087751e-03
4.706573387751e-03
4.756824687751e-03
4.807075987751e-03
4.857327287751e-03
4.907578587751e-03
4.957829887751e-03
5.000005000000e-03
5.005030130000e-03
5.015080390000e-03
5.028454735096e-03
5.041283974088e-03
5.066942452071e-03
5.117193752071e-03
5.167445052071e-03
5.217696352071e-03
5.267947652071e-03
5.318198952071e-03
5.368450252071e-03
5.418701552071e-03
5.468952852071e-03
5.519204152071e-03
5.569455452071e-03
5.619706752071e-03
5.669958052071e-03
5.720209352071e-03
5.770460652071e-03
5.820711952071e-03
5.870963252071e-03
5.921214552071e-03
5.971465852071e-03
6.000006000000e-03
6.000006100000e-03
6.000006300000e-03
6.000006700000e-03
6.000007000000e-03
6.000007051075e-03
6.000007153225e-03
6.000007357525e-03
6.000007766126e-03
6.000008583327e-03
6.000010217729e-03
6.000013486532e-03
6.000020024140e-03
6.000033099354e-03
6.000059249784e-03
6.000111550643e-03
6.000216152361e-03
6.000425355796e-03
6.000843762668e-03
6.001680576411e-03
6.003354203897e-03
6.006701458869e-03
6.013395968814e-03
6.026784988702e-03
6.053563028479e-03
6.103814328479e-03
6.154065628479e-03
6.204316928479e-03
6.254568228479e-03
6.304819528479e-03
6.355070828479e-03
6.405322128479e-03
6.455573428479e-03
6.505824728479e-03
6.556076028479e-03
6.606327328479e-03
6.656578628479e-03
6.706829928479e-03
6.757081228479e-03
6.807332528479e-03
6.857583828479e-03
6.907835128479e-03
6.958086428479e-03
7.000007000000e-03
7.000007100000e-03
7.000007300000e-03
7.000007700000e-03
7.000008000000e-03
7.000008051430e-03
7.000008154289e-03
7.000008360008e-03
7.000008771445e-03
7.000009594319e-03
7.000011240068e-03
7.000014531565e-03
7.000021114559e-03
7.000034280548e-03
7.000060612526e-03
7.000113276483e-03
7.000218604395e-03
7.000429260219e-03
7.000850571868e-03
7.001693195165e-03
7.003378441760e-03
7.006748934950e-03
7.013489921330e-03
7.026971894090e-03
7.053935839609e-03
7.104187139609e-03
7.154438439609e-03
7.204689739609e-03
7.254941039609e-03
7.305192339609e-03
7.355443639609e-03
7.405694939609e-03
7.455946239609e-03
7.506197539609e-03
7.556448839609e-03
7.606700139609e-03
7.656951439609e-03
7.707202739609e-03
7.757454039609e-03
7.807705339609e-03
7.857956639609e-03
7.908207939609e-03
7.958459239609e-03
8.000008000000e-03
8.000008100000e-03
8.000008300000e-03
8.000008700000e-03
8.000009000000e-03
8.000009050832e-03
8.000009152497e-03
8.000009355826e-03
8.000009762485e-03
8.000010575802e-03
8.000012202436e-03
8.000015455704e-03
8.000021962240e-03
8.000034975312e-03
8.000061001456e-03
8.000113053745e-03
8.000217158321e-03
8.000425367475e-03
8.000841785782e-03
8.001674622397e-03
8.003340295626e-03
8.006671642084e-03
8.013334335001e-03
8.026659720834e-03
8.053310492501e-03
8.103561792501e-03
8.153813092501e-03
8.204064392501e-03
8.254315692501e-03
8.304566992501e-03
8.354818292501e-03
8.405069592501e-03
8.455320892501e-03
8.505572192501e-03
8.555823492501e-03
8.606074792501e-03
8.656326092501e-03
8.706577392501e-03
8.756828692501e-03
8.807079992501e-03
8.857331292501e-03
8.907582592501e-03
8.957833892501e-03
9.000009000000e-03
9.000009100000e-03
9.000009300000e-03
9.000009700000e-03
9.000010000000e-03
9.000010051429e-03
9.000010154286e-03
9.000010360000e-03
9.000010771430e-03
9.000011594288e-03
9.000013240004e-03
9.000016531437e-03
9.000023114302e-03
9.000036280032e-03
9.000062611493e-03
9.000115274415e-03
9.000220600259e-03
9.000431251946e-03
9.000852555320e-03
9.001695162069e-03
9.003380375566e-03
9.006750802561e-03
9.013491656551e-03
9.026973364530e-03
9.053936780489e-03
9.104188080489e-03
9.154439380489e-03
9.204690680489e-03
9.254941980489e-03
9.305193280489e-03
9.355444580489e-03
9.405695880489e-03
9.455947180489e-03
9.506198480489e-03
9.556449780489e-03
9.606701080489e-03
9.656952380489e-03
9.707203680489e-03
9.757454980489e-03
9.807706280489e-03
9.857957580489e-03
9.908208880489e-03
9.958460180489e-03
1.000000000000e-02
</indep>
<dep tran.i(pr1) time>
1.053131294791e-04
1.050425408740e-04
1.052670829881e-04
1.058092898740e-04
1.069767049984e-04
1.098718258746e-04
1.184663820522e-04
4.318293785203e-06
-4.669034733841e-06
-3.730655338321e-07
2.957005951700e-07
-2.639030236141e-07
2.497098743578e-07
-2.428033265651e-07
2.395769324749e-07
-2.378420761395e-07
2.371194564353e-07
-2.366204137030e-07
2.365097104170e-07
-2.363161495805e-07
2.363575611332e-07
-2.362401552991e-07
2.363195417369e-07
-2.362211612097e-07
2.363100380077e-07
-2.362164129674e-07
2.363076621453e-07
-2.362152259243e-07
2.363070681841e-07
-2.362149291646e-07
2.363068827345e-07
-2.362147562650e-07
2.363067098314e-07
-2.362145833608e-07
2.363065369284e-07
-2.362144104568e-07
2.363063640256e-07
-2.362142375529e-07
2.363061911229e-07
-2.362140646492e-07
2.363060182204e-07
-2.362138917456e-07
2.363058453180e-07
-2.362137188421e-07
2.363056724158e-07
-2.362135459388e-07
2.363054995137e-07
-2.362133730357e-07
2.363048471460e-07
3.650507913091e-07
3.581667929426e-07
1.000131236589e-04
1.134063395544e-04
1.061375996149e-04
1.046441660487e-04
1.059149372607e-04
1.047417482478e-04
1.058693040671e-04
1.047638674859e-04
1.058584357024e-04
1.047692651052e-04
1.058557511589e-04
1.047706063961e-04
1.058550820391e-04
1.047709412140e-04
1.058549148849e-04
1.047710248869e-04
1.058548731042e-04
1.047710458032e-04
1.058548626595e-04
1.047710510321e-04
1.058548600484e-04
1.047710523394e-04
1.058548593771e-04
1.047710528121e-04
1.058548589050e-04
1.047710532849e-04
1.058548584328e-04
1.047710537576e-04
1.058548579606e-04
1.047710542304e-04
1.058548574885e-04
1.047710547031e-04
1.058548570163e-04
1.047710551759e-04
1.058548565442e-04
1.047710556486e-04
1.058548560720e-04
1.047710561214e-04
1.058548555999e-04
1.047710565942e-04
1.058548550741e-04
1.076520824362e-04
1.171966442388e-04
3.579692058838e-06
-3.991323702411e-06
-2.664604022690e-07
2.199891244821e-07
-2.001217694498e-07
1.911169029829e-07
-1.866498642956e-07
1.846020702058e-07
-1.834486467062e-07
1.830139044467e-07
-1.826583488099e-07
1.826193471905e-07
-1.824613934791e-07
1.825208623737e-07
-1.824121932459e-07
1.824962508137e-07
-1.823998955986e-07
1.824900985262e-07
-1.823968213374e-07
1.824885604920e-07
-1.823960527815e-07
1.824881759858e-07
-1.823958567498e-07
1.824880400534e-07
-1.823957208348e-07
1.824879041392e-07
-1.823955849200e-07
1.824877682252e-07
-1.823954490053e-07
1.824876323112e-07
-1.823953130906e-07
1.824874963974e-07
-1.823951771761e-07
1.824873604837e-07
-1.823950412617e-07
1.824872245701e-07
-1.823949053475e-07
1.824870886566e-07
-1.823947694333e-07
1.824869527432e-07
-1.823946204970e-07
3.467772379138e-07
3.739061131646e-07
9.990991514657e-05
1.134420715367e-04
1.061500062067e-04
1.046357001016e-04
1.059218236758e-04
1.047355497702e-04
1.058751655443e-04
1.047581579471e-04
1.058640590958e-04
1.047636733893e-04
1.058613161120e-04
1.047650438668e-04
1.058606324488e-04
1.047653859646e-04
1.058604616629e-04
1.047654714565e-04
1.058604189746e-04
1.047654928274e-04
1.058604083030e-04
1.047654981700e-04
1.058604056351e-04
1.047654995057e-04
1.058604049519e-04
1.047654999834e-04
1.058604044747e-04
1.047655004612e-04
1.058604039976e-04
1.047655009390e-04
1.058604035204e-04
1.047655014168e-04
1.058604030432e-04
1.047655018945e-04
1.058604025661e-04
1.047655023723e-04
1.058604020889e-04
1.047655028501e-04
1.058604016118e-04
1.047655033279e-04
1.058604011346e-04
1.047655038056e-04
1.058604006075e-04
1.076524129064e-04
1.171962188791e-04
3.579821106400e-06
-3.991444876300e-06
-2.664792748073e-07
2.200027166654e-07
-2.001332813265e-07
1.911274946353e-07
-1.866600218200e-07
1.846120175421e-07
-1.834584903014e-07
1.830236966407e-07
-1.826681153818e-07
1.826291009603e-07
-1.824711408852e-07
1.825306065598e-07
-1.824219358661e-07
1.825059926053e-07
-1.824096370227e-07
1.824998397193e-07
-1.824065624625e-07
1.824983015355e-07
-1.824057938318e-07
1.824979169919e-07
-1.824055977845e-07
1.824977810531e-07
-1.824054618631e-07
1.824976451326e-07
-1.824053259419e-07
1.824975092121e-07
-1.824051900208e-07
1.824973732918e-07
-1.824050540998e-07
1.824972373716e-07
-1.824049181789e-07
1.824971014515e-07
-1.824047822581e-07
1.824969655315e-07
-1.824046463375e-07
1.824968296116e-07
-1.824045104170e-07
1.824966936919e-07
-1.824043614788e-07
1.053129695565e-04
1.053134279985e-04
1.053128309603e-04
1.053134279974e-04
1.053128309622e-04
1.053134279969e-04
1.053128309626e-04
1.053134279965e-04
1.053128309630e-04
1.053134279961e-04
1.053128309634e-04
1.053134279957e-04
1.053128309638e-04
1.053134279953e-04
1.053128309641e-04
1.053134279949e-04
1.053128309645e-04
1.053134279945e-04
1.053128309649e-04
1.053134279942e-04
1.053128309653e-04
1.053134279938e-04
1.053128309657e-04
1.053134279932e-04
1.076209757570e-04
1.172299898150e-04
3.567081207193e-06
-3.979460630528e-06
-2.646847214752e-07
2.187058687264e-07
-1.990327097205e-07
1.901137920384e-07
-1.856873118753e-07
1.836591575305e-07
-1.825154281160e-07
1.820854892237e-07
-1.817323279839e-07
1.816945227237e-07
-1.815371637270e-07
1.815969335093e-07
-1.814884107410e-07
1.815725457196e-07
-1.814762248730e-07
1.815664493667e-07
-1.814731785546e-07
1.815649253156e-07
-1.814724169843e-07
1.815645443051e-07
-1.814722224161e-07
1.815644089722e-07
-1.814720871002e-07
1.815642736572e-07
-1.814719517846e-07
1.815641383423e-07
-1.814718164690e-07
1.815640030275e-07
-1.814716811535e-07
1.815638677128e-07
-1.814715458382e-07
1.815637323983e-07
-1.814714105230e-07
1.815635970838e-07
-1.814712752079e-07
1.815634617695e-07
-1.814711398929e-07
1.815633264553e-07
-1.814709911287e-07
3.468130081422e-07
3.738750150430e-07
9.991010287350e-05
1.134420058959e-04
1.061499839324e-04
1.046357152835e-04
1.059218113334e-04
1.047355608767e-04
1.058751550431e-04
1.047581681756e-04
1.058640490220e-04
1.047636834062e-04
1.058613061432e-04
1.047650538313e-04
1.058606225062e-04
1.047653959160e-04
1.058604517268e-04
1.047654814046e-04
1.058604090400e-04
1.047655027747e-04
1.058603983689e-04
1.047655081172e-04
1.058603957011e-04
1.047655094527e-04
1.058603950179e-04
1.047655099305e-04
1.058603945407e-04
1.047655104083e-04
1.058603940636e-04
1.047655108861e-04
1.058603935864e-04
1.047655113638e-04
1.058603931093e-04
1.047655118416e-04
1.058603926321e-04
1.047655123194e-04
1.058603921550e-04
1.047655127971e-04
1.058603916778e-04
1.047655132749e-04
1.058603912007e-04
1.047655137527e-04
1.058603906735e-04
1.076524122911e-04
1.171962195316e-04
3.579820874307e-06
-3.991444658709e-06
-2.664792450220e-07
2.200026962537e-07
-2.001332646010e-07
1.911274795383e-07
-1.866600074906e-07
1.846120035843e-07
-1.834584765269e-07
1.830236829569e-07
-1.826681017433e-07
1.826290873444e-07
-1.824711272806e-07
1.825305929609e-07
-1.824219222699e-07
1.825059790106e-07
-1.824096234286e-07
1.824998261257e-07
-1.824065488689e-07
1.824982879421e-07
-1.824057802384e-07
1.824979033986e-07
-1.824055841911e-07
1.824977674598e-07
-1.824054482698e-07
1.824976315393e-07
-1.824053123486e-07
1.824974956188e-07
-1.824051764275e-07
1.824973596985e-07
-1.824050405065e-07
1.824972237783e-07
-1.824049045856e-07
1.824970878582e-07
-1.824047686648e-07
1.824969519383e-07
-1.824046327442e-07
1.824968160184e-07
-1.824044968237e-07
1.824966800987e-07
-1.824043478856e-07
3.467768566626e-07
3.739064416550e-07
9.990991311131e-05
1.134420722364e-04
1.061500064453e-04
1.046356999390e-04
1.059218238080e-04
1.047355496513e-04
1.058751656568e-04
1.047581578376e-04
1.058640592036e-04
1.047636732821e-04
1.058613162187e-04
1.047650437601e-04
1.058606325553e-04
1.047653858580e-04
1.058604617693e-04
1.047654713500e-04
1.058604190809e-04
1.047654927209e-04
1.058604084093e-04
1.047654980635e-04
1.058604057415e-04
1.047654993992e-04
1.058604050583e-04
1.047654998769e-04
1.058604045811e-04
1.047655003547e-04
1.058604041039e-04
1.047655008325e-04
1.058604036268e-04
1.047655013103e-04
1.058604031496e-04
1.047655017881e-04
1.058604026724e-04
1.047655022658e-04
1.058604021953e-04
1.047655027436e-04
1.058604017181e-04
1.047655032214e-04
1.058604012409e-04
1.047655036992e-04
1.058604007138e-04
</dep>
<dep tran.v(vdown) time>
1.200000000000e+00
1.188000000000e+00
1.176000000000e+00
1.152000000000e+00
1.104000000000e+00
1.008000000000e+00
8.160000000000e-01
4.320000000000e-01
0.000000000000e+00
0.000000000000e+00
0.000000000000e+00
0.000000000000e+00
0.000000000000e+00
0.000000000000e+00
0.000000000000e+00
0.000000000000e+00
0.000000000000e+00
0.000000000000e+00
0.000000000000e+00
0.000000000000e+00
0.000000000000e+00
0.000000000000e+00
0.000000000000e+00
0.000000000000e+00
0.000000000000e+00
0.000000000000e+00
0.000000000000e+00
0.000000000000e+00
0.000000000000e+00
0.000000000000e+00
0.000000000000e+00
0.000000000000e+00
0.000000000000e+00
0.000000000000e+00
0.000000000000e+00
0.000000000000e+00
0.000000000000e+00
0.000000000000e+00
0.000000000000e+00
0.000000000000e+00
0.000000000000e+00
0.000000000000e+00
0.000000000000e+00
0.000000000000e+00
0.000000000000e+00
0.000000000000e+00
0.000000000000e+00
0.000000000000e+00
0.000000000000e+00
1.200000000409e-01
3.600000001228e-01
8.400000000262e-01
1.200000000000e+00
1.200000000000e+00
1.200000000000e+00
1.200000000000e+00
1.200000000000e+00
1.200000000000e+00
1.200000000000e+00
1.200000000000e+00
1.200000000000e+00
1.200000000000e+00
1.200000000000e+00
1.200000000000e+00
1.200000000000e+00
1.200000000000e+00
1.200000000000e+00
1.200000000000e+00
1.200000000000e+00
1.200000000000e+00
1.200000000000e+00
1.200000000000e+00
1.200000000000e+00
1.200000000000e+00
1.200000000000e+00
1.200000000000e+00
1.200000000000e+00
1.200000000000e+00
1.200000000000e+00
1.200000000000e+00
1.200000000000e+00
1.200000000000e+00
1.200000000000e+00
1.200000000000e+00
1.200000000000e+00
1.200000000000e+00
1.200000000000e+00
1.200000000000e+00
1.200000000000e+00
1.200000000000e+00
1.200000000000e+00
1.200000000000e+00
1.079999999959e+00
8.399999998772e-01
3.599999997136e-01
1.112101521983e-10
0.000000000000e+00
0.000000000000e+00
0.000000000000e+00
0.000000000000e+00
0.000000000000e+00
0.000000000000e+00
0.000000000000e+00
0.000000000000e+00
0.000000000000e+00
0.000000000000e+00
0.000000000000e+00
0.000000000000e+00
0.000000000000e+00
0.000000000000e+00
0.000000000000e+00
0.000000000000e+00
0.000000000000e+00
0.000000000000e+00
0.000000000000e+00
0.000000000000e+00
0.000000000000e+00
0.000000000000e+00
0.000000000000e+00
0.000000000000e+00
0.000000000000e+00
0.000000000000e+00
0.000000000000e+00
0.000000000000e+00
0.000000000000e+00
0.000000000000e+00
0.000000000000e+00
0.000000000000e+00
0.000000000000e+00
0.000000000000e+00
0.000000000000e+00
0.000000000000e+00
0.000000000000e+00
0.000000000000e+00
0.000000000000e+00
1.200000000409e-01
3.600000001228e-01
8.400000002864e-01
1.200000000000e+00
1.200000000000e+00
1.200000000000e+00
1.200000000000e+00
1.200000000000e+00
1.200000000000e+00
1.200000000000e+00
1.200000000000e+00
1.200000000000e+00
1.200000000000e+00
1.200000000000e+00
1.200000000000e+00
1.200000000000e+00
1.200000000000e+00
1.200000000000e+00
1.200000000000e+00
1.200000000000e+00
1.200000000000e+00
1.200000000000e+00
1.200000000000e+00
1.200000000000e+00
1.200000000000e+00
1.200000000000e+00
1.200000000000e+00
1.200000000000e+00
1.200000000000e+00
1.200000000000e+00
1.200000000000e+00
1.200000000000e+00
1.200000000000e+00
1.200000000000e+00
1.200000000000e+00
1.200000000000e+00
1.200000000000e+00
1.200000000000e+00
1.200000000000e+00
1.200000000000e+00
1.200000000000e+00
1.200000000000e+00
1.200000000000e+00
1.079999999439e+00
8.399999993568e-01
3.599999991931e-01
0.000000000000e+00
0.000000000000e+00
0.000000000000e+00
0.000000000000e+00
0.000000000000e+00
0.000000000000e+00
0.000000000000e+00
0.000000000000e+00
0.000000000000e+00
0.000000000000e+00
0.000000000000e+00
0.000000000000e+00
0.000000000000e+00
0.000000000000e+00
0.000000000000e+00
0.000000000000e+00
0.000000000000e+00
0.000000000000e+00
0.000000000000e+00
0.000000000000e+00
0.000000000000e+00
0.000000000000e+00
0.000000000000e+00
0.000000000000e+00
0.000000000000e+00
0.000000000000e+00
