<Qucs Dataset 25.1.1>
<indep time 417>
0.000000000000e+00
1.000000000000e-11
2.000000000000e-11
4.000000000000e-11
8.000000000000e-11
1.600000000000e-10
3.200000000000e-10
6.400000000000e-10
1.000000000000e-09
1.064000000000e-09
1.192000000000e-09
1.448000000000e-09
1.960000000000e-09
2.984000000000e-09
5.032000000000e-09
9.128000000000e-09
1.732000000000e-08
3.370400000000e-08
6.647200000000e-08
1.320080000000e-07
2.630800000000e-07
5.252240000000e-07
1.049512000000e-06
2.098088000000e-06
4.195240000000e-06
8.389544000000e-06
1.677815200000e-05
3.355536800000e-05
6.710980000000e-05
1.173611000000e-04
1.676124000000e-04
2.178637000000e-04
2.681150000000e-04
3.183663000000e-04
3.686176000000e-04
4.188689000000e-04
4.691202000000e-04
5.193715000000e-04
5.696228000000e-04
6.198741000000e-04
6.701254000000e-04
7.203767000000e-04
7.706280000000e-04
8.208793000000e-04
8.711306000000e-04
9.213819000000e-04
9.716332000000e-04
1.000001000000e-03
1.000001100000e-03
1.000001300000e-03
1.000001700000e-03
1.000002000000e-03
1.000002080000e-03
1.000002240000e-03
1.000002560000e-03
1.000003200000e-03
1.000004480000e-03
1.000007040000e-03
1.000012160000e-03
1.000022400000e-03
1.000042880000e-03
1.000083840000e-03
1.000165760000e-03
1.000329600000e-03
1.000657280000e-03
1.001312640000e-03
1.002623360000e-03
1.005244800000e-03
1.010487679999e-03
1.020973439998e-03
1.041944959996e-03
1.083887999992e-03
1.134139299992e-03
1.184390599992e-03
1.234641899992e-03
1.284893199992e-03
1.335144499992e-03
1.385395799992e-03
1.435647099992e-03
1.485898399992e-03
1.536149699992e-03
1.586400999992e-03
1.636652299992e-03
1.686903599992e-03
1.737154899992e-03
1.787406199992e-03
1.837657499992e-03
1.887908799992e-03
1.938160099992e-03
1.988411399992e-03
2.000002000000e-03
2.000002100000e-03
2.000002300000e-03
2.000002700000e-03
2.000003000000e-03
2.000003077966e-03
2.000003233898e-03
2.000003545762e-03
2.000004169491e-03
2.000005416948e-03
2.000007911862e-03
2.000012901689e-03
2.000022881345e-03
2.000042840655e-03
2.000082759276e-03
2.000162596519e-03
2.000322271004e-03
2.000641619974e-03
2.001280317914e-03
2.002557713793e-03
2.005112505552e-03
2.010222089071e-03
2.020441256108e-03
2.040879590182e-03
2.081756258330e-03
2.132007558330e-03
2.182258858330e-03
2.232510158330e-03
2.282761458330e-03
2.333012758330e-03
2.383264058330e-03
2.433515358330e-03
2.483766658330e-03
2.534017958330e-03
2.584269258330e-03
2.634520558330e-03
2.684771858330e-03
2.735023158330e-03
2.785274458330e-03
2.835525758330e-03
2.885777058330e-03
2.936028358330e-03
2.986279658330e-03
3.000003000000e-03
3.000003100000e-03
3.000003300000e-03
3.000003700000e-03
3.000004000000e-03
3.000004080000e-03
3.000004240000e-03
3.000004560000e-03
3.000005200000e-03
3.000006480000e-03
3.000009040000e-03
3.000014160000e-03
3.000024400000e-03
3.000044880000e-03
3.000085840000e-03
3.000167760000e-03
3.000331600000e-03
3.000659280000e-03
3.001314640000e-03
3.002625360000e-03
3.005246800000e-03
3.010489679999e-03
3.020975439998e-03
3.041946959996e-03
3.083889999992e-03
3.134141299992e-03
3.184392599992e-03
3.234643899992e-03
3.284895199992e-03
3.335146499992e-03
3.385397799992e-03
3.435649099992e-03
3.485900399992e-03
3.536151699992e-03
3.586402999992e-03
3.636654299992e-03
3.686905599992e-03
3.737156899992e-03
3.787408199992e-03
3.837659499992e-03
3.887910799992e-03
3.938162099992e-03
3.988413399992e-03
4.000004000000e-03
4.000004100000e-03
4.000004300000e-03
4.000004700000e-03
4.000005000000e-03
4.000005077966e-03
4.000005233898e-03
4.000005545763e-03
4.000006169491e-03
4.000007416949e-03
4.000009911864e-03
4.000014901693e-03
4.000024881353e-03
4.000044840671e-03
4.000084759309e-03
4.000164596584e-03
4.000324271133e-03
4.000643620233e-03
4.001282318432e-03
4.002559714829e-03
4.005114507624e-03
4.010224093215e-03
4.020443264396e-03
4.040881606758e-03
4.081758291483e-03
4.132009591483e-03
4.182260891483e-03
4.232512191483e-03
4.282763491483e-03
4.333014791483e-03
4.383266091483e-03
4.433517391483e-03
4.483768691483e-03
4.534019991483e-03
4.584271291483e-03
4.634522591483e-03
4.684773891483e-03
4.735025191483e-03
4.785276491483e-03
4.835527791483e-03
4.885779091483e-03
4.936030391483e-03
4.986281691483e-03
5.000005000000e-03
5.005030130000e-03
5.013792452612e-03
5.022143145657e-03
5.032011569532e-03
5.051748417283e-03
5.091222112785e-03
5.141473412785e-03
5.191724712785e-03
5.241976012785e-03
5.292227312785e-03
5.342478612785e-03
5.392729912785e-03
5.442981212785e-03
5.493232512785e-03
5.543483812785e-03
5.593735112785e-03
5.643986412785e-03
5.694237712785e-03
5.744489012785e-03
5.794740312785e-03
5.844991612785e-03
5.895242912785e-03
5.945494212785e-03
5.995745512785e-03
6.000006000000e-03
6.000006100000e-03
6.000006300000e-03
6.000006700000e-03
6.000007000000e-03
6.000007078031e-03
6.000007234092e-03
6.000007546215e-03
6.000008170461e-03
6.000009418953e-03
6.000011915936e-03
6.000016909904e-03
6.000026897838e-03
6.000046873706e-03
6.000086825444e-03
6.000166728918e-03
6.000326535867e-03
6.000646149765e-03
6.001285377561e-03
6.002563833152e-03
6.005120744335e-03
6.010234566700e-03
6.020462211431e-03
6.040917500892e-03
6.081828079815e-03
6.132079379815e-03
6.182330679815e-03
6.232581979815e-03
6.282833279815e-03
6.333084579815e-03
6.383335879815e-03
6.433587179815e-03
6.483838479815e-03
6.534089779815e-03
6.584341079815e-03
6.634592379815e-03
6.684843679815e-03
6.735094979815e-03
6.785346279815e-03
6.835597579815e-03
6.885848879815e-03
6.936100179815e-03
6.986351479815e-03
7.000007000000e-03
7.000007100000e-03
7.000007300000e-03
7.000007700000e-03
7.000008000000e-03
7.000008080000e-03
7.000008240000e-03
7.000008560000e-03
7.000009200000e-03
7.000010480000e-03
7.000013040000e-03
7.000018160000e-03
7.000028400000e-03
7.000048880000e-03
7.000089840000e-03
7.000171760000e-03
7.000335600000e-03
7.000663280000e-03
7.001318639999e-03
7.002629359999e-03
7.005250799997e-03
7.010493679994e-03
7.020979439989e-03
7.041950959978e-03
7.083893999956e-03
7.134145299956e-03
7.184396599956e-03
7.234647899956e-03
7.284899199956e-03
7.335150499956e-03
7.385401799956e-03
7.435653099956e-03
7.485904399956e-03
7.536155699956e-03
7.586406999956e-03
7.636658299956e-03
7.686909599956e-03
7.737160899956e-03
7.787412199956e-03
7.837663499956e-03
7.887914799956e-03
7.938166099956e-03
7.988417399956e-03
8.000008000000e-03
8.000008100000e-03
8.000008300000e-03
8.000008700000e-03
8.000009000000e-03
8.000009077966e-03
8.000009233898e-03
8.000009545763e-03
8.000010169491e-03
8.000011416949e-03
8.000013911864e-03
8.000018901693e-03
8.000028881353e-03
8.000048840671e-03
8.000088759309e-03
8.000168596584e-03
8.000328271133e-03
8.000647620233e-03
8.001286318431e-03
8.002563714829e-03
8.005118507624e-03
8.010228093215e-03
8.020447264395e-03
8.040885606757e-03
8.081762291479e-03
8.132013591479e-03
8.182264891479e-03
8.232516191479e-03
8.282767491479e-03
8.333018791479e-03
8.383270091479e-03
8.433521391479e-03
8.483772691479e-03
8.534023991479e-03
8.584275291479e-03
8.634526591479e-03
8.684777891479e-03
8.735029191479e-03
8.785280491479e-03
8.835531791479e-03
8.885783091479e-03
8.936034391479e-03
8.986285691479e-03
9.000009000000e-03
9.000009100000e-03
9.000009300000e-03
9.000009700000e-03
9.000010000000e-03
9.000010080000e-03
9.000010240000e-03
9.000010560000e-03
9.000011200000e-03
9.000012480000e-03
9.000015040000e-03
9.000020160000e-03
9.000030400000e-03
9.000050880000e-03
9.000091840000e-03
9.000173760000e-03
9.000337600000e-03
9.000665280000e-03
9.001320639999e-03
9.002631359999e-03
9.005252799997e-03
9.010495679994e-03
9.020981439989e-03
9.041952959978e-03
9.083895999956e-03
9.134147299956e-03
9.184398599956e-03
9.234649899956e-03
9.284901199956e-03
9.335152499956e-03
9.385403799956e-03
9.435655099956e-03
9.485906399956e-03
9.536157699956e-03
9.586408999956e-03
9.636660299956e-03
9.686911599956e-03
9.737162899956e-03
9.787414199956e-03
9.837665499956e-03
9.887916799956e-03
9.938168099956e-03
9.988419399956e-03
1.000000000000e-02
</indep>
<dep tran.v(vin) time>
0.000000000000e+00
1.200000000000e-02
2.400000000000e-02
4.800000000000e-02
9.600000000000e-02
1.920000000000e-01
3.840000000000e-01
7.680000000000e-01
1.200000000000e+00
1.200000000000e+00
1.200000000000e+00
1.200000000000e+00
1.200000000000e+00
1.200000000000e+00
1.200000000000e+00
1.200000000000e+00
1.200000000000e+00
1.200000000000e+00
1.200000000000e+00
1.200000000000e+00
1.200000000000e+00
1.200000000000e+00
1.200000000000e+00
1.200000000000e+00
1.200000000000e+00
1.200000000000e+00
1.200000000000e+00
1.200000000000e+00
1.200000000000e+00
1.200000000000e+00
1.200000000000e+00
1.200000000000e+00
1.200000000000e+00
1.200000000000e+00
1.200000000000e+00
1.200000000000e+00
1.200000000000e+00
1.200000000000e+00
1.200000000000e+00
1.200000000000e+00
1.200000000000e+00
1.200000000000e+00
1.200000000000e+00
1.200000000000e+00
1.200000000000e+00
1.200000000000e+00
1.200000000000e+00
1.200000000000e+00
1.079999999959e+00
8.399999998772e-01
3.599999999738e-01
0.000000000000e+00
0.000000000000e+00
0.000000000000e+00
0.000000000000e+00
0.000000000000e+00
0.000000000000e+00
0.000000000000e+00
0.000000000000e+00
0.000000000000e+00
0.000000000000e+00
0.000000000000e+00
0.000000000000e+00
0.000000000000e+00
0.000000000000e+00
0.000000000000e+00
0.000000000000e+00
0.000000000000e+00
0.000000000000e+00
0.000000000000e+00
0.000000000000e+00
0.000000000000e+00
0.000000000000e+00
0.000000000000e+00
0.000000000000e+00
0.000000000000e+00
0.000000000000e+00
0.000000000000e+00
0.000000000000e+00
0.000000000000e+00
0.000000000000e+00
0.000000000000e+00
0.000000000000e+00
0.000000000000e+00
0.000000000000e+00
0.000000000000e+00
0.000000000000e+00
0.000000000000e+00
0.000000000000e+00
0.000000000000e+00
0.000000000000e+00
1.200000000409e-01
3.600000001228e-01
8.400000002864e-01
1.199999999889e+00
1.200000000000e+00
1.200000000000e+00
1.200000000000e+00
1.200000000000e+00
1.200000000000e+00
1.200000000000e+00
1.200000000000e+00
1.200000000000e+00
1.200000000000e+00
1.200000000000e+00
1.200000000000e+00
1.200000000000e+00
1.200000000000e+00
1.200000000000e+00
1.200000000000e+00
1.200000000000e+00
1.200000000000e+00
1.200000000000e+00
1.200000000000e+00
1.200000000000e+00
1.200000000000e+00
1.200000000000e+00
1.200000000000e+00
1.200000000000e+00
1.200000000000e+00
1.200000000000e+00
1.200000000000e+00
1.200000000000e+00
1.200000000000e+00
1.200000000000e+00
1.200000000000e+00
1.200000000000e+00
1.200000000000e+00
1.200000000000e+00
1.200000000000e+00
1.200000000000e+00
1.200000000000e+00
1.200000000000e+00
1.200000000000e+00
1.079999999959e+00
8.399999998772e-01
3.599999997136e-01
0.000000000000e+00
0.000000000000e+00
0.000000000000e+00
0.000000000000e+00
0.000000000000e+00
0.000000000000e+00
0.000000000000e+00
0.000000000000e+00
0.000000000000e+00
0.000000000000e+00
0.000000000000e+00
0.000000000000e+00
0.000000000000e+00
0.000000000000e+00
0.000000000000e+00
0.000000000000e+00
0.000000000000e+00
0.000000000000e+00
0.000000000000e+00
0.000000000000e+00
0.000000000000e+00
0.000000000000e+00
0.000000000000e+00
0.000000000000e+00
0.000000000000e+00
0.000000000000e+00
0.000000000000e+00
0.000000000000e+00
0.000000000000e+00
0.000000000000e+00
0.000000000000e+00
0.000000000000e+00
0.000000000000e+00
0.000000000000e+00
0.000000000000e+00
0.000000000000e+00
0.000000000000e+00
0.000000000000e+00
0.000000000000e+00
0.000000000000e+00
1.200000005613e-01
3.600000006432e-01
8.400000008069e-01
1.200000000000e+00
1.200000000000e+00
1.200000000000e+00
1.200000000000e+00
1.200000000000e+00
1.200000000000e+00
1.200000000000e+00
1.200000000000e+00
1.200000000000e+00
1.200000000000e+00
1.200000000000e+00
1.200000000000e+00
1.200000000000e+00
1.200000000000e+00
1.200000000000e+00
1.200000000000e+00
1.200000000000e+00
1.200000000000e+00
1.200000000000e+00
1.200000000000e+00
1.200000000000e+00
1.200000000000e+00
1.200000000000e+00
1.200000000000e+00
1.200000000000e+00
1.200000000000e+00
1.200000000000e+00
1.200000000000e+00
1.200000000000e+00
1.200000000000e+00
1.200000000000e+00
1.200000000000e+00
1.200000000000e+00
1.200000000000e+00
1.200000000000e+00
1.200000000000e+00
1.200000000000e+00
1.200000000000e+00
1.200000000000e+00
1.200000000000e+00
0.000000000000e+00
0.000000000000e+00
0.000000000000e+00
0.000000000000e+00
0.000000000000e+00
0.000000000000e+00
0.000000000000e+00
0.000000000000e+00
0.000000000000e+00
0.000000000000e+00
0.000000000000e+00
0.000000000000e+00
0.000000000000e+00
0.000000000000e+00
0.000000000000e+00
0.000000000000e+00
0.000000000000e+00
0.000000000000e+00
0.000000000000e+00
0.000000000000e+00
0.000000000000e+00
0.000000000000e+00
0.000000000000e+00
0.000000000000e+00
0.000000000000e+00
1.199999995205e-01
3.599999996023e-01
8.399999997660e-01
1.200000000000e+00
1.200000000000e+00
1.200000000000e+00
1.200000000000e+00
1.200000000000e+00
1.200000000000e+00
1.200000000000e+00
1.200000000000e+00
1.200000000000e+00
1.200000000000e+00
1.200000000000e+00
1.200000000000e+00
1.200000000000e+00
1.200000000000e+00
1.200000000000e+00
1.200000000000e+00
1.200000000000e+00
1.200000000000e+00
1.200000000000e+00
1.200000000000e+00
1.200000000000e+00
1.200000000000e+00
1.200000000000e+00
1.200000000000e+00
1.200000000000e+00
1.200000000000e+00
1.200000000000e+00
1.200000000000e+00
1.200000000000e+00
1.200000000000e+00
1.200000000000e+00
1.200000000000e+00
1.200000000000e+00
1.200000000000e+00
1.200000000000e+00
1.200000000000e+00
1.200000000000e+00
1.200000000000e+00
1.200000000000e+00
1.199999999480e+00
1.079999999959e+00
8.399999998772e-01
3.599999997136e-01
0.000000000000e+00
0.000000000000e+00
0.000000000000e+00
0.000000000000e+00
0.000000000000e+00
0.000000000000e+00
0.000000000000e+00
0.000000000000e+00
0.000000000000e+00
0.000000000000e+00
0.000000000000e+00
0.000000000000e+00
0.000000000000e+00
0.000000000000e+00
0.000000000000e+00
0.000000000000e+00
0.000000000000e+00
0.000000000000e+00
0.000000000000e+00
0.000000000000e+00
0.000000000000e+00
0.000000000000e+00
0.000000000000e+00
0.000000000000e+00
0.000000000000e+00
0.000000000000e+00
0.000000000000e+00
0.000000000000e+00
0.000000000000e+00
0.000000000000e+00
0.000000000000e+00
0.000000000000e+00
0.000000000000e+00
0.000000000000e+00
0.000000000000e+00
0.000000000000e+00
0.000000000000e+00
0.000000000000e+00
0.000000000000e+00
0.000000000000e+00
1.199999995205e-01
3.599999985615e-01
8.399999987252e-01
1.199999999368e+00
1.200000000000e+00
1.200000000000e+00
1.200000000000e+00
1.200000000000e+00
1.200000000000e+00
1.200000000000e+00
1.200000000000e+00
1.200000000000e+00
1.200000000000e+00
1.200000000000e+00
1.200000000000e+00
1.200000000000e+00
1.200000000000e+00
1.200000000000e+00
1.200000000000e+00
1.200000000000e+00
1.200000000000e+00
1.200000000000e+00
1.200000000000e+00
1.200000000000e+00
1.200000000000e+00
1.200000000000e+00
1.200000000000e+00
1.200000000000e+00
1.200000000000e+00
1.200000000000e+00
1.200000000000e+00
1.200000000000e+00
1.200000000000e+00
1.200000000000e+00
1.200000000000e+00
1.200000000000e+00
1.200000000000e+00
1.200000000000e+00
1.200000000000e+00
1.200000000000e+00
1.200000000000e+00
1.200000000000e+00
1.199999999480e+00
1.079999999959e+00
8.400000009181e-01
3.600000007544e-01
0.000000000000e+00
0.000000000000e+00
0.000000000000e+00
0.000000000000e+00
0.000000000000e+00
0.000000000000e+00
0.000000000000e+00
0.000000000000e+00
0.000000000000e+00
0.000000000000e+00
0.000000000000e+00
0.000000000000e+00
0.000000000000e+00
0.000000000000e+00
0.000000000000e+00
0.000000000000e+00
0.000000000000e+00
0.000000000000e+00
0.000000000000e+00
0.000000000000e+00
0.000000000000e+00
0.000000000000e+00
0.000000000000e+00
0.000000000000e+00
0.000000000000e+00
0.000000000000e+00
0.000000000000e+00
0.000000000000e+00
0.000000000000e+00
0.000000000000e+00
0.000000000000e+00
0.000000000000e+00
0.000000000000e+00
0.000000000000e+00
0.000000000000e+00
0.000000000000e+00
0.000000000000e+00
0.000000000000e+00
0.000000000000e+00
0.000000000000e+00
</dep>
<dep tran.v(vout) time>
1.199999886882e+00
1.201951218856e+00
1.202448741454e+00
1.202746542018e+00
1.202773531299e+00
1.203239691210e+00
1.194423083519e+00
5.844215768413e-02
-1.490593083483e-02
-9.304413430683e-04
8.121078557908e-04
-7.607726764472e-04
7.339769460718e-04
-7.229940038203e-04
7.156442348272e-04
-7.138493071107e-04
7.111326038975e-04
-7.115814193100e-04
7.100091169309e-04
-7.110155832081e-04
7.097285206986e-04
-7.108741950633e-04
7.096583888473e-04
-7.108388524556e-04
7.096408569599e-04
-7.108300170803e-04
7.096364740551e-04
-7.108278082537e-04
7.096353783331e-04
-7.108271945031e-04
7.096348899585e-04
-7.108267036785e-04
7.096344013819e-04
-7.108262128540e-04
7.096339128057e-04
-7.108257220298e-04
7.096334242296e-04
-7.108252312061e-04
7.096329356539e-04
-7.108247403824e-04
7.096324470787e-04
-7.108242495593e-04
7.096319585037e-04
-7.108237587364e-04
7.096314699291e-04
-7.108232679139e-04
7.096309813548e-04
-7.108225880897e-04
-4.726014599217e-03
-5.885575867330e-03
1.151647429268e+00
1.213801224346e+00
1.200529280267e+00
1.199511224929e+00
1.200470242624e+00
1.199539501212e+00
1.200456363847e+00
1.199546311579e+00
1.200452959067e+00
1.199547998455e+00
1.200452111871e+00
1.199548419199e+00
1.200451900321e+00
1.199548524324e+00
1.200451847449e+00
1.199548550601e+00
1.200451834232e+00
1.199548557170e+00
1.200451830928e+00
1.199548558813e+00
1.200451830102e+00
1.199548559223e+00
1.200451829850e+00
1.199548559452e+00
1.200451829620e+00
1.199548559681e+00
1.200451829391e+00
1.199548559909e+00
1.200451829161e+00
1.199548560138e+00
1.200451828932e+00
1.199548560367e+00
1.200451828702e+00
1.199548560596e+00
1.200451828473e+00
1.199548560824e+00
1.200451828243e+00
1.199548561053e+00
1.200451828013e+00
1.199548561282e+00
1.200451827402e+00
1.202843915974e+00
1.197755010937e+00
3.801308420759e-02
-1.186528203373e-02
-6.143993503847e-04
5.497876467287e-04
-5.206645075591e-04
5.059396734622e-04
-4.993631277506e-04
4.955346820517e-04
-4.941763977905e-04
4.929669166817e-04
-4.928882054650e-04
4.923270481605e-04
-4.925666853607e-04
4.921672102741e-04
-4.924863382919e-04
4.921272588752e-04
-4.924662535839e-04
4.921172715301e-04
-4.924612325355e-04
4.921147747253e-04
-4.924599772815e-04
4.921141505259e-04
-4.924595980428e-04
4.921138116804e-04
-4.924592580725e-04
4.921134727902e-04
-4.924589181025e-04
4.921131339002e-04
-4.924585781326e-04
4.921127950106e-04
-4.924582381630e-04
4.921124561211e-04
-4.924578981935e-04
4.921121172317e-04
-4.924575582242e-04
4.921117783425e-04
-4.924572182551e-04
4.921114394539e-04
-4.924568782864e-04
4.921111005654e-04
-4.924560863830e-04
-4.715989055524e-03
-5.898136416159e-03
1.151664504390e+00
1.213794483525e+00
1.200529020669e+00
1.199511464303e+00
1.200470011672e+00
1.199539726764e+00
1.200456139723e+00
1.199546533801e+00
1.200452736619e+00
1.199548219853e+00
1.200451889839e+00
1.199548640390e+00
1.200451678394e+00
1.199548745464e+00
1.200451625548e+00
1.199548771729e+00
1.200451612337e+00
1.199548778295e+00
1.200451609035e+00
1.199548779936e+00
1.200451608209e+00
1.199548780346e+00
1.200451607957e+00
1.199548780575e+00
1.200451607727e+00
1.199548780804e+00
1.200451607498e+00
1.199548781032e+00
1.200451607268e+00
1.199548781261e+00
1.200451607039e+00
1.199548781489e+00
1.200451606809e+00
1.199548781718e+00
1.200451606580e+00
1.199548781947e+00
1.200451606351e+00
1.199548782175e+00
1.200451606121e+00
1.199548782404e+00
1.200451605510e+00
1.202843908183e+00
1.197755022166e+00
3.801307376876e-02
-1.186527660576e-02
-6.143988364058e-04
5.497872122693e-04
-5.206641066683e-04
5.059392906386e-04
-4.993627517459e-04
4.955343112626e-04
-4.941760277886e-04
4.929665488493e-04
-4.928878369508e-04
4.923266810640e-04
-4.925663172173e-04
4.921668433611e-04
-4.924859702412e-04
4.921268920083e-04
-4.924658855563e-04
4.921169046745e-04
-4.924608645138e-04
4.921144078728e-04
-4.924596092611e-04
4.921137836741e-04
-4.924592300231e-04
4.921134448289e-04
-4.924588900531e-04
4.921131059389e-04
-4.924585500831e-04
4.921127670491e-04
-4.924582101135e-04
4.921124281597e-04
-4.924578701439e-04
