<Qucs Dataset 25.1.1>
<indep time 454>
0.000000000000e+00
1.000000000000e-11
2.000000000000e-11
4.000000000000e-11
8.000000000000e-11
1.600000000000e-10
3.200000000000e-10
4.956340008912e-10
6.354757595281e-10
7.740459857885e-10
9.182755399630e-10
1.000000000000e-09
1.014949453817e-09
1.044848361452e-09
1.104646176721e-09
1.224241807259e-09
1.463433068335e-09
1.941815590487e-09
2.898580634792e-09
4.812110723401e-09
8.639170900619e-09
1.629329125505e-08
3.160153196393e-08
6.221801338167e-08
1.234509762172e-07
2.459169018881e-07
4.908487532301e-07
9.807124559140e-07
1.960439861282e-06
3.919894672017e-06
7.838804293489e-06
1.567662353643e-05
3.135226202232e-05
6.270353899408e-05
1.129548389941e-04
1.632061389941e-04
2.134574389941e-04
2.637087389941e-04
3.139600389941e-04
3.642113389941e-04
4.144626389941e-04
4.647139389941e-04
5.149652389941e-04
5.652165389941e-04
6.154678389941e-04
6.657191389941e-04
7.159704389941e-04
7.662217389941e-04
8.164730389941e-04
8.667243389941e-04
9.169756389941e-04
9.672269389941e-04
1.000001000000e-03
1.000001100000e-03
1.000001300000e-03
1.000001568003e-03
1.000001838156e-03
1.000002000000e-03
1.000002029525e-03
1.000002088575e-03
1.000002206675e-03
1.000002427695e-03
1.000002869736e-03
1.000003753819e-03
1.000005521984e-03
1.000009058313e-03
1.000016130972e-03
1.000030276290e-03
1.000058566926e-03
1.000115148197e-03
1.000228310740e-03
1.000454635825e-03
1.000907285997e-03
1.001812586340e-03
1.003623187025e-03
1.007244388396e-03
1.014486791138e-03
1.028971596622e-03
1.057941207590e-03
1.108192507590e-03
1.158443807590e-03
1.208695107590e-03
1.258946407590e-03
1.309197707590e-03
1.359449007590e-03
1.409700307590e-03
1.459951607590e-03
1.510202907590e-03
1.560454207590e-03
1.610705507590e-03
1.660956807590e-03
1.711208107590e-03
1.761459407590e-03
1.811710707590e-03
1.861962007590e-03
1.912213307590e-03
1.962464607590e-03
2.000002000000e-03
2.000002100000e-03
2.000002300000e-03
2.000002493884e-03
2.000002652098e-03
2.000002809807e-03
2.000002979177e-03
2.000003000000e-03
2.000003017586e-03
2.000003052757e-03
2.000003115344e-03
2.000003240518e-03
2.000003490865e-03
2.000003991559e-03
2.000004992948e-03
2.000006995725e-03
2.000011001279e-03
2.000019012388e-03
2.000035034605e-03
2.000067079040e-03
2.000131167909e-03
2.000259345648e-03
2.000515701126e-03
2.001028412082e-03
2.002053833993e-03
2.004104677816e-03
2.008206365462e-03
2.016409740754e-03
2.032816491339e-03
2.065629992507e-03
2.115881292507e-03
2.166132592507e-03
2.216383892507e-03
2.266635192507e-03
2.316886492507e-03
2.367137792507e-03
2.417389092507e-03
2.467640392507e-03
2.517891692507e-03
2.568142992507e-03
2.618394292507e-03
2.668645592507e-03
2.718896892507e-03
2.769148192507e-03
2.819399492507e-03
2.869650792507e-03
2.919902092507e-03
2.970153392507e-03
3.000003000000e-03
3.000003100000e-03
3.000003300000e-03
3.000003567947e-03
3.000003838253e-03
3.000004000000e-03
3.000004029545e-03
3.000004088634e-03
3.000004206812e-03
3.000004427782e-03
3.000004869721e-03
3.000005753601e-03
3.000007521360e-03
3.000011056878e-03
3.000018127914e-03
3.000032269985e-03
3.000060554129e-03
3.000117122416e-03
3.000230258991e-03
3.000456532139e-03
3.000909078437e-03
3.001814171033e-03
3.003624356224e-03
3.007244726605e-03
3.014485467369e-03
3.028966948896e-03
3.057929911950e-03
3.108181211950e-03
3.158432511950e-03
3.208683811950e-03
3.258935111950e-03
3.309186411950e-03
3.359437711950e-03
3.409689011950e-03
3.459940311950e-03
3.510191611950e-03
3.560442911950e-03
3.610694211950e-03
3.660945511950e-03
3.711196811950e-03
3.761448111950e-03
3.811699411950e-03
3.861950711950e-03
3.912202011950e-03
3.962453311950e-03
4.000004000000e-03
4.000004100000e-03
4.000004300000e-03
4.000004493885e-03
4.000004652098e-03
4.000004809807e-03
4.000004979177e-03
4.000005000000e-03
4.000005017586e-03
4.000005052757e-03
4.000005115345e-03
4.000005240519e-03
4.000005490868e-03
4.000005991566e-03
4.000006992962e-03
4.000008995754e-03
4.000013001337e-03
4.000021012505e-03
4.000037034839e-03
4.000069079508e-03
4.000133168847e-03
4.000261347523e-03
4.000517704877e-03
4.001030419583e-03
4.002055848996e-03
4.004106707823e-03
4.008208425475e-03
4.016411860781e-03
4.032818731391e-03
4.065632472613e-03
4.115883772613e-03
4.166135072613e-03
4.216386372613e-03
4.266637672613e-03
4.316888972613e-03
4.367140272613e-03
4.417391572613e-03
4.467642872613e-03
4.517894172613e-03
4.568145472613e-03
4.618396772613e-03
4.668648072613e-03
4.718899372613e-03
4.769150672613e-03
4.819401972613e-03
4.869653272613e-03
4.919904572613e-03
4.970155872613e-03
5.000005000000e-03
5.000470262599e-03
5.001400787797e-03
5.001889260737e-03
5.002361438637e-03
5.003305794436e-03
5.005194506034e-03
5.008971929231e-03
5.016526775625e-03
5.031636468413e-03
5.061855853989e-03
5.112107153989e-03
5.162358453989e-03
5.212609753989e-03
5.262861053989e-03
5.313112353989e-03
5.363363653989e-03
5.413614953989e-03
5.463866253989e-03
5.514117553989e-03
5.564368853989e-03
5.614620153989e-03
5.664871453989e-03
5.715122753989e-03
5.765374053989e-03
5.815625353989e-03
5.865876653989e-03
5.916127953989e-03
5.966379253989e-03
6.000006000000e-03
6.000006100000e-03
6.000006300000e-03
6.000006493625e-03
6.000006652250e-03
6.000006810248e-03
6.000006979386e-03
6.000007000000e-03
6.000007017541e-03
6.000007052623e-03
6.000007114834e-03
6.000007239256e-03
6.000007488101e-03
6.000007985790e-03
6.000008981168e-03
6.000010971923e-03
6.000014953435e-03
6.000022916458e-03
6.000038842505e-03
6.000070694597e-03
6.000134398783e-03
6.000261807154e-03
6.000516623896e-03
6.001026257379e-03
6.002045524346e-03
6.004084058281e-03
6.008161126150e-03
6.016315261889e-03
6.032623533365e-03
6.065240076318e-03
6.115491376318e-03
6.165742676318e-03
6.215993976318e-03
6.266245276318e-03
6.316496576318e-03
6.366747876318e-03
6.416999176318e-03
6.467250476318e-03
6.517501776318e-03
6.567753076318e-03
6.618004376318e-03
6.668255676318e-03
6.718506976318e-03
6.768758276318e-03
6.819009576318e-03
6.869260876318e-03
6.919512176318e-03
6.969763476318e-03
7.000007000000e-03
7.000007100000e-03
7.000007300000e-03
7.000007567944e-03
7.000007838258e-03
7.000008000000e-03
7.000008029546e-03
7.000008088637e-03
7.000008206819e-03
7.000008427786e-03
7.000008869721e-03
7.000009753590e-03
7.000011521327e-03
7.000015056803e-03
7.000022127755e-03
7.000036269658e-03
7.000064553465e-03
7.000121121079e-03
7.000234256307e-03
7.000460526761e-03
7.000913067671e-03
7.001818149491e-03
7.003628313131e-03
7.007248640410e-03
7.014489294969e-03
7.028970604086e-03
7.057933222320e-03
7.108184522320e-03
7.158435822320e-03
7.208687122320e-03
7.258938422320e-03
7.309189722320e-03
7.359441022320e-03
7.409692322320e-03
7.459943622320e-03
7.510194922320e-03
7.560446222320e-03
7.610697522320e-03
7.660948822320e-03
7.711200122320e-03
7.761451422320e-03
7.811702722320e-03
7.861954022320e-03
7.912205322320e-03
7.962456622320e-03
8.000008000000e-03
8.000008100000e-03
8.000008300000e-03
8.000008493885e-03
8.000008652098e-03
8.000008809807e-03
8.000008979177e-03
8.000009000000e-03
8.000009017586e-03
8.000009052757e-03
8.000009115345e-03
8.000009240519e-03
8.000009490868e-03
8.000009991566e-03
8.000010992963e-03
8.000012995755e-03
8.000017001340e-03
8.000025012510e-03
8.000041034850e-03
8.000073079530e-03
8.000137168889e-03
8.000265347609e-03
8.000521705047e-03
8.001034419924e-03
8.002059849679e-03
8.004110709188e-03
8.008212428205e-03
8.016415866240e-03
8.032822742310e-03
8.065636494450e-03
8.115887794450e-03
8.166139094450e-03
8.216390394450e-03
8.266641694450e-03
8.316892994450e-03
8.367144294450e-03
8.417395594450e-03
8.467646894450e-03
8.517898194450e-03
8.568149494450e-03
8.618400794450e-03
8.668652094450e-03
8.718903394450e-03
8.769154694450e-03
8.819405994450e-03
8.869657294450e-03
8.919908594450e-03
8.970159894450e-03
9.000009000000e-03
9.000009100000e-03
9.000009300000e-03
9.000009567947e-03
9.000009838253e-03
9.000010000000e-03
9.000010029545e-03
9.000010088634e-03
9.000010206812e-03
9.000010427782e-03
9.000010869721e-03
9.000011753601e-03
9.000013521360e-03
9.000017056878e-03
9.000024127914e-03
9.000038269986e-03
9.000066554130e-03
9.000123122418e-03
9.000236258995e-03
9.000462532148e-03
9.000915078454e-03
9.001820171066e-03
9.003630356290e-03
9.007250726739e-03
9.014491467636e-03
9.028972949431e-03
9.057935913021e-03
9.108187213021e-03
9.158438513021e-03
9.208689813021e-03
9.258941113021e-03
9.309192413021e-03
9.359443713021e-03
9.409695013021e-03
9.459946313021e-03
9.510197613021e-03
9.560448913021e-03
9.610700213021e-03
9.660951513021e-03
9.711202813021e-03
9.761454113021e-03
9.811705413021e-03
9.861956713021e-03
9.912208013021e-03
9.962459313021e-03
1.000000000000e-02
</indep>
<dep tran.v(vin) time>
0.000000000000e+00
1.200000000000e-02
2.400000000000e-02
4.800000000000e-02
9.600000000000e-02
1.920000000000e-01
3.840000000000e-01
5.947608010695e-01
7.625709114338e-01
9.288551829462e-01
1.101930647956e+00
1.200000000000e+00
1.200000000000e+00
1.200000000000e+00
1.200000000000e+00
1.200000000000e+00
1.200000000000e+00
1.200000000000e+00
1.200000000000e+00
1.200000000000e+00
1.200000000000e+00
1.200000000000e+00
1.200000000000e+00
1.200000000000e+00
1.200000000000e+00
1.200000000000e+00
1.200000000000e+00
1.200000000000e+00
1.200000000000e+00
1.200000000000e+00
1.200000000000e+00
1.200000000000e+00
1.200000000000e+00
1.200000000000e+00
1.200000000000e+00
1.200000000000e+00
1.200000000000e+00
1.200000000000e+00
1.200000000000e+00
1.200000000000e+00
1.200000000000e+00
1.200000000000e+00
1.200000000000e+00
1.200000000000e+00
1.200000000000e+00
1.200000000000e+00
1.200000000000e+00
1.200000000000e+00
1.200000000000e+00
1.200000000000e+00
1.200000000000e+00
1.200000000000e+00
1.200000000000e+00
1.079999999959e+00
8.399999998772e-01
5.183959713129e-01
1.942129619697e-01
0.000000000000e+00
0.000000000000e+00
0.000000000000e+00
0.000000000000e+00
0.000000000000e+00
0.000000000000e+00
0.000000000000e+00
0.000000000000e+00
0.000000000000e+00
0.000000000000e+00
0.000000000000e+00
0.000000000000e+00
0.000000000000e+00
0.000000000000e+00
0.000000000000e+00
0.000000000000e+00
0.000000000000e+00
0.000000000000e+00
0.000000000000e+00
0.000000000000e+00
0.000000000000e+00
0.000000000000e+00
0.000000000000e+00
0.000000000000e+00
0.000000000000e+00
0.000000000000e+00
0.000000000000e+00
0.000000000000e+00
0.000000000000e+00
0.000000000000e+00
0.000000000000e+00
0.000000000000e+00
0.000000000000e+00
0.000000000000e+00
0.000000000000e+00
0.000000000000e+00
0.000000000000e+00
0.000000000000e+00
0.000000000000e+00
0.000000000000e+00
0.000000000000e+00
1.200000000409e-01
3.600000001228e-01
5.926610837509e-01
7.825180337040e-01
9.717687399560e-01
1.175012633026e+00
1.199999999889e+00
1.200000000000e+00
1.200000000000e+00
1.200000000000e+00
1.200000000000e+00
1.200000000000e+00
1.200000000000e+00
1.200000000000e+00
1.200000000000e+00
1.200000000000e+00
1.200000000000e+00
1.200000000000e+00
1.200000000000e+00
1.200000000000e+00
1.200000000000e+00
1.200000000000e+00
1.200000000000e+00
1.200000000000e+00
1.200000000000e+00
1.200000000000e+00
1.200000000000e+00
1.200000000000e+00
1.200000000000e+00
1.200000000000e+00
1.200000000000e+00
1.200000000000e+00
1.200000000000e+00
1.200000000000e+00
1.200000000000e+00
1.200000000000e+00
1.200000000000e+00
1.200000000000e+00
1.200000000000e+00
1.200000000000e+00
1.200000000000e+00
1.200000000000e+00
1.200000000000e+00
1.200000000000e+00
1.200000000000e+00
1.200000000000e+00
1.200000000000e+00
1.200000000000e+00
1.079999999959e+00
8.399999998772e-01
5.184638537314e-01
1.940966570873e-01
0.000000000000e+00
0.000000000000e+00
0.000000000000e+00
0.000000000000e+00
0.000000000000e+00
0.000000000000e+00
0.000000000000e+00
0.000000000000e+00
0.000000000000e+00
0.000000000000e+00
0.000000000000e+00
0.000000000000e+00
0.000000000000e+00
0.000000000000e+00
0.000000000000e+00
0.000000000000e+00
0.000000000000e+00
0.000000000000e+00
0.000000000000e+00
0.000000000000e+00
0.000000000000e+00
0.000000000000e+00
0.000000000000e+00
0.000000000000e+00
0.000000000000e+00
0.000000000000e+00
0.000000000000e+00
0.000000000000e+00
0.000000000000e+00
0.000000000000e+00
0.000000000000e+00
0.000000000000e+00
0.000000000000e+00
0.000000000000e+00
0.000000000000e+00
0.000000000000e+00
0.000000000000e+00
0.000000000000e+00
0.000000000000e+00
0.000000000000e+00
0.000000000000e+00
1.200000005613e-01
3.600000006432e-01
5.926614761453e-01
7.825178109655e-01
9.717680837101e-01
1.175012334306e+00
1.200000000000e+00
1.200000000000e+00
1.200000000000e+00
1.200000000000e+00
1.200000000000e+00
1.200000000000e+00
1.200000000000e+00
1.200000000000e+00
1.200000000000e+00
1.200000000000e+00
1.200000000000e+00
1.200000000000e+00
1.200000000000e+00
1.200000000000e+00
1.200000000000e+00
1.200000000000e+00
1.200000000000e+00
1.200000000000e+00
1.200000000000e+00
1.200000000000e+00
1.200000000000e+00
1.200000000000e+00
1.200000000000e+00
1.200000000000e+00
1.200000000000e+00
1.200000000000e+00
1.200000000000e+00
1.200000000000e+00
1.200000000000e+00
1.200000000000e+00
1.200000000000e+00
1.200000000000e+00
1.200000000000e+00
1.200000000000e+00
1.200000000000e+00
1.200000000000e+00
1.200000000000e+00
1.200000000000e+00
1.200000000000e+00
1.200000000000e+00
1.200000000000e+00
1.200000000000e+00
0.000000000000e+00
0.000000000000e+00
0.000000000000e+00
0.000000000000e+00
0.000000000000e+00
0.000000000000e+00
0.000000000000e+00
0.000000000000e+00
0.000000000000e+00
0.000000000000e+00
0.000000000000e+00
0.000000000000e+00
0.000000000000e+00
0.000000000000e+00
0.000000000000e+00
0.000000000000e+00
0.000000000000e+00
0.000000000000e+00
0.000000000000e+00
0.000000000000e+00
0.000000000000e+00
0.000000000000e+00
0.000000000000e+00
0.000000000000e+00
0.000000000000e+00
0.000000000000e+00
0.000000000000e+00
0.000000000000e+00
0.000000000000e+00
1.199999995205e-01
3.599999996023e-01
5.923496006199e-01
7.826996779869e-01
9.722973415977e-01
1.175262679884e+00
1.200000000000e+00
1.200000000000e+00
1.200000000000e+00
1.200000000000e+00
1.200000000000e+00
1.200000000000e+00
1.200000000000e+00
1.200000000000e+00
1.200000000000e+00
1.200000000000e+00
1.200000000000e+00
1.200000000000e+00
1.200000000000e+00
1.200000000000e+00
1.200000000000e+00
1.200000000000e+00
1.200000000000e+00
1.200000000000e+00
1.200000000000e+00
1.200000000000e+00
1.200000000000e+00
1.200000000000e+00
1.200000000000e+00
1.200000000000e+00
1.200000000000e+00
1.200000000000e+00
1.200000000000e+00
1.200000000000e+00
1.200000000000e+00
1.200000000000e+00
1.200000000000e+00
1.200000000000e+00
1.200000000000e+00
1.200000000000e+00
1.200000000000e+00
1.200000000000e+00
1.200000000000e+00
1.200000000000e+00
1.200000000000e+00
1.200000000000e+00
1.200000000000e+00
1.199999999480e+00
1.079999999959e+00
8.399999998772e-01
5.184674087002e-01
1.940905687283e-01
0.000000000000e+00
0.000000000000e+00
0.000000000000e+00
0.000000000000e+00
0.000000000000e+00
0.000000000000e+00
0.000000000000e+00
0.000000000000e+00
0.000000000000e+00
0.000000000000e+00
0.000000000000e+00
0.000000000000e+00
0.000000000000e+00
0.000000000000e+00
0.000000000000e+00
0.000000000000e+00
0.000000000000e+00
0.000000000000e+00
0.000000000000e+00
0.000000000000e+00
0.000000000000e+00
0.000000000000e+00
0.000000000000e+00
0.000000000000e+00
0.000000000000e+00
0.000000000000e+00
0.000000000000e+00
0.000000000000e+00
0.000000000000e+00
0.000000000000e+00
0.000000000000e+00
0.000000000000e+00
0.000000000000e+00
0.000000000000e+00
0.000000000000e+00
0.000000000000e+00
0.000000000000e+00
0.000000000000e+00
0.000000000000e+00
0.000000000000e+00
0.000000000000e+00
1.199999995205e-01
3.599999985615e-01
5.926614927987e-01
7.825178005572e-01
9.717680535259e-01
1.175012320775e+00
1.199999999368e+00
1.200000000000e+00
1.200000000000e+00
1.200000000000e+00
1.200000000000e+00
1.200000000000e+00
1.200000000000e+00
1.200000000000e+00
1.200000000000e+00
1.200000000000e+00
1.200000000000e+00
1.200000000000e+00
1.200000000000e+00
1.200000000000e+00
1.200000000000e+00
1.200000000000e+00
1.200000000000e+00
1.200000000000e+00
1.200000000000e+00
1.200000000000e+00
1.200000000000e+00
1.200000000000e+00
1.200000000000e+00
1.200000000000e+00
1.200000000000e+00
1.200000000000e+00
1.200000000000e+00
1.200000000000e+00
1.200000000000e+00
1.200000000000e+00
1.200000000000e+00
1.200000000000e+00
1.200000000000e+00
1.200000000000e+00
1.200000000000e+00
1.200000000000e+00
1.200000000000e+00
1.200000000000e+00
1.200000000000e+00
1.200000000000e+00
1.200000000000e+00
1.199999999480e+00
1.079999999959e+00
8.400000009181e-01
5.184638511293e-01
1.940966576077e-01
0.000000000000e+00
0.000000000000e+00
0.000000000000e+00
0.000000000000e+00
0.000000000000e+00
0.000000000000e+00
0.000000000000e+00
0.000000000000e+00
0.000000000000e+00
0.000000000000e+00
0.000000000000e+00
0.000000000000e+00
0.000000000000e+00
0.000000000000e+00
0.000000000000e+00
0.000000000000e+00
0.000000000000e+00
0.000000000000e+00
0.000000000000e+00
0.000000000000e+00
0.000000000000e+00
0.000000000000e+00
0.000000000000e+00
0.000000000000e+00
0.000000000000e+00
0.000000000000e+00
0.000000000000e+00
0.000000000000e+00
0.000000000000e+00
0.000000000000e+00
0.000000000000e+00
0.000000000000e+00
0.000000000000e+00
0.000000000000e+00
0.000000000000e+00
0.000000000000e+00
0.000000000000e+00
0.000000000000e+00
0.000000000000e+00
0.000000000000e+00
0.000000000000e+00
</dep>
<dep tran.v(vout) time>
1.199999403623e+00
1.202241510068e+00
1.202865217773e+00
1.203267284099e+00
1.203298944359e+00
1.203786407195e+00
1.186997104744e+00
3.998623459159e-01
-7.415334740374e-04
1.286773868115e-02
-6.092973035959e-04
8.101784801463e-03
1.725935256826e-03
-9.823570277543e-04
7.454072925080e-04
-6.514835889503e-04
6.073623893500e-04
-5.877670347721e-04
5.770550463807e-04
-5.728473830725e-04
5.697169294234e-04
-5.691774662840e-04
5.678969729854e-04
-5.682636906101e-04
5.674428893517e-04
-5.680354774474e-04
5.673294249526e-04
-5.679784385678e-04
5.673010623835e-04
-5.679641797484e-04
5.672939719618e-04
-5.679606151000e-04
5.672921993702e-04
-5.679597239413e-04
5.672917195383e-04
-5.679593535796e-04
5.672913504837e-04
-5.679589833448e-04
5.672909814290e-04
-5.679586131101e-04
5.672906123746e-04
-5.679582428756e-04
5.672902433205e-04
-5.679578726416e-04
5.672898742665e-04
-5.679575024076e-04
5.672895052128e-04
-5.679571321739e-04
5.672891361592e-04
-5.679567619404e-04
5.672887671062e-04
-5.679563917074e-04
5.672882995394e-04
-4.383856694728e-03
-6.085131205306e-03
2.888502172899e-01
1.179672080897e+00
1.207798082966e+00
1.200843739803e+00
1.199339106598e+00
1.200586067009e+00
1.199451273626e+00
1.200531343540e+00
1.199477296079e+00
1.200518487251e+00
1.199483607568e+00
1.200515322452e+00
1.199485173572e+00
1.200514534295e+00
1.199485564336e+00
1.200514337446e+00
1.199485661980e+00
1.200514288245e+00
1.199485686389e+00
1.200514275946e+00
1.199485692491e+00
1.200514272871e+00
1.199485694016e+00
1.200514272102e+00
1.199485694417e+00
1.200514271807e+00
1.199485694711e+00
1.200514271512e+00
1.199485695004e+00
1.200514271217e+00
1.199485695298e+00
1.200514270922e+00
1.199485695592e+00
1.200514270627e+00
1.199485695885e+00
1.200514270332e+00
1.199485696179e+00
1.200514270037e+00
1.199485696472e+00
1.200514269742e+00
1.199485696766e+00
1.200514269447e+00
1.199485697109e+00
1.203342480014e+00
1.192573255659e+00
3.850300442048e-01
-3.664773247574e-03
1.346391670257e-02
-1.656188910177e-03
6.793486529107e-03
1.270635970277e-03
-7.914659869104e-04
6.063734346521e-04
-5.328957358080e-04
4.985544317079e-04
-4.830038915542e-04
4.747478946578e-04
-4.712857363231e-04
4.689757643695e-04
-4.684011707820e-04
4.675436999947e-04
-4.676828072589e-04
4.671863655646e-04
-4.675033894851e-04
4.670970745010e-04
-4.674585458528e-04
4.670747543934e-04
-4.674473356201e-04
4.670691745325e-04
-4.674445331042e-04
4.670677795776e-04
-4.674438324778e-04
4.670673952043e-04
-4.674435276875e-04
4.670670912896e-04
-4.674432229730e-04
4.670667873751e-04
-4.674429182588e-04
4.670664834606e-04
-4.674426135445e-04
4.670661795464e-04
-4.674423088307e-04
