<Qucs Dataset 25.1.1>
<indep time 460>
0.000000000000e+00
1.000000000000e-11
2.000000000000e-11
4.000000000000e-11
8.000000000000e-11
1.600000000000e-10
3.200000000000e-10
6.400000000000e-10
1.000000000000e-09
1.064000000000e-09
1.192000000000e-09
1.448000000000e-09
1.960000000000e-09
2.984000000000e-09
5.032000000000e-09
9.128000000000e-09
1.732000000000e-08
3.370400000000e-08
6.647200000000e-08
1.320080000000e-07
2.630800000000e-07
5.252240000000e-07
1.049512000000e-06
2.098088000000e-06
4.195240000000e-06
8.389544000000e-06
1.677815200000e-05
3.355536800000e-05
6.710980000000e-05
1.173611000000e-04
1.676124000000e-04
2.178637000000e-04
2.681150000000e-04
3.183663000000e-04
3.686176000000e-04
4.188689000000e-04
4.691202000000e-04
5.193715000000e-04
5.696228000000e-04
6.198741000000e-04
6.701254000000e-04
7.203767000000e-04
7.706280000000e-04
8.208793000000e-04
8.711306000000e-04
9.213819000000e-04
9.716332000000e-04
1.000001000000e-03
1.000001100000e-03
1.000001300000e-03
1.000001700000e-03
1.000002000000e-03
1.000002080000e-03
1.000002240000e-03
1.000002560000e-03
1.000003200000e-03
1.000004480000e-03
1.000007040000e-03
1.000012160000e-03
1.000022400000e-03
1.000042880000e-03
1.000083840000e-03
1.000165760000e-03
1.000329600000e-03
1.000657280000e-03
1.001312640000e-03
1.002623360000e-03
1.005244800000e-03
1.010487679999e-03
1.020973439998e-03
1.041944959996e-03
1.083887999992e-03
1.134139299992e-03
1.184390599992e-03
1.234641899992e-03
1.284893199992e-03
1.335144499992e-03
1.385395799992e-03
1.435647099992e-03
1.485898399992e-03
1.536149699992e-03
1.586400999992e-03
1.636652299992e-03
1.686903599992e-03
1.737154899992e-03
1.787406199992e-03
1.837657499992e-03
1.887908799992e-03
1.938160099992e-03
1.988411399992e-03
2.000001000000e-03
2.000001100000e-03
2.000001300000e-03
2.000001700000e-03
2.000002000000e-03
2.000002080000e-03
2.000002240000e-03
2.000002560000e-03
2.000003000000e-03
2.000003064000e-03
2.000003192000e-03
2.000003448000e-03
2.000003960000e-03
2.000004984000e-03
2.000007032000e-03
2.000011128000e-03
2.000019320000e-03
2.000035704000e-03
2.000068472000e-03
2.000134008000e-03
2.000265080000e-03
2.000527224000e-03
2.001051512000e-03
2.002100088000e-03
2.004197240000e-03
2.008391543999e-03
2.016780151998e-03
2.033557367997e-03
2.067111799994e-03
2.117363099994e-03
2.167614399994e-03
2.217865699994e-03
2.268116999994e-03
2.318368299994e-03
2.368619599994e-03
2.418870899994e-03
2.469122199994e-03
2.519373499994e-03
2.569624799994e-03
2.619876099994e-03
2.670127399994e-03
2.720378699994e-03
2.770629999994e-03
2.820881299994e-03
2.871132599994e-03
2.921383899994e-03
2.971635199994e-03
3.000003000000e-03
3.000003100000e-03
3.000003300000e-03
3.000003700000e-03
3.000004000000e-03
3.000004080000e-03
3.000004240000e-03
3.000004560000e-03
3.000005200000e-03
3.000006480000e-03
3.000009040000e-03
3.000014160000e-03
3.000024400000e-03
3.000044880000e-03
3.000085840000e-03
3.000167760000e-03
3.000331600000e-03
3.000659280000e-03
3.001314640000e-03
3.002625360000e-03
3.005246800000e-03
3.010489679999e-03
3.020975439998e-03
3.041946959996e-03
3.083889999992e-03
3.134141299992e-03
3.184392599992e-03
3.234643899992e-03
3.284895199992e-03
3.335146499992e-03
3.385397799992e-03
3.435649099992e-03
3.485900399992e-03
3.536151699992e-03
3.586402999992e-03
3.636654299992e-03
3.686905599992e-03
3.737156899992e-03
3.787408199992e-03
3.837659499992e-03
3.887910799992e-03
3.938162099992e-03
3.988413399992e-03
4.000001000000e-03
4.000001100000e-03
4.000001300000e-03
4.000001700000e-03
4.000002000000e-03
4.000002080000e-03
4.000002240000e-03
4.000002560000e-03
4.000003000000e-03
4.000003064000e-03
4.000003192000e-03
4.000003448000e-03
4.000003960000e-03
4.000004000000e-03
4.000004080000e-03
4.000004240000e-03
4.000004560000e-03
4.000005000000e-03
4.000005064000e-03
4.000005192000e-03
4.000005448000e-03
4.000005960000e-03
4.000006984000e-03
4.000009032000e-03
4.000013128000e-03
4.000021319999e-03
4.000037703998e-03
4.000070471997e-03
4.000136007994e-03
4.000267079988e-03
4.000529223975e-03
4.001053511950e-03
4.002102087901e-03
4.004199239801e-03
4.008393543603e-03
4.016782151205e-03
4.033559366411e-03
4.067113796821e-03
4.117365096821e-03
4.167616396821e-03
4.217867696821e-03
4.268118996821e-03
4.318370296821e-03
4.368621596821e-03
4.418872896821e-03
4.469124196821e-03
4.519375496821e-03
4.569626796821e-03
4.619878096821e-03
4.670129396821e-03
4.720380696821e-03
4.770631996821e-03
4.820883296821e-03
4.871134596821e-03
4.921385896821e-03
4.971637196821e-03
5.000005000000e-03
5.005030130000e-03
5.015080390000e-03
5.035180910000e-03
5.057360847311e-03
5.101720721932e-03
5.151972021932e-03
5.202223321932e-03
5.252474621932e-03
5.302725921932e-03
5.352977221932e-03
5.403228521932e-03
5.453479821932e-03
5.503731121932e-03
5.553982421932e-03
5.604233721932e-03
5.654485021932e-03
5.704736321932e-03
5.754987621932e-03
5.805238921932e-03
5.855490221932e-03
5.905741521932e-03
5.955992821932e-03
6.000003000000e-03
6.000003100000e-03
6.000003300000e-03
6.000003700000e-03
6.000004000000e-03
6.000004080000e-03
6.000004240000e-03
6.000004560000e-03
6.000005200000e-03
6.000006000000e-03
6.000006100000e-03
6.000006300000e-03
6.000006700000e-03
6.000007000000e-03
6.000007080000e-03
6.000007240000e-03
6.000007560000e-03
6.000008200000e-03
6.000009480000e-03
6.000012040000e-03
6.000017160000e-03
6.000027400000e-03
6.000047880000e-03
6.000088840000e-03
6.000170760000e-03
6.000334600000e-03
6.000662280000e-03
6.001317640000e-03
6.002628360001e-03
6.005249800002e-03
6.010492680004e-03
6.020978440007e-03
6.041949960014e-03
6.083893000029e-03
6.134144300029e-03
6.184395600029e-03
6.234646900029e-03
6.284898200029e-03
6.335149500029e-03
6.385400800029e-03
6.435652100029e-03
6.485903400029e-03
6.536154700029e-03
6.586406000029e-03
6.636657300029e-03
6.686908600029e-03
6.737159900029e-03
6.787411200029e-03
6.837662500029e-03
6.887913800029e-03
6.938165100029e-03
6.988416400029e-03
7.000007000000e-03
7.000007100000e-03
7.000007300000e-03
7.000007700000e-03
7.000008000000e-03
7.000008080000e-03
7.000008240000e-03
7.000008560000e-03
7.000009200000e-03
7.000010480000e-03
7.000013040000e-03
7.000018160000e-03
7.000028400000e-03
7.000048880000e-03
7.000089840000e-03
7.000171760000e-03
7.000335600000e-03
7.000663280000e-03
7.001318639999e-03
7.002629359999e-03
7.005250799997e-03
7.010493679994e-03
7.020979439989e-03
7.041950959978e-03
7.083893999956e-03
7.134145299956e-03
7.184396599956e-03
7.234647899956e-03
7.284899199956e-03
7.335150499956e-03
7.385401799956e-03
7.435653099956e-03
7.485904399956e-03
7.536155699956e-03
7.586406999956e-03
7.636658299956e-03
7.686909599956e-03
7.737160899956e-03
7.787412199956e-03
7.837663499956e-03
7.887914799956e-03
7.938166099956e-03
7.988417399956e-03
8.000002000000e-03
8.000002100000e-03
8.000002300000e-03
8.000002700000e-03
8.000003000000e-03
8.000003080000e-03
8.000003240000e-03
8.000003560000e-03
8.000004000000e-03
8.000004064000e-03
8.000004192000e-03
8.000004448000e-03
8.000004960000e-03
8.000005000000e-03
8.000005080000e-03
8.000005240000e-03
8.000005560000e-03
8.000006200000e-03
8.000007480000e-03
8.000008000000e-03
8.000008100000e-03
8.000008300000e-03
8.000008700000e-03
8.000009000000e-03
8.000009080000e-03
8.000009240000e-03
8.000009560000e-03
8.000010200000e-03
8.000011480000e-03
8.000014040000e-03
8.000019160000e-03
8.000029400000e-03
8.000049880000e-03
8.000090840000e-03
8.000172760000e-03
8.000336600000e-03
8.000664280000e-03
8.001319639999e-03
8.002630359999e-03
8.005251799997e-03
8.010494679994e-03
8.020980439989e-03
8.041951959978e-03
8.083894999956e-03
8.134146299956e-03
8.184397599956e-03
8.234648899956e-03
8.284900199956e-03
8.335151499956e-03
8.385402799956e-03
8.435654099956e-03
8.485905399956e-03
8.536156699956e-03
8.586407999956e-03
8.636659299956e-03
8.686910599956e-03
8.737161899956e-03
8.787413199956e-03
8.837664499956e-03
8.887915799956e-03
8.938167099956e-03
8.988418399956e-03
9.000009000000e-03
9.000009100000e-03
9.000009300000e-03
9.000009700000e-03
9.000010000000e-03
9.000010080000e-03
9.000010240000e-03
9.000010560000e-03
9.000011200000e-03
9.000012480000e-03
9.000015040000e-03
9.000020160000e-03
9.000030400000e-03
9.000050880000e-03
9.000091840000e-03
9.000173760000e-03
9.000337600000e-03
9.000665280000e-03
9.001320639999e-03
9.002631359999e-03
9.005252799997e-03
9.010495679994e-03
9.020981439989e-03
9.041952959978e-03
9.083895999956e-03
9.134147299956e-03
9.184398599956e-03
9.234649899956e-03
9.284901199956e-03
9.335152499956e-03
9.385403799956e-03
9.435655099956e-03
9.485906399956e-03
9.536157699956e-03
9.586408999956e-03
9.636660299956e-03
9.686911599956e-03
9.737162899956e-03
9.787414199956e-03
9.837665499956e-03
9.887916799956e-03
9.938168099956e-03
9.988419399956e-03
1.000000000000e-02
</indep>
<dep tran.v(a) time>
0.000000000000e+00
1.200000000000e-02
2.400000000000e-02
4.800000000000e-02
9.600000000000e-02
1.920000000000e-01
3.840000000000e-01
7.680000000000e-01
1.200000000000e+00
1.200000000000e+00
1.200000000000e+00
1.200000000000e+00
1.200000000000e+00
1.200000000000e+00
1.200000000000e+00
1.200000000000e+00
1.200000000000e+00
1.200000000000e+00
1.200000000000e+00
1.200000000000e+00
1.200000000000e+00
1.200000000000e+00
1.200000000000e+00
1.200000000000e+00
1.200000000000e+00
1.200000000000e+00
1.200000000000e+00
1.200000000000e+00
1.200000000000e+00
1.200000000000e+00
1.200000000000e+00
1.200000000000e+00
1.200000000000e+00
1.200000000000e+00
1.200000000000e+00
1.200000000000e+00
1.200000000000e+00
1.200000000000e+00
1.200000000000e+00
1.200000000000e+00
1.200000000000e+00
1.200000000000e+00
1.200000000000e+00
1.200000000000e+00
1.200000000000e+00
1.200000000000e+00
1.200000000000e+00
1.200000000000e+00
1.079999999959e+00
8.399999998772e-01
3.599999999738e-01
0.000000000000e+00
0.000000000000e+00
0.000000000000e+00
0.000000000000e+00
0.000000000000e+00
0.000000000000e+00
0.000000000000e+00
0.000000000000e+00
0.000000000000e+00
0.000000000000e+00
0.000000000000e+00
0.000000000000e+00
0.000000000000e+00
0.000000000000e+00
0.000000000000e+00
0.000000000000e+00
0.000000000000e+00
0.000000000000e+00
0.000000000000e+00
0.000000000000e+00
0.000000000000e+00
0.000000000000e+00
0.000000000000e+00
0.000000000000e+00
0.000000000000e+00
0.000000000000e+00
0.000000000000e+00
0.000000000000e+00
0.000000000000e+00
0.000000000000e+00
0.000000000000e+00
0.000000000000e+00
0.000000000000e+00
0.000000000000e+00
0.000000000000e+00
0.000000000000e+00
0.000000000000e+00
0.000000000000e+00
0.000000000000e+00
0.000000000000e+00
0.000000000000e+00
0.000000000000e+00
0.000000000000e+00
0.000000000000e+00
9.599999961640e-02
2.879999993696e-01
6.719999993965e-01
1.199999999889e+00
1.200000000000e+00
1.200000000000e+00
1.200000000000e+00
1.200000000000e+00
1.200000000000e+00
1.200000000000e+00
1.200000000000e+00
1.200000000000e+00
1.200000000000e+00
1.200000000000e+00
1.200000000000e+00
1.200000000000e+00
1.200000000000e+00
1.200000000000e+00
1.200000000000e+00
1.200000000000e+00
1.200000000000e+00
1.200000000000e+00
1.200000000000e+00
1.200000000000e+00
1.200000000000e+00
1.200000000000e+00
1.200000000000e+00
1.200000000000e+00
1.200000000000e+00
1.200000000000e+00
1.200000000000e+00
1.200000000000e+00
1.200000000000e+00
1.200000000000e+00
1.200000000000e+00
1.200000000000e+00
1.200000000000e+00
1.200000000000e+00
1.200000000000e+00
1.200000000000e+00
1.200000000000e+00
1.200000000000e+00
1.200000000000e+00
1.079999999959e+00
8.399999998772e-01
3.599999997136e-01
0.000000000000e+00
0.000000000000e+00
0.000000000000e+00
0.000000000000e+00
0.000000000000e+00
0.000000000000e+00
0.000000000000e+00
0.000000000000e+00
0.000000000000e+00
0.000000000000e+00
0.000000000000e+00
0.000000000000e+00
0.000000000000e+00
0.000000000000e+00
0.000000000000e+00
0.000000000000e+00
0.000000000000e+00
0.000000000000e+00
0.000000000000e+00
0.000000000000e+00
0.000000000000e+00
0.000000000000e+00
0.000000000000e+00
0.000000000000e+00
0.000000000000e+00
0.000000000000e+00
0.000000000000e+00
0.000000000000e+00
0.000000000000e+00
0.000000000000e+00
0.000000000000e+00
0.000000000000e+00
0.000000000000e+00
0.000000000000e+00
0.000000000000e+00
0.000000000000e+00
0.000000000000e+00
0.000000000000e+00
0.000000000000e+00
0.000000000000e+00
0.000000000000e+00
0.000000000000e+00
0.000000000000e+00
0.000000000000e+00
0.000000000000e+00
0.000000000000e+00
0.000000000000e+00
0.000000000000e+00
0.000000000000e+00
0.000000000000e+00
0.000000000000e+00
0.000000000000e+00
0.000000000000e+00
9.599999545307e-02
2.879999863592e-01
6.719999681715e-01
1.200000000000e+00
1.200000000000e+00
1.200000000000e+00
1.200000000000e+00
1.200000000000e+00
1.200000000000e+00
1.200000000000e+00
1.200000000000e+00
1.200000000000e+00
1.200000000000e+00
1.200000000000e+00
1.200000000000e+00
1.200000000000e+00
1.200000000000e+00
1.200000000000e+00
1.200000000000e+00
1.200000000000e+00
1.200000000000e+00
1.200000000000e+00
1.200000000000e+00
1.200000000000e+00
1.200000000000e+00
1.200000000000e+00
1.200000000000e+00
1.200000000000e+00
1.200000000000e+00
1.200000000000e+00
1.200000000000e+00
1.200000000000e+00
1.200000000000e+00
1.200000000000e+00
1.200000000000e+00
1.200000000000e+00
1.200000000000e+00
1.200000000000e+00
1.200000000000e+00
1.200000000000e+00
1.200000000000e+00
1.200000000000e+00
1.200000000000e+00
0.000000000000e+00
0.000000000000e+00
0.000000000000e+00
0.000000000000e+00
0.000000000000e+00
0.000000000000e+00
0.000000000000e+00
0.000000000000e+00
0.000000000000e+00
0.000000000000e+00
0.000000000000e+00
0.000000000000e+00
0.000000000000e+00
0.000000000000e+00
0.000000000000e+00
0.000000000000e+00
0.000000000000e+00
0.000000000000e+00
0.000000000000e+00
0.000000000000e+00
0.000000000000e+00
0.000000000000e+00
0.000000000000e+00
0.000000000000e+00
0.000000000000e+00
0.000000000000e+00
0.000000000000e+00
0.000000000000e+00
0.000000000000e+00
0.000000000000e+00
0.000000000000e+00
0.000000000000e+00
1.199999995205e-01
3.599999996023e-01
8.399999997660e-01
1.200000000000e+00
1.200000000000e+00
1.200000000000e+00
1.200000000000e+00
1.200000000000e+00
1.200000000000e+00
1.200000000000e+00
1.200000000000e+00
1.200000000000e+00
1.200000000000e+00
1.200000000000e+00
1.200000000000e+00
1.200000000000e+00
1.200000000000e+00
1.200000000000e+00
1.200000000000e+00
1.200000000000e+00
1.200000000000e+00
1.200000000000e+00
1.200000000000e+00
1.200000000000e+00
1.200000000000e+00
1.200000000000e+00
1.200000000000e+00
1.200000000000e+00
1.200000000000e+00
1.200000000000e+00
1.200000000000e+00
1.200000000000e+00
1.200000000000e+00
1.200000000000e+00
1.200000000000e+00
1.200000000000e+00
1.200000000000e+00
1.200000000000e+00
1.200000000000e+00
1.200000000000e+00
1.200000000000e+00
1.200000000000e+00
1.199999999480e+00
1.079999999959e+00
8.399999998772e-01
3.599999997136e-01
0.000000000000e+00
0.000000000000e+00
0.000000000000e+00
0.000000000000e+00
0.000000000000e+00
0.000000000000e+00
0.000000000000e+00
0.000000000000e+00
0.000000000000e+00
0.000000000000e+00
0.000000000000e+00
0.000000000000e+00
0.000000000000e+00
0.000000000000e+00
0.000000000000e+00
0.000000000000e+00
0.000000000000e+00
0.000000000000e+00
0.000000000000e+00
0.000000000000e+00
0.000000000000e+00
0.000000000000e+00
0.000000000000e+00
0.000000000000e+00
0.000000000000e+00
0.000000000000e+00
0.000000000000e+00
0.000000000000e+00
0.000000000000e+00
0.000000000000e+00
0.000000000000e+00
0.000000000000e+00
0.000000000000e+00
0.000000000000e+00
0.000000000000e+00
0.000000000000e+00
0.000000000000e+00
0.000000000000e+00
0.000000000000e+00
0.000000000000e+00
0.000000000000e+00
0.000000000000e+00
0.000000000000e+00
0.000000000000e+00
0.000000000000e+00
0.000000000000e+00
0.000000000000e+00
0.000000000000e+00
0.000000000000e+00
0.000000000000e+00
0.000000000000e+00
0.000000000000e+00
0.000000000000e+00
0.000000000000e+00
0.000000000000e+00
0.000000000000e+00
0.000000000000e+00
0.000000000000e+00
0.000000000000e+00
1.199999995205e-01
3.599999985615e-01
8.399999987252e-01
1.199999999368e+00
1.200000000000e+00
1.200000000000e+00
1.200000000000e+00
1.200000000000e+00
1.200000000000e+00
1.200000000000e+00
1.200000000000e+00
1.200000000000e+00
1.200000000000e+00
1.200000000000e+00
1.200000000000e+00
1.200000000000e+00
1.200000000000e+00
1.200000000000e+00
1.200000000000e+00
1.200000000000e+00
1.200000000000e+00
1.200000000000e+00
1.200000000000e+00
1.200000000000e+00
1.200000000000e+00
1.200000000000e+00
1.200000000000e+00
1.200000000000e+00
1.200000000000e+00
1.200000000000e+00
1.200000000000e+00
1.200000000000e+00
1.200000000000e+00
1.200000000000e+00
1.200000000000e+00
1.200000000000e+00
1.200000000000e+00
1.200000000000e+00
1.200000000000e+00
1.200000000000e+00
1.200000000000e+00
1.200000000000e+00
1.199999999480e+00
1.079999999959e+00
8.400000009181e-01
3.600000007544e-01
0.000000000000e+00
0.000000000000e+00
0.000000000000e+00
0.000000000000e+00
0.000000000000e+00
0.000000000000e+00
0.000000000000e+00
0.000000000000e+00
0.000000000000e+00
0.000000000000e+00
0.000000000000e+00
0.000000000000e+00
0.000000000000e+00
0.000000000000e+00
0.000000000000e+00
0.000000000000e+00
0.000000000000e+00
0.000000000000e+00
0.000000000000e+00
0.000000000000e+00
0.000000000000e+00
0.000000000000e+00
0.000000000000e+00
0.000000000000e+00
0.000000000000e+00
0.000000000000e+00
0.000000000000e+00
0.000000000000e+00
0.000000000000e+00
0.000000000000e+00
0.000000000000e+00
0.000000000000e+00
0.000000000000e+00
0.000000000000e+00
0.000000000000e+00
0.000000000000e+00
0.000000000000e+00
0.000000000000e+00
0.000000000000e+00
0.000000000000e+00
</dep>
<dep tran.v(b) time>
0.000000000000e+00
1.200000000000e-02
2.400000000000e-02
4.800000000000e-02
9.600000000000e-02
1.920000000000e-01
3.840000000000e-01
7.680000000000e-01
1.200000000000e+00
1.200000000000e+00
1.200000000000e+00
1.200000000000e+00
1.200000000000e+00
1.200000000000e+00
1.200000000000e+00
1.200000000000e+00
1.200000000000e+00
1.200000000000e+00
1.200000000000e+00
1.200000000000e+00
1.200000000000e+00
1.200000000000e+00
1.200000000000e+00
1.200000000000e+00
1.200000000000e+00
1.200000000000e+00
1.200000000000e+00
1.200000000000e+00
1.200000000000e+00
1.200000000000e+00
1.200000000000e+00
1.200000000000e+00
1.200000000000e+00
1.200000000000e+00
1.200000000000e+00
1.200000000000e+00
1.200000000000e+00
1.200000000000e+00
1.200000000000e+00
1.200000000000e+00
1.200000000000e+00
1.200000000000e+00
1.200000000000e+00
1.200000000000e+00
1.200000000000e+00
1.200000000000e+00
1.200000000000e+00
1.200000000000e+00
1.200000000000e+00
1.200000000000e+00
1.200000000000e+00
1.200000000000e+00
1.200000000000e+00
1.200000000000e+00
1.200000000000e+00
1.200000000000e+00
1.200000000000e+00
1.200000000000e+00
1.200000000000e+00
1.200000000000e+00
1.200000000000e+00
1.200000000000e+00
1.200000000000e+00
1.200000000000e+00
1.200000000000e+00
1.200000000000e+00
1.200000000000e+00
1.200000000000e+00
1.200000000000e+00
1.200000000000e+00
1.200000000000e+00
1.200000000000e+00
1.200000000000e+00
1.200000000000e+00
1.200000000000e+00
1.200000000000e+00
1.200000000000e+00
1.200000000000e+00
1.200000000000e+00
1.200000000000e+00
1.200000000000e+00
1.200000000000e+00
1.200000000000e+00
1.200000000000e+00
1.200000000000e+00
1.200000000000e+00
1.200000000000e+00
1.200000000000e+00
1.200000000000e+00
1.200000000000e+00
1.200000000000e+00
1.079999999959e+00
8.399999998772e-01
3.599999997136e-01
0.000000000000e+00
0.000000000000e+00
0.000000000000e+00
0.000000000000e+00
0.000000000000e+00
0.000000000000e+00
0.000000000000e+00
0.000000000000e+00
0.000000000000e+00
0.000000000000e+00
0.000000000000e+00
0.000000000000e+00
0.000000000000e+00
0.000000000000e+00
0.000000000000e+00
0.000000000000e+00
0.000000000000e+00
0.000000000000e+00
0.000000000000e+00
0.000000000000e+00
0.000000000000e+00
0.000000000000e+00
0.000000000000e+00
0.000000000000e+00
0.000000000000e+00
0.000000000000e+00
0.000000000000e+00
0.000000000000e+00
0.000000000000e+00
0.000000000000e+00
0.000000000000e+00
0.000000000000e+00
0.000000000000e+00
